! TOUCHSTONE file generated by CST MICROWAVE STUDIO
! Date and time: Thu Jan  2 16:06:08 2025
! Project name: final.cst
! Parameters = {airCoaxOuterDiameter=3; chamferAngle=45; chamferWidth=23; connectorLength=10; drillingHoleDiameter=4.1; feedLength=60; flareDiameter=130; flareLength=70; gratingDistance=0; gratingGap=1.90274; outletLength=30; polarizerLength=126; probe1Diameter=1.3; probe1Distance=14; probe1Length=12; probe2Diameter=1.3; probe2Distance=0; probe2Length=12; probeLength=12; smaInnerDiameter=1.3; smaOuterDiameter=4.1; transitionCoefficient=1.33; waveguideFeedLength=30; waveguideSide=50; waveguideThickness=3; wireCount=25; wireDiameter=1.17699}
! Header version: 2024
! Port assignment regex: !\s*Touchstone port\s*([0-9]+)\s*=\s*(CST MWS port|CST DES external port|CST DES block port)\s*(.+)\s* \(\"(.*)\"\)(\s*mode\s*([0-9]+))?.*
! Touchstone port assignment:
! Touchstone port 1 = CST MWS port 1 ("Input1")
! Touchstone port 2 = CST MWS port 2 ("Input2")
# GHz S MA R 50
4.5                    0.2288055        55.17976        0.4731523        122.1552        0.4731534        122.1554        0.2288067        55.17839
4.5015                  0.224201        54.78275        0.4759779        121.5159        0.4759791        121.5158        0.2241979        54.78166
4.503                  0.2195124        54.34279        0.4786599        120.8712        0.4786604         120.871        0.2195074        54.34274
4.5045                  0.214692        53.87332         0.481234        120.2287        0.4812334        120.2286        0.2146889        53.87432
4.506                  0.2097449        53.39158         0.483764        119.5908        0.4837627        119.5908        0.2097459        53.39295
4.5075                 0.2047176        52.90792        0.4863035        118.9542        0.4863024        118.9543        0.2047222        52.90866
4.509                  0.1996617        52.41944         0.488865         118.313        0.4888649        118.3132        0.1996668        52.41897
4.5105                 0.1945963        51.91278        0.4914184         117.663        0.4914192        117.6632        0.1945986        51.91138
4.512                  0.1894948        51.37392        0.4939175        117.0048        0.4939188        117.0048        0.1894929        51.37251
4.5135                 0.1843043        50.79843        0.4963367        116.3431        0.4963375         116.343        0.1842997        50.79799
4.515                  0.1789826        50.19497        0.4986909        115.6837        0.4986908        115.6836        0.1789787        50.19582
4.5165                 0.1735265        49.57963        0.5010285        115.0292        0.5010274        115.0291        0.1735261        49.58119
4.518                  0.1679734        48.96494         0.503399        114.3773        0.5033978        114.3773        0.1679768         48.9661
4.5195                 0.1623745        48.35078        0.5058229        113.7227        0.5058225        113.7229        0.1623793        48.35067
4.521                  0.1567601        47.72366        0.5082809        113.0605        0.5082814        113.0607        0.1567631        47.72228
4.5225                 0.1511205        47.06497        0.5107295        112.3894        0.5107307        112.3895        0.1511197        47.06319
4.524                  0.1454141        46.36283        0.5131339        111.7123        0.5131349        111.7122        0.1454101        46.36189
4.5255                 0.1395975         45.6194         0.515492        111.0338        0.5154922        111.0337        0.1395932        45.61999
4.527                  0.1336552        44.84844        0.5178361        110.3573        0.5178354        110.3572        0.1336535        44.85023
4.5285                 0.1276096        44.06447        0.5202108        109.6822        0.5202097        109.6822        0.1276117        44.06625
4.53                   0.1215048        43.27052        0.5226429        109.0043        0.5226422        109.0045        0.1215091        43.27099
4.5315                 0.1153763        42.45246        0.5251246        108.3191        0.5251248        108.3192        0.1153798        42.45119
4.533                  0.1092277        41.58417        0.5276203        107.6239        0.5276214         107.624         0.109228        41.58191
4.5345                   0.10303        40.64025        0.5300922        106.9203        0.5300932        106.9203        0.1030268        40.63855
4.536                 0.09674259        39.60782        0.5325258         106.212        0.5325263        106.2119       0.09673813        39.60799
4.5375                0.09034187        38.48871        0.5349397        105.5025        0.5349392        105.5024       0.09033901        38.49089
4.539                 0.08383689        37.28957        0.5373713        104.7925        0.5373702        104.7925       0.08383742         37.2925
4.5405                0.07726331        36.00457        0.5398512        104.0792        0.5398504        104.0793       0.07726664        36.00629
4.542                 0.07066024        34.59978        0.5423823        103.3585        0.5423823        103.3587       0.07066392        34.59894
4.5435                0.06404669        33.00702        0.5449388        102.6275        0.5449394        102.6276       0.06404809        33.00386
4.545                 0.05741408        31.12724        0.5474836         101.886        0.5474847        101.8861       0.05741214        31.12377
4.5465                0.05073989        28.83421        0.5499943         101.137        0.5499949        101.1369       0.05073575        28.83305
4.548                 0.04401425        25.95951        0.5524765        100.3836        0.5524764        100.3836        0.0440104        25.96235
4.5495                0.03726487        22.23477        0.5549593        99.62754        0.5549584        99.62753       0.03726344        22.24108
4.551                 0.03057423         17.1503        0.5574735        98.86732        0.5574726        98.86737       0.03057575        17.15726
4.5525                0.02410519        9.633838        0.5600303        98.09947          0.56003        98.09958       0.02410842        9.637383
4.554                 0.01819715       -2.679042        0.5626137        97.32082        0.5626141        97.32093       0.01820026       -2.682408
4.5555                0.01368887       -24.44937        0.5651906         96.5304        0.5651916        96.53045       0.01369087       -24.46101
4.557                 0.01234728       -57.69556        0.5677336        95.72987        0.5677343        95.72984       0.01234838       -57.71265
4.5585                 0.0151729       -87.91028        0.5702372        94.92212        0.5702372        94.92206       0.01517293       -87.92629
4.56                  0.02062248       -106.0544        0.5727204         94.1092        0.5727198        94.10917       0.02062065       -106.0653
4.5615                0.02723444       -116.5506        0.5752115        93.29075        0.5752106        93.29079       0.02723096       -116.5552
4.563                 0.03438371       -123.2152        0.5777269        92.46424        0.5777264        92.46434       0.03438017       -123.2144
4.5645                0.04182124        -127.842        0.5802594        91.62654        0.5802597        91.62666       0.04181958       -127.8385
4.566                 0.04945025       -131.2779        0.5827818        90.77599        0.5827827        90.77606       0.04945143       -131.2749
4.5675                0.05724298       -133.9712        0.5852642        89.91325        0.5852651        89.91325       0.05724618       -133.9706
4.569                 0.06519616       -136.1898        0.5876921        89.04062        0.5876925        89.04058       0.06519926       -136.1918
4.5705                0.07330241       -138.1045        0.5900741        88.16032        0.5900737        88.16028       0.07330334       -138.1076
4.572                 0.08153852       -139.8206        0.5924325        87.27281        0.5924317        87.27283       0.08153663       -139.8232
4.5735                0.08987126       -141.3963        0.5947862         86.3765        0.5947856        86.37658        0.0898678       -141.3972
4.575                 0.09827355       -142.8584        0.5971353        85.46867        0.5971352        85.46878       0.09827078       -142.8576
4.5765                 0.1067382       -144.2203        0.5994586        84.54724        0.5994593        84.54732        0.1067378       -144.2189
4.578                  0.1152791       -145.4955        0.6017267        83.61205        0.6017276         83.6121        0.1152813       -145.4947
4.5795                 0.1239192        -146.703        0.6039179        82.66472        0.6039185         82.6647        0.1239223       -146.7034
4.581                  0.1326726       -147.8658        0.6060306        81.70739        0.6060305        81.70735        0.1326745       -147.8673
4.5825                 0.1415335       -149.0038        0.6080793         80.7412        0.6080788         80.7412        0.1415327       -149.0054
4.584                  0.1504782       -150.1281        0.6100822        79.76542        0.6100816        79.76549        0.1504752        -150.129
4.5855                 0.1594798       -151.2401        0.6120442        78.77796        0.6120442        78.77805        0.1594766         -151.24
4.587                  0.1685241       -152.3359        0.6139511        77.77666        0.6139516        77.77677        0.1685227       -152.3351
4.5885                 0.1776167        -153.412         0.615775        76.76077        0.6157759        76.76081        0.1776179       -153.4113
4.59                   0.1867763       -154.4702        0.6174901        75.73123        0.6174909        75.73122         0.186779       -154.4702
4.5915                 0.1960194       -155.5177        0.6190853        74.69002        0.6190855        74.68996        0.1960217       -155.5184
4.593                  0.2053469       -156.5634        0.6205667        73.63867        0.6205664        73.63865         0.205347       -156.5645
4.5945                 0.2147409       -157.6137        0.6219488        72.57735        0.6219483        72.57738        0.2147386       -157.6145
4.596                  0.2241744       -158.6696        0.6232396        71.50472        0.6232394        71.50481        0.2241711       -158.6697
4.5975                 0.2336263       -159.7278        0.6244309        70.41888        0.6244312        70.41896        0.2336241       -159.7274
4.599                  0.2430923       -160.7838         0.625499        69.31872        0.6254999        69.31878        0.2430925       -160.7833
4.6005                 0.2525836       -161.8359        0.6264166        68.20468        0.6264176        68.20468        0.2525858       -161.8357
4.602                  0.2621153       -162.8861        0.6271652        67.07846        0.6271657        67.07843        0.2621178       -162.8864
4.6035                 0.2716922       -163.9392        0.6277427        65.94193        0.6277427        65.94189        0.2716931       -163.9399
4.605                  0.2813018       -164.9997        0.6281589        64.79602        0.6281585        64.79602        0.2813004       -165.0004
4.6065                  0.290919       -166.0692        0.6284232        63.64027        0.6284228        63.64032        0.2909161       -166.0695
4.608                  0.3005189        -167.146        0.6285332        62.47334        0.6285332        62.47342        0.3005163       -167.1458
4.6095                 0.3100887       -168.2263        0.6284714        61.29411         0.628472        61.29418        0.3100881       -168.2258
4.611                  0.3196317       -169.3073        0.6282122        60.10271         0.628213        60.10273        0.3196333       -169.3071
4.6125                 0.3291595       -170.3891        0.6277338        58.90057        0.6277345        58.90054        0.3291621       -170.3891
4.614                  0.3386797       -171.4738        0.6270281         57.6898        0.6270282        57.68975        0.3386813       -171.4742
4.6155                 0.3481855       -172.5646        0.6261004        56.47208           0.6261        56.47205        0.3481851       -172.5651
4.617                  0.3576564       -173.6634        0.6249612        55.24793        0.6249607        55.24796         0.357654       -173.6637
4.6185                 0.3670669       -174.7696        0.6236149        54.01681        0.6236147        54.01687        0.3670642       -174.7695
4.62                    0.376399       -175.8806        0.6220526        52.77793        0.6220531        52.77801        0.3763977       -175.8803
4.6215                 0.3856493       -176.9936        0.6202553        51.53131        0.6202561        51.53136        0.3856501       -176.9933
4.623                   0.394826       -178.1075        0.6182033        50.27832         0.618204         50.2783        0.3948282       -178.1074
4.6245                  0.403938       -179.2231        0.6158868        49.02118         0.615887        49.02115        0.4039401       -179.2234
4.626                  0.4129849        179.6573        0.6133099         47.7623        0.6133096        47.76227        0.4129853        179.6569
4.6275                 0.4219522         178.532        0.6104863        46.50315        0.6104858        46.50315        0.4219506        178.5316
4.629                   0.430817        177.4005        0.6074291        45.24414        0.6074288         45.2442        0.4308144        177.4004
4.6305                 0.4395589        176.2644        0.6041422        43.98509        0.6041423         43.9852         0.439557        176.2645
4.632                  0.4481686        175.1257        0.6006186        42.72611        0.6006191        42.72613        0.4481686         175.126
4.6335                 0.4566496        173.9861        0.5968478        41.46834        0.5968485        41.46834        0.4566513        173.9862
4.635                  0.4650101        172.8455        0.5928248        40.21403        0.5928252          40.214        0.4650124        172.8454
4.6365                  0.473253        171.7024        0.5885576        38.96594        0.5885575        38.96588        0.4732541        171.7021
4.638                  0.4813684         170.555        0.5840661        37.72621        0.5840656        37.72618        0.4813676        170.5547
4.6395                 0.4893357        169.4025        0.5793741        36.49593        0.5793736        36.49595        0.4893335        169.4024
4.641                  0.4971317        168.2455        0.5745002        35.27519        0.5745002        35.27525        0.4971294        168.2456
4.6425                 0.5047404        167.0856        0.5694533        34.06386        0.5694536        34.06392        0.5047396        167.0858
4.644                  0.5121574        165.9246        0.5642347        32.86251        0.5642354        32.86254        0.5121586        165.9248
4.6455                 0.5193862        164.7631        0.5588473        31.67255        0.5588478        31.67255        0.5193883        164.7632
4.647                  0.5264291        163.6008        0.5533025        30.49621        0.5533026        30.49616        0.5264308        163.6007
4.6485                 0.5332791        162.4365        0.5476232        29.33535        0.5476229        29.33535        0.5332791        162.4363
4.65                   0.5399181        161.2696        0.5418379        28.19091        0.5418375        28.19093        0.5399164        161.2694
4.6515                 0.5463226        160.1004        0.5359727         27.0625        0.5359725        27.06256        0.5463203        160.1004
4.653                  0.5524733        158.9307        0.5300438         25.9491         0.530044        25.94918         0.552472        158.9309
4.6545                 0.5583616        157.7626        0.5240571        24.84991        0.5240576        24.84995        0.5583621        157.7628
4.656                  0.5639895        156.5978        0.5180143        23.76498        0.5180149        23.76497        0.5639914        156.5979
4.6575                  0.569363        155.4369        0.5119209        22.69523        0.5119211         22.6952        0.5693651        155.4368
4.659                  0.5744838        154.2798        0.5057909        21.64179        0.5057908        21.64176        0.5744846        154.2796
4.6605                 0.5793444        153.1262        0.4996453        20.60508        0.4996449        20.60508        0.5793436         153.126
4.662                  0.5839311        151.9764        0.4935044        19.58438        0.4935041        19.58442        0.5839292        151.9764
4.6635                 0.5882311        150.8321        0.4873809        18.57807         0.487381        18.57814        0.5882295        150.8322
4.665                  0.5922405        149.6951        0.4812769        17.58449        0.4812773        17.58455        0.5922404        149.6953
4.6665                 0.5959666        148.5674        0.4751874         16.6028        0.4751879        16.60281        0.5959681        148.5676
4.668                   0.599424        147.4501        0.4691079        15.63321        0.4691083        15.63318        0.5994261        147.4501
4.6695                 0.6026264        146.3431        0.4630412        14.67664        0.4630412         14.6766        0.6026277         146.343
4.671                  0.6055801        145.2462        0.4569978        13.73374        0.4569974        13.73372        0.6055798         145.246
4.6725                 0.6082833        144.1591        0.4509914        12.80419        0.4509911        12.80422        0.6082817         144.159
4.674                  0.6107318        143.0825        0.4450319        11.88672        0.4450318        11.88678        0.6107302        143.0825
4.6755                 0.6129261        142.0175        0.4391202        10.97963        0.4391204         10.9797        0.6129255        142.0177
4.677                  0.6148758        140.9657        0.4332495        10.08183          0.43325        10.08186        0.6148767        140.9659
4.6785                  0.616599         139.928        0.4274114        9.193312        0.4274118        9.193288         0.616601         139.928
4.68                   0.6181149        138.9041        0.4216028        8.315035        0.4216029        8.314982        0.6181167        138.9041
4.6815                  0.619437        137.8936        0.4158287        7.448067        0.4158286        7.448028        0.6194375        137.8934
4.683                  0.6205703        136.8955           0.4101        6.592736        0.4100996        6.592744        0.6205693        136.8953
4.6845                 0.6215139        135.9096        0.4044264        5.748246        0.4044263        5.748303        0.6215122        135.9096
4.686                  0.6222677        134.9364        0.3988114         4.91309        0.3988116        4.913162        0.6222666        134.9365
4.6875                 0.6228386        133.9769        0.3932502        4.085954        0.3932506        4.085996         0.622839        133.9771
4.689                  0.6232419        133.0317        0.3877343        3.266493        0.3877348        3.266481        0.6232436        133.0318
4.6905                 0.6234957        132.1007        0.3822583        2.455462        0.3822585        2.455406        0.6234977        132.1007
