! TOUCHSTONE file generated by CST DESIGN STUDIO
! Date and time: Sat Nov  9 00:44:19 2024
! Project name: C:\Users\marti\Repositories\Workspace\IDE projects\CST\diploma_thesis\design-studio-schematic\schematic.cst
! Tree item: Tasks\SPara1\S-Parameters
! Header version: 2018
! Port assignment regex: !\s*Touchstone port\s*([0-9]+)\s*=\s*(CST MWS port|CST DS port)\s*([0-9]+|Zmin|Zmax)\s*\(\"(.*)\"\)(\s*mode\s*([0-9]+))?.*
! Touchstone port assignment:
! Touchstone port 1 = CST DS port 1 ("")
! Touchstone port 2 = CST DS port 2 ("")
# GHz S MA R 0
4                    0.762175926      125.220368      0.123167327      153.877639      0.123673159      153.875577      0.703152262      133.246168
4.003                0.756428369      125.406824      0.122458173      151.278692      0.122953642      151.273147      0.702573012      132.982839
4.006                0.755876144      125.460913      0.122166618       148.74527      0.122650453      148.740043      0.702338819      132.733324
4.009                0.757077337      125.140365      0.122256988      146.085939      0.122734865      146.084465      0.702500208      132.472364
4.012                0.755488135       124.48846      0.122404095       143.18975      0.122883969      143.192887      0.702857981      132.180814
4.015                0.748640343      123.788268      0.122222473      140.094437      0.122709612      140.100174      0.703113983      131.858868
4.018                0.737761555      123.371229       0.12152215      136.955533      0.122015778      136.960325      0.703094635      131.525132
4.021                0.726953829      123.399283      0.120420162      133.938314      0.120913681      133.939308      0.702876074       131.20127
4.024                0.720432524      123.739406      0.119250477      131.115052      0.119735891      131.112144      0.702720135      130.895228
4.027                0.719513073      124.041493      0.118333014      128.414994      0.118806669      128.410958      0.702868157      130.594328
4.03                 0.721664541      123.997617      0.117757958      125.676762      0.118222645      125.674975      0.703354334      130.274699
4.033                0.722418753      123.566414      0.117329585      122.759284      0.117791888      122.761423      0.703976695       129.91823
4.036                0.718549695      122.984824      0.116709398      119.640597      0.117175082      119.645579      0.704440396      129.525396
4.039                0.710224282      122.599605      0.115646321      116.426679      0.116116107      116.431376      0.704565897      129.113807
4.042                0.700877505      122.640239      0.114135248      113.277844      0.114604128      113.279116      0.704404391      128.704068
4.045                0.694929702      123.051871      0.112412139      110.308972      0.112872154      110.305916       0.70417714      128.304775
4.048                0.694656156      123.512691      0.110789744      107.512472      0.111235549      107.507268      0.704092242      127.906128
4.051                0.698504877      123.666312      0.109449239      104.767252      0.109881709      104.763563      0.704178615      127.488371
4.054                0.702265424      123.386331       0.10832265      101.920836      0.108747587      101.921239      0.704257073      127.036337
4.057                0.702096938      122.849685       0.10715211       98.899266      0.107576138      98.9035993      0.704064005      126.550988
4.06                 0.697112116      122.400891      0.105671347      95.7528916      0.106097445      95.7584029      0.703428729      126.048178
4.063                0.689939716       122.32595      0.103786392      92.6242451       0.10421177      92.6273018      0.702379356      125.547927
4.066                0.684986184      122.654766      0.101632334      89.6518019      0.102050052      89.6503039      0.701100587       125.06042
4.069                0.685367065       123.11861     0.0994805705      86.8823321     0.0998841396      86.8773661      0.699785605      124.580652
4.072                0.690589074       123.33703     0.0975549454      84.2378162     0.0979428484       84.232834      0.698491009      124.093704
4.075                0.696908012      123.103035     0.0958851996      81.5683184     0.0962614066      81.5667721      0.697097184      123.586619
4.078                0.700032011       122.51958     0.0943001064       78.760198     0.0946710083      78.7631559      0.695398034      123.059127
4.081                0.698045729      121.910104     0.0925541045       75.811823     0.0929242136      75.8173922      0.693244003      122.523926
4.084                0.692644167      121.604475     0.0905011592      72.8360034     0.0908702329      72.8405072      0.690646183       121.99918
4.087                0.688034789      121.720967     0.0881900769      69.9805621     0.0885531298      69.9809094      0.687759703       121.49637
4.09                  0.68807198      122.066766     0.0858282799       67.332208     0.0861791075      67.3281153       0.68477386      121.014327
4.093                0.693436729      122.262024     0.0836352587      64.8536991     0.0839706754      64.8479143      0.681780777      120.541423
4.096                0.701090821      122.023594     0.0816977614      62.4114982     0.0820194768      62.4077817      0.678725523      120.065707
4.099                 0.70648103      121.364925     0.0799178339      59.8671079     0.0802308337      59.8677622      0.675455542      119.584041
4.102                 0.70667744       120.56791     0.0780936709      57.1770664     0.0784026874      57.1815101      0.671843481       119.10555
4.105                0.702296647       119.99137     0.0760626024      54.4187419     0.0763692833      54.4239699      0.667882537      118.645419
4.108                0.697130862      119.841989     0.0738130823      51.7374559     0.0741150447      51.7400631      0.663699267      118.215369
4.111                0.695643996      120.020463     0.0714846675      49.2455016     0.0717773164      49.2439791      0.659469428      117.816315
4.114                0.699784095      120.171077     0.0692634547      46.9435424     0.0695434441      46.9392996      0.655303468      117.438854
4.117                0.707486075      119.941931     0.0672548661      44.7220233     0.0675222621      44.7182542      0.651188838      117.071359
4.12                 0.714161167      119.243086     0.0654153239      42.4367755     0.0656731303      42.4361044      0.647013532      116.708496
4.123                 0.71590763      118.293303     0.0635943935      40.0144788     0.0638461525      40.0172167      0.642667528      116.355898
4.126                0.712109178      117.464079     0.0616433892      37.5008352     0.0618908937      37.5049613      0.638129453      116.025919
4.129                0.705877441       117.04555     0.0595195105      35.0295171     0.0597617411      35.0320143      0.633496485      115.729507
4.132                0.702073194      117.045379     0.0573052536      32.7261939     0.0575391601      32.7252563      0.628919837      115.468602
4.135                0.703936284      117.157524     0.0551430815      30.6252388     0.0553659841      30.6216377      0.624515404      115.235697
4.138                 0.71064497       116.97506     0.0531300807      28.6466936     0.0533416096      28.6430795      0.620295295      115.019419
4.141                0.717867913      116.294687     0.0512576145      26.6595961     0.0514597257       26.658593      0.616182985      114.812841
4.144                0.720843479      115.250207      0.049426418      24.5789668       0.04962173      24.5812782      0.612084285      114.618073
4.147                0.717593807      114.206428     0.0475228526      22.4282171     0.0477129469      22.4323806      0.607965922      114.444144
4.15                  0.71025425      113.528161     0.0455012265      20.3258879     0.0456857548      20.3291402       0.60389215      114.300239
4.153                0.703785617      113.340248     0.0434073735      18.4025837      0.043584388      18.4029234       0.59998346      114.188813
4.156                0.702644039      113.413954     0.0413390089      16.7178867      0.041506549      16.7154668      0.596347925      114.103862
4.159                0.707492159      113.309168     0.0393710059      15.2285312     0.0395285527      15.2255334      0.593016801      114.034628
4.162                0.714619987      112.704437     0.0375116279      13.8368507     0.0376603054      13.8357492      0.589943579      113.972429
4.165                0.718610851      111.625025     0.0357075905      12.4735037     0.0358491515      12.4751813      0.587046866      113.915449
4.168                0.716055233      110.407119     0.0338945841      11.1597649       0.03403023       11.163164      0.584279422      113.868491
4.171                0.707818527      109.477685     0.0320453547      10.0005918     0.0321751412      10.0035466      0.581662769      113.838228
4.174                0.698604387       109.08604     0.0301881459      9.12245768     0.0303111742      9.12304486      0.579277316        113.8274
4.177                0.693909298      109.109517     0.0283804647       8.6025316     0.0284957062      8.60048564       0.57721079      113.831888
4.18                 0.696065171      109.103994     0.0266681039      8.44769335     0.0267753115      8.44458315      0.575504573      113.842287
4.183                0.702388372      108.629708     0.0250671642      8.63235484     0.0251669831        8.630006      0.574134659      113.848912
4.186                0.707098958      107.578882     0.0235713383      9.15050675     0.0236647993      9.14994161      0.573029851      113.846426
4.189                0.705364965      106.232221     0.0221754076      10.0373091     0.0222634277      10.0385205      0.572122523      113.835674
4.192                0.696521397      105.064747     0.0208862012      11.3503375     0.0209695101      11.3527667      0.571388314      113.821174
4.195                0.684623416      104.454621     0.0197213776      13.1352565     0.0198005611      13.1380884      0.570858521      113.806585
4.198                0.675935037      104.415189     0.0186981539      15.4177234     0.0187737453       15.420076      0.570592249      113.790905
4.201                0.674568921      104.534712     0.0178353464      18.2178176     0.0179078168      18.2186372      0.570633247      113.767905
4.204                0.679293533       104.26036      0.017164395      21.5389305     0.0172341011      21.5375021       0.57097443      113.728898
4.207                 0.68435205      103.322515     0.0167317438      25.2826071     0.0167990454      25.2793445       0.57155647      113.667321
4.21                 0.683581897      101.913593     0.0165693707      29.1810368      0.016635031      29.1785145      0.572299142      113.581946
4.213                0.674571138      100.538518      0.016657982      32.8879306     0.0167235191      32.8890937      0.573145128      113.476498
4.216                0.660315564      99.7069467     0.0169281289      36.1855621      0.016995416      36.1905795      0.574089056      113.356461
4.219                0.647483151      99.5993625     0.0173096307      39.1017178     0.0173798907      39.1071688      0.575171604      113.224451
4.222                0.641958832      99.8817274      0.017786158       41.797933     0.0178594345      41.7996312      0.576441961      113.077859
4.225                0.644380216      99.9014344     0.0184061683      44.3476034     0.0184817043      44.3440607      0.577914899      112.909869
4.228                 0.64948875      99.1934351     0.0192311296      46.5914504     0.0193084122      46.5853544      0.579547359      112.713744
4.231                0.649975438      97.8185804     0.0202603361      48.2383662     0.0203399599      48.2346471      0.581257591      112.486876
4.234                0.641522689      96.2895601     0.0214021779       49.124485     0.0214858485      49.1261883      0.582967755       112.23283
4.237                0.625656298      95.2481909     0.0225299423      49.3705467     0.0226194352      49.3764746      0.584649388      111.958539
4.24                 0.609012158      95.0757439     0.0235703501      49.2970047     0.0236661966      49.3026774      0.586333527      111.669867
4.243                0.599123055      95.5721382     0.0245563179       49.206944     0.0246575048      49.2083308      0.588082194      111.367482
4.246                0.598877092      96.0092034     0.0256039631      49.1883388     0.0257088136      49.1847271      0.589937883      111.046167
4.249                0.604055916      95.6844488     0.0268208081      49.0603748      0.026928371      49.0548501      0.591882718      110.698729
4.252                0.606449597      94.4689023     0.0282091223      48.5292797     0.0283200551      48.5263306      0.593842818      110.320944
4.255                 0.59969963      92.8526156     0.0296446677      47.4475787     0.0297608885       47.449774      0.595728647      109.915044
4.258                0.583463784      91.6129094     0.0309640034      45.9433375     0.0310873529      45.9493763      0.597492175      109.488282
4.261                0.563858627      91.3699342     0.0320846394      44.3324544     0.0322154294      44.3380569      0.599154078       109.04875
4.264                0.549860913       92.132432     0.0330729047      42.9080277     0.0332095445      42.9093281      0.600786538      108.599462
4.267                 0.54701164       93.138785     0.0341078773      41.7466791     0.0342480014      41.7427242      0.602456836      108.136875
4.27                 0.552778063      93.3930008     0.0353581642       40.638163     0.0355004491      40.6318048      0.604176402      107.653134
4.273                 0.55832772      92.4854605     0.0368413672      39.2321811     0.0369864504      39.2279602       0.60588416       107.14209
4.276                0.555056878      90.8397469     0.0383878311      37.3168287     0.0385378879      37.3175144      0.607484693      106.603944
4.279                0.540273773      89.3727553     0.0397553434      34.9846209      0.039912581      34.9897984       0.60891135       106.04515
4.282                0.519020053      88.9912566      0.040802901      32.5665944      0.040967915      32.5727831      0.610168907      105.474713
4.285                0.501489457      90.0166332     0.0416006817      30.4143832       0.04177186      30.4173589      0.611328731       104.89746
4.288                0.496412139      91.7346864     0.0424024959      28.6719098     0.0425771043      28.6698769      0.612473882      104.311449
4.291                0.503868237      92.7780085     0.0434848345      27.1430097     0.0436611151      27.1376847      0.613636644      103.708707
4.294                0.514698596      92.2994482     0.0449292212      25.3989591      0.045107639      25.3942775      0.614769159      103.081997
4.297                0.517545032      90.5778395     0.0465259797      23.1028458     0.0467087201      23.1021052      0.615774488      102.429523
4.3                  0.506501497      88.6755918     0.0479044194      20.2750358     0.0480936941      20.2786054       0.61657252      101.757299
4.303                0.484669463      87.8507863     0.0487937228      17.2724553     0.0489900963      17.2778903      0.617156331      101.074344
4.306                0.463167985      88.9116668     0.0492171646      14.5693928     0.0494188546      14.5728266      0.617593784      100.387101
4.309                 0.45502598      91.3934755     0.0495180361      12.4685209      0.049722002      12.4674141       0.61797707      99.6942175
4.312                0.464985385      93.4566844     0.0501754729      10.8538549     0.0503797981      10.8489304      0.618351468      98.9882693
4.315                0.484216665      93.4648074     0.0514586644      9.17628788     0.0516641858      9.17087593      0.618678915       98.261269
4.318                0.497219145      91.3528345     0.0531635746      6.83840609     0.0533729185      6.83588947      0.618862486      97.5104033
4.321                0.492608707      88.3160652     0.0547096522      3.66989668     0.0549250712      3.67154288      0.618817105      96.7412939
4.324                0.469281098      86.0576973     0.0555314689    0.0347283995     0.0557530805    0.0391106812      0.618530148       95.963013
4.327                0.437987368      86.2457785     0.0554502995     -3.38257705     0.0556755189     -3.37868343      0.618069024      95.1825214
4.33                 0.418545861      89.4091349     0.0548613735     -5.91325117     0.0550863202      -5.9128689      0.617529816      94.3988687
4.333                0.427559189      93.2847917     0.0546523108     -7.35158016      0.054875059      -7.3550612      0.616961143      93.6046263
4.336                0.460782806      94.1501529     0.0557032186     -8.38854299     0.0559265497     -8.39325529      0.616320817      92.7913269
4.339                0.494686905      90.5977709     0.0581243574     -10.3431613     0.0583541551     -10.3458573       0.61550711      91.9577024
4.342                0.504447878       83.616755     0.0609983431      -14.139542     0.0612387993     -14.1386853      0.614440668      91.1106379
4.345                0.474497624      74.8024509     0.0629258864     -19.7626349     0.0631762538     -19.7588288      0.613134453      90.2616015
4.348                0.399451125      65.8516188     0.0626888645     -26.5433098     0.0629424632     -26.5389026      0.611701687      89.4179787
4.351                0.282978926      59.9141943     0.0595743339     -33.4577137     0.0598188343     -33.4558894      0.610295398      88.5761479
4.354                0.148462448       71.539941     0.0535946724     -38.9849252     0.0538149891     -38.9879265       0.60900726      87.7213405
4.357                0.143846765      136.465709     0.0459462796     -40.6800358     0.0461318362     -40.6869855      0.607773216      86.8338405
4.36                 0.302754755      150.637086     0.0396667267     -35.6610135     0.0398223933     -35.6664191      0.606373356      85.9035463
4.363                0.464156388      143.280248     0.0387542119     -25.5327308     0.0389052901     -25.5314841      0.604557657      84.9388464
4.366                0.587002679      131.974323     0.0437411891     -18.6899275     0.0439148346     -18.6851035      0.602219853      83.9640166
4.369                  0.6575912      120.363438     0.0509653414     -18.5889058     0.0511711856     -18.5845091      0.599463159      83.0026533
4.372                0.676069324      109.896292      0.057122375     -22.8108901     0.0573554464     -22.8088252      0.596528654      82.0654773
4.375                0.652173544      101.556955     0.0607251776     -28.7319674     0.0609732895     -28.7331613      0.593651185      81.1444973
4.378                0.603082208      96.3569976     0.0615779935     -34.6027051     0.0618272901      -34.606556      0.590939672      80.2195776
4.381                0.552901481      95.1112549     0.0603899983      -39.219029     0.0606306535     -39.2231039      0.588324353      79.2695851
4.384                 0.52693869      97.1814575     0.0585319119     -41.9085559     0.0587624727     -41.9098136      0.585605677       78.284507
4.387                0.535560188      99.6626926     0.0575154328     -42.9274096      0.057742598     -42.9247657      0.582586771      77.2720336
4.39                 0.565033255      99.8485273     0.0581144303     -43.5392183      0.058347389     -43.5346207      0.579199605        76.25064
