! TOUCHSTONE file generated by CST MICROWAVE STUDIO
! Date and time: Mon Dec  2 04:50:24 2024
! Project name: test_tuning.cst
! Parameters = {airCoaxOuterDiameter=3; chamferAngle=45; chamferWidth=24; connectorLength=10; drillingHoleDiameter=4.1; feedLength=60; flareDiameter=130; flareLength=70; gratingDistance=0; gratingGap=1.90274; outletLength=40; polarizerLength=134; probe1Diameter=1.3; probe1Distance=14; probe1Length=12; probe2Diameter=1.3; probe2Distance=0; probe2Length=12; probeLength=12; smaInnerDiameter=1.3; smaOuterDiameter=4.1; transitionCoefficient=1.33; waveguideFeedLength=30; waveguideSide=50; waveguideThickness=3; wireCount=25; wireDiameter=1.17699}
! Header version: 2024
! Port assignment regex: !\s*Touchstone port\s*([0-9]+)\s*=\s*(CST MWS port|CST DES external port|CST DES block port)\s*(.+)\s* \(\"(.*)\"\)(\s*mode\s*([0-9]+))?.*
! Touchstone port assignment:
! Touchstone port 1 = CST MWS port 1 ("Input1")
! Touchstone port 2 = CST MWS port 2 ("Input2")
# GHz S MA R 50
4.6                    0.2348741       -157.7537        0.6091245        64.72147        0.6091245        64.72145        0.2348744       -157.7537
4.6014                 0.2435446       -158.5113        0.6080086        63.94318        0.6080086        63.94315        0.2435449       -158.5113
4.6028                 0.2524637       -159.3154        0.6067886        63.18365        0.6067886        63.18364        0.2524641       -159.3155
4.6042                 0.2616149       -160.1711        0.6055018        62.44503        0.6055018        62.44502        0.2616153       -160.1712
4.6056                 0.2709735        -161.082        0.6041914        61.72876        0.6041914        61.72873        0.2709739       -161.0821
4.607                  0.2805072       -162.0506        0.6029048        61.03549        0.6029047        61.03547        0.2805075       -162.0507
4.6084                 0.2901767       -163.0777        0.6016916        60.36497        0.6016915        60.36496         0.290177       -163.0779
4.6098                 0.2999371       -164.1629        0.6006017        59.71591        0.6006016        59.71589        0.2999374       -164.1631
4.6112                 0.3097393       -165.3042        0.5996828        59.08603        0.5996828        59.08601        0.3097395       -165.3043
4.6126                 0.3195314       -166.4983        0.5989782        58.47202        0.5989779        58.47202        0.3195316       -166.4984
4.614                  0.3292607       -167.7407        0.5985238        57.86972        0.5985236        57.86971        0.3292608       -167.7408
4.6154                 0.3388754       -169.0261         0.598347         57.2742        0.5983468        57.27419        0.3388755       -169.0262
4.6168                 0.3483261       -170.3485        0.5984649        56.68001        0.5984648           56.68        0.3483262       -170.3486
4.6182                 0.3575678       -171.7011        0.5988832        56.08143        0.5988831        56.08143        0.3575677       -171.7012
4.6196                 0.3665606        -173.077        0.5995958        55.47273        0.5995958        55.47271        0.3665606       -173.0771
4.621                  0.3752717       -174.4693        0.6005851        54.84839         0.600585        54.84839        0.3752717       -174.4693
4.6224                 0.3836754       -175.8709         0.601823        54.20344        0.6018229        54.20344        0.3836754        -175.871
4.6238                 0.3917542       -177.2754         0.603272        53.53361         0.603272         53.5336        0.3917543       -177.2754
4.6252                 0.3994987       -178.6764        0.6048876        52.83546        0.6048876        52.83546        0.3994988       -178.6764
4.6266                 0.4069076        179.9315          0.60662        52.10658          0.60662        52.10658        0.4069078        179.9315
4.628                  0.4139872        178.5532        0.6084166        51.34551        0.6084166        51.34551        0.4139875        178.5532
4.6294                 0.4207506        177.1929         0.610224        50.55185         0.610224        50.55184         0.420751        177.1929
4.6308                 0.4272169        175.8535        0.6119906        49.72606        0.6119907        49.72605        0.4272174        175.8535
4.6322                 0.4334094        174.5375        0.6136685        48.86947        0.6136685        48.86946        0.4334099        174.5375
4.6336                 0.4393547        173.2461        0.6152146        47.98409        0.6152147        47.98408        0.4393553         173.246
4.635                  0.4450812        171.9797        0.6165925        47.07243        0.6165924        47.07242        0.4450819        171.9797
4.6364                 0.4506171         170.738        0.6177725        46.13738        0.6177724        46.13736        0.4506178         170.738
4.6378                 0.4559895        169.5199        0.6187326        45.18202        0.6187325        45.18201        0.4559901        169.5199
4.6392                 0.4612227        168.3236        0.6194582        44.20947         0.619458        44.20945        0.4612233        168.3236
4.6406                 0.4663375        167.1471        0.6199413        43.22277        0.6199411        43.22275         0.466338         167.147
4.642                    0.47135        165.9877        0.6201804        42.22471        0.6201802        42.22469        0.4713506        165.9876
4.6434                 0.4762717        164.8429        0.6201789        41.21783        0.6201787        41.21782        0.4762722        164.8428
4.6448                 0.4811089        163.7101        0.6199442        40.20428         0.619944        40.20427        0.4811093          163.71
4.6462                  0.485863        162.5868        0.6194866        39.18582        0.6194863         39.1858        0.4858634        162.5868
4.6476                 0.4905313         161.471        0.6188175        38.16379        0.6188172        38.16379        0.4905317         161.471
4.649                  0.4951074        160.3607        0.6179492        37.13921        0.6179489        37.13919        0.4951077        160.3607
4.6504                 0.4995823        159.2547        0.6168928        36.11269        0.6168925        36.11268        0.4995826        159.2547
4.6518                 0.5039454        158.1521        0.6156583        35.08462         0.615658        35.08462        0.5039457        158.1521
4.6532                 0.5081853        157.0522        0.6142537        34.05519        0.6142534        34.05519        0.5081856        157.0522
4.6546                 0.5122911        155.9551        0.6126845        33.02444        0.6126842        33.02444        0.5122914        155.9551
4.656                  0.5162531        154.8608        0.6109542         31.9924        0.6109539         31.9924        0.5162535        154.8608
4.6574                 0.5200634        153.7699        0.6090641        30.95911        0.6090638        30.95911        0.5200638          153.77
4.6588                 0.5237162        152.6831        0.6070138        29.92473        0.6070136        29.92474        0.5237168        152.6831
4.6602                 0.5272088        151.6009         0.604802        28.88955        0.6048018        28.88955        0.5272093         151.601
4.6616                 0.5305403        150.5242         0.602427        27.85402        0.6024267        27.85402         0.530541        150.5242
4.663                  0.5337126        149.4535        0.5998871        26.81878        0.5998868        26.81879        0.5337133        149.4535
4.6644                 0.5367292        148.3893        0.5971817        25.78464        0.5971813        25.78465          0.53673        148.3893
4.6658                 0.5395951        147.3318        0.5943116        24.75256        0.5943112        24.75257        0.5395959        147.3318
4.6672                  0.542316        146.2812        0.5912795        23.72359        0.5912792         23.7236        0.5423169        146.2812
4.6686                 0.5448977        145.2373        0.5880902        22.69884        0.5880899        22.69885        0.5448987        145.2373
4.67                   0.5473454        144.1998        0.5847509        21.67941        0.5847505        21.67942        0.5473464        144.1998
4.6714                 0.5496632        143.1682        0.5812706        20.66633        0.5812702        20.66635        0.5496641        143.1682
4.6728                 0.5518539         142.142        0.5776602        19.66055          0.57766        19.66057        0.5518548         142.142
4.6742                 0.5539183        141.1205        0.5739323         18.6628        0.5739321        18.66282        0.5539192        141.1205
4.6756                 0.5558556        140.1032           0.5701        17.67366        0.5700996        17.67369        0.5558564        140.1032
4.677                  0.5576629        139.0895        0.5661766        16.69346        0.5661763        16.69349        0.5576638        139.0894
4.6784                 0.5593364         138.079        0.5621755        15.72233        0.5621751        15.72237        0.5593372         138.079
4.6798                 0.5608705        137.0715        0.5581087        14.76017        0.5581084        14.76021        0.5608712        137.0714
4.6812                 0.5622595        136.0669        0.5539872        13.80671         0.553987        13.80675        0.5622603        136.0669
4.6826                 0.5634975        135.0654          0.54982        12.86153        0.5498197        12.86157        0.5634983        135.0653
4.684                  0.5645792        134.0672        0.5456142        11.92412        0.5456141        11.92417        0.5645799        134.0672
4.6854                 0.5655001        133.0731        0.5413749        10.99394        0.5413748        10.99399        0.5655009        133.0731
4.6868                 0.5662576        132.0834        0.5371052        10.07046        0.5371051        10.07051        0.5662583        132.0834
4.6882                 0.5668506        131.0991        0.5328066        9.153241        0.5328066         9.15329        0.5668513        131.0991
4.6896                 0.5672801        130.1209        0.5284793         8.24195        0.5284791        8.242001         0.567281        130.1209
4.691                  0.5675494        129.1496        0.5241224        7.336424        0.5241224        7.336472        0.5675503        129.1496
4.6924                 0.5676636        128.1859        0.5197352        6.436664        0.5197352        6.436711        0.5676645        128.1858
4.6938                 0.5676294        127.2303         0.515317        5.542852         0.515317        5.542896        0.5676303        127.2302
4.6952                 0.5674551        126.2833        0.5108676        4.655333        0.5108677        4.655377        0.5674561        126.2833
4.6966                 0.5671497        125.3451        0.5063883        3.774589        0.5063885        3.774629        0.5671507        125.3451
4.698                  0.5667226         124.416        0.5018817         2.90119        0.5018818        2.901228        0.5667235        124.4159
4.6994                 0.5661825        123.4955        0.4973518        2.035751        0.4973519        2.035787        0.5661836        123.4955
4.7008                 0.5655384        122.5836        0.4928043        1.178871        0.4928045        1.178904        0.5655393        122.5836
4.7022                 0.5647971        121.6797        0.4882463       0.3310753        0.4882465       0.3311058        0.5647979        121.6797
4.7036                 0.5639643        120.7833        0.4836863      -0.5072364        0.4836864      -0.5072079        0.5639652        120.7833
4.705                   0.563044        119.8937        0.4791331       -1.335836        0.4791332        -1.33581        0.5630448        119.8937
4.7064                 0.5620384        119.0104        0.4745963       -2.154723        0.4745964       -2.154696        0.5620391        119.0103
4.7078                  0.560948        118.1327         0.470085       -2.964025        0.4700852       -2.963998        0.5609485        118.1326
4.7092                 0.5597715          117.26        0.4656079       -3.764242         0.465608       -3.764215        0.5597721          117.26
4.7106                 0.5585069        116.3921        0.4611722       -4.555954        0.4611723       -4.555931        0.5585074        116.3921
4.712                  0.5571514        115.5287        0.4567841       -5.339977        0.4567842       -5.339955        0.5571518        115.5286
4.7134                 0.5557017        114.6697        0.4524476       -6.117232        0.4524477        -6.11721        0.5557022        114.6697
4.7148                 0.5541551        113.8152        0.4481652       -6.888709        0.4481652       -6.888688        0.5541554        113.8152
4.7162                 0.5525091        112.9655        0.4439371        -7.65541        0.4439372       -7.655389        0.5525095        112.9655
4.7176                 0.5507628        112.1209        0.4397623       -8.418278        0.4397624       -8.418255        0.5507632        112.1209
4.719                  0.5489162        111.2819        0.4356381       -9.178144        0.4356382       -9.178123        0.5489166        111.2819
4.7204                 0.5469712         110.449         0.431561       -9.935685        0.4315611       -9.935663        0.5469716        110.4489
4.7218                 0.5449312        109.6226        0.4275267       -10.69138        0.4275268       -10.69136        0.5449316        109.6226
4.7232                 0.5428007        108.8032        0.4235311       -11.44551        0.4235311       -11.44549        0.5428011        108.8032
4.7246                 0.5405859        107.9912        0.4195702       -12.19815        0.4195703       -12.19813        0.5405864        107.9912
4.726                  0.5382938        107.1867        0.4156411       -12.94919        0.4156412       -12.94917        0.5382943        107.1867
4.7274                 0.5359315        106.3898        0.4117419       -13.69839        0.4117419       -13.69837        0.5359321        106.3898
4.7288                 0.5335067        105.6004        0.4078721       -14.44539        0.4078721       -14.44537        0.5335072        105.6003
4.7302                 0.5310262        104.8181        0.4040327       -15.18982        0.4040327       -15.18979        0.5310267        104.8181
4.7316                 0.5284963        104.0426        0.4002261       -15.93134        0.4002262       -15.93131        0.5284967        104.0425
4.733                  0.5259215        103.2731        0.3964561        -16.6697        0.3964561       -16.66967         0.525922        103.2731
4.7344                 0.5233054        102.5092        0.3927273       -17.40479        0.3927273       -17.40477        0.5233058        102.5091
4.7358                 0.5206495        101.7499         0.389045       -18.13673        0.3890451        -18.1367        0.5206499        101.7499
4.7372                 0.5179539        100.9946        0.3854148       -18.86584        0.3854149       -18.86581        0.5179543        100.9946
4.7386                 0.5152167        100.2427        0.3818419       -19.59269         0.381842       -19.59266        0.5152171        100.2427
4.74                   0.5124351        99.49345        0.3783309       -20.31809        0.3783309       -20.31805        0.5124353        99.49342
4.7414                 0.5096048        98.74647        0.3748852       -21.04303        0.3748853         -21.043        0.5096051        98.74647
4.7428                 0.5067212        98.00152        0.3715071       -21.76872        0.3715072       -21.76868        0.5067214        98.00149
4.7442                 0.5037794        97.25842        0.3681971       -22.49642        0.3681972       -22.49639        0.5037796         97.2584
4.7456                 0.5007745        96.51729        0.3649543       -23.22748        0.3649545       -23.22745        0.5007748        96.51728
4.747                  0.4977026        95.77832        0.3617764       -23.96319        0.3617765       -23.96316        0.4977029        95.77832
4.7484                 0.4945607        95.04192        0.3586594       -24.70476        0.3586596       -24.70474         0.494561        95.04191
4.7498                 0.4913469        94.30848        0.3555986       -25.45329        0.3555988       -25.45327        0.4913472        94.30848
4.7512                 0.4880609        93.57855        0.3525886       -26.20962        0.3525888       -26.20961        0.4880613        93.57858
4.7526                 0.4847038        92.85271        0.3496235       -26.97444        0.3496237       -26.97442        0.4847041         92.8527
4.754                  0.4812776        92.13135        0.3466981       -27.74816        0.3466983       -27.74815         0.481278        92.13135
4.7554                  0.477786        91.41492        0.3438074       -28.53103        0.3438075       -28.53102        0.4777864        91.41492
4.7568                  0.474233        90.70368        0.3409474       -29.32309        0.3409475       -29.32309        0.4742334        90.70365
4.7582                  0.470623        89.99772        0.3381155       -30.12429        0.3381157       -30.12429        0.4706235        89.99769
4.7596                 0.4669606          89.297        0.3353104       -30.93447        0.3353104       -30.93447         0.466961          89.297
4.761                  0.4632495        88.60133        0.3325321       -31.75352        0.3325321       -31.75353        0.4632499        88.60127
4.7624                 0.4594929         87.9103        0.3297818       -32.58139        0.3297819       -32.58139        0.4594933        87.91027
4.7638                 0.4556925        87.22352        0.3270623       -33.41818        0.3270623       -33.41818        0.4556928        87.22349
4.7652                 0.4518486        86.54035        0.3243767       -34.26419        0.3243768       -34.26419        0.4518488        86.54032
4.7666                 0.4479599         85.8603         0.321729       -35.11999         0.321729       -35.11999        0.4479601        85.86024
4.768                  0.4440235        85.18274        0.3191229       -35.98641        0.3191228       -35.98641        0.4440237        85.18268
4.7694                 0.4400352        84.50726         0.316562       -36.86458        0.3165619       -36.86457        0.4400352        84.50723
4.7708                 0.4359893        83.83359        0.3140491       -37.75588        0.3140491       -37.75586        0.4359893        83.83356
4.7722                 0.4318793        83.16156        0.3115862       -38.66195        0.3115861       -38.66194        0.4318792        83.16154
4.7736                 0.4276984        82.49129        0.3091736       -39.58462        0.3091735       -39.58461        0.4276982        82.49127
4.775                  0.4234394        81.82312        0.3068106       -40.52585        0.3068105       -40.52581        0.4234392         81.8231
4.7764                 0.4190958        81.15769        0.3044948       -41.48763        0.3044947        -41.4876        0.4190956        81.15766
4.7778                 0.4146617        80.49584        0.3022225       -42.47197        0.3022225       -42.47195        0.4146615        80.49581
