! TOUCHSTONE file generated by CST MICROWAVE STUDIO
! Date and time: Mon Dec  2 04:50:25 2024
! Project name: test_tuning.cst
! Parameters = {airCoaxOuterDiameter=3; chamferAngle=45; chamferWidth=24; connectorLength=10; drillingHoleDiameter=4.1; feedLength=60; flareDiameter=130; flareLength=70; gratingDistance=0; gratingGap=1.90274; outletLength=80; polarizerLength=134; probe1Diameter=1.3; probe1Distance=14; probe1Length=12; probe2Diameter=1.3; probe2Distance=0; probe2Length=12; probeLength=12; smaInnerDiameter=1.3; smaOuterDiameter=4.1; transitionCoefficient=1.33; waveguideFeedLength=30; waveguideSide=50; waveguideThickness=3; wireCount=25; wireDiameter=1.17699}
! Header version: 2024
! Port assignment regex: !\s*Touchstone port\s*([0-9]+)\s*=\s*(CST MWS port|CST DES external port|CST DES block port)\s*(.+)\s* \(\"(.*)\"\)(\s*mode\s*([0-9]+))?.*
! Touchstone port assignment:
! Touchstone port 1 = CST MWS port 1 ("Input1")
! Touchstone port 2 = CST MWS port 2 ("Input2")
# GHz S MA R 50
4.6                    0.2399718       -172.1999        0.6516448        69.22539        0.6516449        69.22528        0.2399718       -172.1998
4.6014                 0.2459505       -172.7303        0.6530501         68.2947        0.6530502        68.29457        0.2459504       -172.7303
4.6028                 0.2521831       -173.2903        0.6543258        67.37622         0.654326        67.37611         0.252183       -173.2902
4.6042                 0.2586183       -173.8989        0.6555709        66.47006        0.6555711        66.46995        0.2586182       -173.8988
4.6056                  0.265168        -174.566        0.6568716        65.57217         0.656872        65.57206        0.2651678       -174.5659
4.607                  0.2717297       -175.2903        0.6582819        64.67551        0.6582821        64.67538        0.2717294       -175.2901
4.6084                 0.2782102       -176.0607        0.6598107         63.7718        0.6598111        63.77166        0.2782099       -176.0606
4.6098                 0.2845461       -176.8603        0.6614224        62.85349        0.6614227        62.85335        0.2845457       -176.8602
4.6112                 0.2907154       -177.6702        0.6630456         61.9155        0.6630459        61.91536        0.2907151         -177.67
4.6126                 0.2967401       -178.4739        0.6645914        60.95624        0.6645916        60.95607        0.2967398       -178.4736
4.614                  0.3026774       -179.2606        0.6659737        59.97775        0.6659737        59.97759        0.3026772       -179.2604
4.6154                 0.3086043        179.9724        0.6671285        58.98513        0.6671285        58.98497        0.3086041        179.9726
4.6168                 0.3145974        179.2204        0.6680271        57.98515        0.6680269        57.98498        0.3145974        179.2207
4.6182                 0.3207137        178.4726        0.6686805        56.98464        0.6686804        56.98448        0.3207138        178.4729
4.6196                 0.3269765        177.7153        0.6691349        55.98899        0.6691347        55.98883        0.3269767        177.7155
4.621                    0.33337         176.935        0.6694587        55.00088        0.6694584        55.00073        0.3333702        176.9353
4.6224                 0.3398433        176.1224        0.6697255        54.01991        0.6697251        54.01975        0.3398436        176.1227
4.6238                 0.3463226        175.2734        0.6699961        53.04267        0.6699957        53.04251         0.346323        175.2736
4.6252                 0.3527282        174.3903        0.6703042        52.06378        0.6703037        52.06361        0.3527286        174.3905
4.6266                 0.3589919        173.4806        0.6706493         51.0771        0.6706487        51.07694        0.3589924        173.4808
4.628                  0.3650711        172.5551        0.6709966        50.07736         0.670996        50.07719        0.3650717        172.5553
4.6294                 0.3709563        171.6251        0.6712867        49.06122        0.6712859        49.06106        0.3709569        171.6253
4.6308                 0.3766708        170.7002         0.671449         48.0281        0.6714481        48.02794        0.3766715        170.7005
4.6322                  0.382263        169.7863        0.6714182        46.98022        0.6714171        46.98006        0.3822639        169.7865
4.6336                 0.3877931        168.8841        0.6711482          45.922        0.6711471        45.92184         0.387794        168.8844
4.635                   0.393317        167.9902        0.6706227        44.85904        0.6706214         44.8589        0.3933179        167.9904
4.6364                 0.3988724        167.0972        0.6698565        43.79686        0.6698551        43.79672        0.3988735        167.0974
4.6378                 0.4044691        166.1965        0.6688913        42.73966        0.6688899        42.73953        0.4044703        166.1967
4.6392                  0.410086        165.2798        0.6677853        41.68943        0.6677838        41.68933        0.4100871          165.28
4.6406                 0.4156754        164.3416        0.6665987        40.64566        0.6665973        40.64556        0.4156766        164.3418
4.642                   0.421174        163.3801        0.6653802        39.60548        0.6653787        39.60539        0.4211752        163.3803
4.6434                 0.4265167        162.3975        0.6641548        38.56446        0.6641534        38.56437        0.4265178        162.3976
4.6448                 0.4316496        161.3993        0.6629203        37.51772        0.6629188        37.51765        0.4316508        161.3994
4.6462                 0.4365417        160.3932        0.6616468        36.46111        0.6616454        36.46104        0.4365429        160.3933
4.6476                 0.4411894         159.387         0.660286        35.39217        0.6602846        35.39212        0.4411906        159.3871
4.649                  0.4456154        158.3874        0.6587816        34.31077        0.6587802        34.31072        0.4456166        158.3875
4.6504                 0.4498618        157.3982        0.6570838        33.21902        0.6570824        33.21898        0.4498629        157.3983
4.6518                 0.4539781          156.42        0.6551594        32.12087        0.6551581        32.12084        0.4539793        156.4201
4.6532                  0.458009        155.4501        0.6530007        31.02119        0.6529994        31.02116        0.4580102        155.4501
4.6546                 0.4619829        154.4833        0.6506259        29.92465        0.6506248        29.92464         0.461984        154.4833
4.656                  0.4659038        153.5136        0.6480751        28.83477         0.648074        28.83476         0.465905        153.5137
4.6574                  0.469751        152.5355        0.6454008        27.75311        0.6453998        27.75311        0.4697521        152.5355
4.6588                 0.4734827        151.5452        0.6426562        26.67903        0.6426555        26.67903        0.4734837        151.5452
4.6602                 0.4770454        150.5418         0.639884        25.60985        0.6398832        25.60986        0.4770464        150.5419
4.6616                 0.4803857        149.5275        0.6371063        24.54157        0.6371056        24.54157        0.4803865        149.5275
4.663                  0.4834615        148.5066        0.6343215         23.4698         0.634321         23.4698        0.4834624        148.5067
4.6644                 0.4862509        147.4853        0.6315058        22.39083        0.6315053        22.39082        0.4862515        147.4853
4.6658                 0.4887553        146.4697        0.6286196        21.30245        0.6286193        21.30243        0.4887559        146.4697
4.6672                 0.4909985        145.4649        0.6256181         20.2045        0.6256177        20.20447         0.490999        145.4649
4.6686                 0.4930195         144.474         0.622462        19.09881        0.6224616        19.09878          0.49302         144.474
4.67                   0.4948629        143.4974        0.6191278        17.98882        0.6191274        17.98879        0.4948633        143.4975
4.6714                 0.4965675        142.5332        0.6156134        16.87869        0.6156129        16.87866        0.4965678        142.5332
4.6728                 0.4981571        141.5773        0.6119384        15.77238        0.6119381        15.77234        0.4981574        141.5774
4.6742                 0.4996345        140.6253        0.6081413        14.67266        0.6081409        14.67263        0.4996347        140.6253
4.6756                 0.5009809        139.6729        0.6042698        13.58051        0.6042693        13.58047        0.5009811        139.6729
4.677                  0.5021603        138.7176        0.6003711        12.49477        0.6003706        12.49473        0.5021604        138.7177
4.6784                 0.5031272        137.7591         0.596482        11.41243        0.5964814        11.41238        0.5031274        137.7592
4.6798                 0.5038383        136.7997        0.5926208        10.32921        0.5926203        10.32916        0.5038383        136.7998
4.6812                 0.5042604        135.8435        0.5887848        9.240475        0.5887842        9.240424        0.5042606        135.8436
4.6826                 0.5043796        134.8961        0.5849514        8.142231        0.5849508        8.142177        0.5043797        134.8962
4.684                  0.5042022        133.9632        0.5810845         7.03189        0.5810839        7.031837        0.5042023        133.9633
4.6854                 0.5037541        133.0496        0.5771437        5.908743         0.577143        5.908692        0.5037544        133.0497
4.6868                  0.503074        132.1585        0.5730935        4.773947        0.5730926        4.773902        0.5030743        132.1586
4.6882                 0.5022044        131.2906        0.5689119         3.63008         0.568911        3.630041        0.5022048        131.2908
4.6896                 0.5011816         130.445        0.5645955        2.480353        0.5645946        2.480323        0.5011821        130.4451
4.691                  0.5000279        129.6188         0.560159        1.327672        0.5601581        1.327651        0.5000285        129.6189
4.6924                 0.4987471         128.809        0.5556323       0.1737455        0.5556313       0.1737343        0.4987477        128.8091
4.6938                 0.4973239        128.0131        0.5510516       -0.981546        0.5510508      -0.9815484        0.4973247        128.0132
4.6952                 0.4957297        127.2302        0.5464514       -2.140388        0.5464505       -2.140383        0.4957305        127.2303
4.6966                 0.4939296        126.4616        0.5418544       -3.306811        0.5418536         -3.3068        0.4939305        126.4617
4.698                  0.4918932        125.7112         0.537266       -4.486059        0.5372653       -4.486044        0.4918942        125.7113
4.6994                  0.489603        124.9849        0.5326706       -5.683697          0.53267       -5.683679        0.4896039         124.985
4.7008                 0.4870612        124.2899        0.5280342       -6.904661        0.5280337       -6.904634        0.4870623        124.2901
4.7022                 0.4842924        123.6337        0.5233091       -8.152435        0.5233085       -8.152435        0.4842934        123.6338
4.7036                 0.4813408         123.023         0.518442       -9.428703        0.5184414       -9.428648        0.4813419        123.0231
4.705                  0.4782653        122.4628        0.5133827       -10.73312        0.5133821       -10.73309        0.4782663        122.4628
4.7064                 0.4751307        121.9561        0.5080904       -12.06392        0.5080899        -12.0639        0.4751317        121.9562
4.7078                 0.4719997        121.5039        0.5025385       -13.41856        0.5025379       -13.41853        0.4720007         121.504
4.7092                 0.4689263        121.1058        0.4967137       -14.79434        0.4967132       -14.79432        0.4689273        121.1058
4.7106                  0.465953        120.7605        0.4906129       -16.18953        0.4906124        -16.1895        0.4659541        120.7606
4.712                  0.4631133        120.4674        0.4842367       -17.60356        0.4842363       -17.60352        0.4631143        120.4675
4.7134                 0.4604364        120.2267        0.4775815       -19.03722        0.4775811       -19.03718        0.4604374        120.2268
4.7148                 0.4579568        120.0398        0.4706326       -20.49231        0.4706324       -20.49227        0.4579579        120.0399
4.7162                 0.4557231         119.909        0.4633602       -21.97082        0.4633599       -21.97078        0.4557241        119.9091
4.7176                 0.4538043        119.8363        0.4557179       -23.47386        0.4557177       -23.47383        0.4538053        119.8364
4.719                  0.4522927        119.8221        0.4476475       -25.00055        0.4476473       -25.00052        0.4522937        119.8221
4.7204                 0.4512997        119.8631        0.4390851       -26.54696         0.439085       -26.54692        0.4513007        119.8632
4.7218                 0.4509461        119.9514         0.429972        -28.1054        0.4299717       -28.10537        0.4509472        119.9515
4.7232                  0.451348        120.0733        0.4202644       -29.66422        0.4202641       -29.66419        0.4513491        120.0734
4.7246                 0.4525993        120.2098        0.4099436       -31.20794        0.4099434        -31.2079        0.4526004        120.2098
4.726                  0.4547565        120.3374        0.3990231       -32.71792        0.3990229       -32.71789        0.4547576        120.3375
4.7274                 0.4578273        120.4312         0.387551       -34.17338        0.3875509       -34.17333        0.4578285        120.4313
4.7288                 0.4617662        120.4666        0.3756099       -35.55256        0.3756098        -35.5525        0.4617674        120.4666
4.7302                 0.4664778        120.4223        0.3633117       -36.83407        0.3633116       -36.83401        0.4664789        120.4223
4.7316                 0.4718263        120.2823        0.3507898        -37.9981        0.3507899       -37.99804        0.4718274        120.2822
4.733                  0.4776504        120.0365          0.33819       -39.02745        0.3381901       -39.02739        0.4776514        120.0364
4.7344                 0.4837784        119.6812          0.32566       -39.90831        0.3256602       -39.90826        0.4837794        119.6812
4.7358                 0.4900427        119.2181         0.313341       -40.63061        0.3133412       -40.63057        0.4900436         119.218
4.7372                 0.4962909        118.6529        0.3013608        -41.1881        0.3013609       -41.18806        0.4962917        118.6529
4.7386                 0.5023918        117.9942        0.2898303       -41.57806        0.2898305       -41.57803        0.5023925        117.9941
4.74                   0.5082377        117.2517        0.2788425       -41.80105        0.2788427       -41.80102        0.5082383        117.2516
4.7414                 0.5137434        116.4359        0.2684734       -41.86062        0.2684736        -41.8606        0.5137439        116.4358
4.7428                 0.5188424        115.5567        0.2587846       -41.76337        0.2587847       -41.76336        0.5188428        115.5566
4.7442                 0.5234828        114.6236        0.2498246       -41.51927        0.2498248       -41.51926        0.5234832        114.6235
4.7456                 0.5276244        113.6457        0.2416302       -41.14228        0.2416303       -41.14228        0.5276246        113.6456
4.747                  0.5312362        112.6316         0.234224       -40.65088        0.2342241       -40.65086        0.5312363        112.6315
4.7484                 0.5342966        111.5897        0.2276124       -40.06815        0.2276126       -40.06813        0.5342967        111.5897
4.7498                 0.5367947        110.5284        0.2217816       -39.42119        0.2217818       -39.42118        0.5367946        110.5284
4.7512                 0.5387319        109.4559         0.216695       -38.73947        0.2166952       -38.73946        0.5387317        109.4558
4.7526                 0.5401239          108.38        0.2122934       -38.05238        0.2122935       -38.05238        0.5401236        108.3799
4.754                  0.5410009        107.3079        0.2084978       -37.38641         0.208498       -37.38642        0.5410005        107.3079
4.7554                  0.541407        106.2457        0.2052167       -36.76266        0.2052169       -36.76268        0.5414065        106.2456
4.7568                 0.5413959        105.1978        0.2023547       -36.19512        0.2023548       -36.19514        0.5413954        105.1978
4.7582                 0.5410266        104.1672        0.1998218       -35.69038        0.1998219       -35.69041        0.5410261        104.1672
4.7596                 0.5403575        103.1549        0.1975418       -35.24858        0.1975419       -35.24861         0.540357        103.1549
4.761                    0.53944        102.1602        0.1954575       -34.86541        0.1954576       -34.86543        0.5394394        102.1602
4.7624                 0.5383143        101.1816        0.1935316       -34.53458        0.1935317       -34.53459        0.5383137        101.1816
4.7638                 0.5370073        100.2168        0.1917442       -34.25037        0.1917443       -34.25039        0.5370068        100.2168
4.7652                 0.5355325        99.26346        0.1900874       -34.00944        0.1900875       -34.00946        0.5355319        99.26346
4.7666                 0.5338928        98.32018        0.1885581       -33.81171        0.1885581       -33.81173        0.5338923        98.32019
4.768                  0.5320857        97.38632        0.1871506       -33.66025        0.1871507       -33.66026        0.5320851        97.38632
4.7694                 0.5301081        96.46233         0.185852       -33.56002        0.1858521       -33.56004        0.5301075        96.46233
4.7708                 0.5279619         95.5495        0.1846397       -33.51615        0.1846398       -33.51617        0.5279613        95.54953
4.7722                  0.525657        94.64968        0.1834824       -33.53204        0.1834825       -33.53207        0.5256565        94.64973
4.7736                 0.5232127        93.76462        0.1823442       -33.60792        0.1823443       -33.60795        0.5232122        93.76465
4.775                  0.5206559        92.89541        0.1811904       -33.74019        0.1811905       -33.74022        0.5206554        92.89544
4.7764                 0.5180179        92.04222        0.1799928        -33.9217        0.1799929       -33.92172        0.5180174        92.04225
4.7778                 0.5153292          91.204        0.1787347       -34.14292        0.1787347       -34.14295        0.5153287        91.20403
