! TOUCHSTONE file generated by CST MICROWAVE STUDIO
! Date and time: Mon Dec  2 04:50:23 2024
! Project name: test_tuning.cst
! Parameters = {airCoaxOuterDiameter=3; chamferAngle=45; chamferWidth=24; connectorLength=10; drillingHoleDiameter=4.1; feedLength=60; flareDiameter=130; flareLength=70; gratingDistance=0; gratingGap=1.90274; outletLength=25; polarizerLength=134; probe1Diameter=1.3; probe1Distance=14; probe1Length=12; probe2Diameter=1.3; probe2Distance=0; probe2Length=12; probeLength=12; smaInnerDiameter=1.3; smaOuterDiameter=4.1; transitionCoefficient=1.33; waveguideFeedLength=30; waveguideSide=50; waveguideThickness=3; wireCount=25; wireDiameter=1.17699}
! Header version: 2024
! Port assignment regex: !\s*Touchstone port\s*([0-9]+)\s*=\s*(CST MWS port|CST DES external port|CST DES block port)\s*(.+)\s* \(\"(.*)\"\)(\s*mode\s*([0-9]+))?.*
! Touchstone port assignment:
! Touchstone port 1 = CST MWS port 1 ("Input1")
! Touchstone port 2 = CST MWS port 2 ("Input2")
# GHz S MA R 50
4.6                     0.218294       -158.7892        0.5952355        67.01662        0.5952356        67.01662         0.218296       -158.7891
4.6014                 0.2260108       -159.5985        0.5981047        66.14032        0.5981049        66.14032        0.2260128       -159.5984
4.6028                 0.2337446       -160.4496        0.6008654         65.2431        0.6008656        65.24311        0.2337465       -160.4496
4.6042                 0.2414731       -161.3377         0.603501        64.32586        0.6035013        64.32588         0.241475       -161.3377
4.6056                 0.2491756        -162.258        0.6059965        63.38961        0.6059967        63.38963        0.2491774       -162.2581
4.607                  0.2568327       -163.2058        0.6083376        62.43543         0.608338        62.43545        0.2568343        -163.206
4.6084                 0.2644266       -164.1766        0.6105122        61.46444        0.6105126        61.46447        0.2644281       -164.1768
4.6098                 0.2719416       -165.1657        0.6125092        60.47785        0.6125097        60.47788        0.2719429        -165.166
4.6112                  0.279364       -166.1691        0.6143192        59.47683        0.6143198        59.47686         0.279365       -166.1694
4.6126                  0.286682       -167.1827        0.6159342         58.4626        0.6159348        58.46263        0.2866829        -167.183
4.614                  0.2938865       -168.2025        0.6173479        57.43635        0.6173484        57.43637        0.2938871       -168.2029
4.6154                 0.3009705       -169.2252        0.6185548        56.39927        0.6185555         56.3993        0.3009709       -169.2256
4.6168                 0.3079295       -170.2475        0.6195517        55.35247        0.6195524        55.35249        0.3079296       -170.2478
4.6182                 0.3147612       -171.2664        0.6203358        54.29708        0.6203366        54.29711        0.3147611       -171.2667
4.6196                 0.3214659       -172.2791        0.6209059        53.23414        0.6209067        53.23416        0.3214655       -172.2795
4.621                   0.328046       -173.2835        0.6212619        52.16463        0.6212627        52.16465        0.3280455       -173.2838
4.6224                 0.3345062       -174.2774        0.6214043        51.08949        0.6214052        51.08951        0.3345055       -174.2777
4.6238                 0.3408534       -175.2593        0.6213348        50.00959        0.6213359         50.0096        0.3408524       -175.2595
4.6252                  0.347096       -176.2277        0.6210556        48.92571        0.6210566        48.92572        0.3470948       -176.2279
4.6266                 0.3532443       -177.1816        0.6205694        47.83859        0.6205705        47.83859         0.353243       -177.1818
4.628                  0.3593102       -178.1205        0.6198797        46.74888        0.6198808        46.74887        0.3593088       -178.1207
4.6294                 0.3653067       -179.0441        0.6189899        45.65717         0.618991        45.65716        0.3653051       -179.0443
4.6308                 0.3712474       -179.9524        0.6179038        44.56401         0.617905        44.56399        0.3712458       -179.9525
4.6322                  0.377147        179.1542        0.6166255        43.46984        0.6166266        43.46983        0.3771453        179.1541
4.6336                   0.38302        178.2749        0.6151587         42.3751        0.6151599        42.37508        0.3830182        178.2748
4.635                  0.3888811        177.4087        0.6135075        41.28014        0.6135086        41.28011        0.3888793        177.4087
4.6364                 0.3947445        176.5544        0.6116755         40.1853        0.6116767        40.18526        0.3947428        176.5544
4.6378                 0.4006237        175.7103        0.6096662        39.09086        0.6096674        39.09081        0.4006221        175.7103
4.6392                 0.4065311        174.8746         0.607483        37.99708        0.6074841        37.99703        0.4065295        174.8747
4.6406                 0.4124776        174.0456        0.6051289         36.9042        0.6051299        36.90415        0.4124761        174.0456
4.642                  0.4184728        173.2209        0.6026064        35.81247        0.6026074        35.81242        0.4184714         173.221
4.6434                 0.4245238        172.3985         0.599918        34.72213         0.599919        34.72206        0.4245227        172.3986
4.6448                 0.4306364        171.5762        0.5970659         33.6334        0.5970669        33.63332        0.4306353        171.5763
4.6462                 0.4368133        170.7516         0.594052        32.54654        0.5940528        32.54646        0.4368125        170.7518
4.6476                 0.4430556        169.9227        0.5908777        31.46184        0.5908785        31.46176        0.4430548        169.9228
4.649                  0.4493615        169.0873        0.5875445        30.37963        0.5875453        30.37954        0.4493609        169.0874
4.6504                 0.4557267        168.2434        0.5840539        29.30024        0.5840546        29.30015        0.4557263        168.2436
4.6518                 0.4621451        167.3893        0.5804073        28.22408        0.5804079        28.22398        0.4621448        167.3894
4.6532                 0.4686075        166.5232        0.5766059         27.1516        0.5766064         27.1515        0.4686074        166.5234
4.6546                 0.4751032        165.6438        0.5726513        26.08331        0.5726518        26.08321        0.4751033         165.644
4.656                  0.4816192        164.7499        0.5685452        25.01978        0.5685457        25.01968        0.4816195          164.75
4.6574                 0.4881409        163.8405        0.5642898        23.96164        0.5642901        23.96155        0.4881413        163.8407
4.6588                 0.4946519         162.915        0.5598874         22.9096        0.5598877         22.9095        0.4946524        162.9151
4.6602                 0.5011348        161.9728        0.5553412        21.86439        0.5553414         21.8643        0.5011354        161.9729
4.6616                  0.507571        161.0138        0.5506546        20.82687        0.5506548        20.82678        0.5075716        161.0139
4.663                  0.5139411         160.038        0.5458321        19.79789        0.5458323         19.7978        0.5139419        160.0381
4.6644                 0.5202258        159.0457        0.5408785         18.7784        0.5408786        18.77831        0.5202265        159.0458
4.6658                 0.5264048        158.0374        0.5357998         17.7694        0.5357998        17.76931        0.5264056        158.0374
4.6672                 0.5324588        157.0137        0.5306025         16.7719        0.5306024        16.77183        0.5324596        157.0137
4.6686                 0.5383682        155.9756        0.5252942        15.78699        0.5252941        15.78691        0.5383691        155.9756
4.67                   0.5441146        154.9241        0.5198836        14.81574        0.5198835        14.81567        0.5441153         154.924
4.6714                 0.5496801        153.8602        0.5143802        13.85926        0.5143801        13.85919        0.5496809        153.8602
4.6728                 0.5550482        152.7854        0.5087943        12.91864        0.5087941        12.91858        0.5550489        152.7854
4.6742                 0.5602036        151.7011        0.5031374        11.99498        0.5031372        11.99492        0.5602043        151.7011
4.6756                 0.5651326        150.6087        0.4974218         11.0893        0.4974215        11.08925        0.5651332        150.6086
4.677                   0.569823        149.5098        0.4916604        10.20262        0.4916601        10.20257        0.5698236        149.5097
4.6784                 0.5742648        148.4059        0.4858671        9.335851        0.4858668        9.335808        0.5742653        148.4058
4.6798                 0.5784494        147.2987        0.4800566        8.489819        0.4800563        8.489783        0.5784497        147.2987
4.6812                 0.5823705        146.1899        0.4742437        7.665237        0.4742434        7.665206        0.5823707        146.1899
4.6826                 0.5860237        145.0811         0.468444        6.862682        0.4684437        6.862656        0.5860239         145.081
4.684                  0.5894067        143.9738         0.462673        6.082564        0.4626728        6.082545        0.5894068        143.9737
4.6854                 0.5925194        142.8696        0.4569466        5.325118        0.4569463        5.325104        0.5925195        142.8695
4.6868                 0.5953635          141.77        0.4512803        4.590371        0.4512801        4.590362        0.5953635          141.77
4.6882                  0.597943        140.6765        0.4456895         3.87813        0.4456893        3.878125        0.5979429        140.6764
4.6896                 0.6002634        139.5904        0.4401889        3.187961        0.4401887        3.187961        0.6002633        139.5903
4.691                  0.6023324        138.5129        0.4347924        2.519183        0.4347922        2.519188        0.6023322        138.5128
4.6924                 0.6041589        137.4451        0.4295129        1.870852        0.4295127        1.870861        0.6041587        137.4451
4.6938                 0.6057537        136.3882        0.4243622        1.241764        0.4243621        1.241776        0.6057535        136.3881
4.6952                 0.6071289        135.3429        0.4193508       0.6304518        0.4193507       0.6304669        0.6071287        135.3428
4.6966                 0.6082975        134.3099        0.4144872      0.03519927        0.4144871      0.03521705        0.6082973        134.3099
4.698                  0.6092736          133.29        0.4097783      -0.5459451        0.4097783      -0.5459251        0.6092733          133.29
4.6994                 0.6100719        132.2834        0.4052291       -1.115145        0.4052291       -1.115123        0.6100717        132.2834
4.7008                 0.6107077        131.2904        0.4008425       -1.674748        0.4008425       -1.674725        0.6107075        131.2904
4.7022                 0.6111961        130.3112        0.3966192       -2.227246        0.3966192       -2.227222        0.6111961        130.3112
4.7036                 0.6115529        129.3457        0.3925575        -2.77524        0.3925575       -2.775215        0.6115528        129.3457
4.705                  0.6117929        128.3937        0.3886539       -3.321398         0.388654       -3.321371         0.611793        128.3937
4.7064                 0.6119307        127.4547        0.3849026       -3.868354        0.3849027       -3.868327        0.6119308        127.4547
4.7078                   0.61198        126.5282        0.3812955       -4.418777        0.3812956       -4.418777        0.6119803        126.5283
4.7092                 0.6119538        125.6137         0.377823       -4.975221        0.3778231       -4.975194        0.6119541        125.6137
4.7106                 0.6118635        124.7103        0.3744733        -5.54001        0.3744735       -5.539988        0.6118639        124.7103
4.712                  0.6117196        123.8171        0.3712335       -6.115447        0.3712337       -6.115426        0.6117201        123.8171
4.7134                 0.6115307        122.9332        0.3680891       -6.703502        0.3680893       -6.703481        0.6115313        122.9332
4.7148                 0.6113043        122.0574        0.3650247       -7.305916        0.3650249       -7.305898        0.6113049        122.0574
4.7162                 0.6110456        121.1889         0.362024       -7.924137        0.3620243       -7.924119        0.6110463        121.1889
4.7176                 0.6107587        120.3263        0.3590706       -8.559308        0.3590709       -8.559293        0.6107595        120.3263
4.719                  0.6104454        119.4686        0.3561475       -9.212248        0.3561477       -9.212234        0.6104463        119.4686
4.7204                 0.6101063        118.6148         0.353238       -9.883436        0.3532382       -9.883425        0.6101073        118.6148
4.7218                 0.6097402        117.7637        0.3503259       -10.57302        0.3503261       -10.57301        0.6097412        117.7637
4.7232                 0.6093443        116.9144        0.3473955       -11.28082        0.3473957       -11.28081        0.6093454        116.9144
4.7246                 0.6089145         116.066        0.3444321       -12.00633        0.3444323       -12.00632        0.6089155        116.0659
4.726                  0.6084453        115.2175        0.3414221       -12.74873        0.3414223       -12.74872        0.6084463        115.2175
4.7274                 0.6079305        114.3685        0.3383533       -13.50692        0.3383535       -13.50691        0.6079315        114.3684
4.7288                 0.6073626        113.5182        0.3352149       -14.27952        0.3352151       -14.27952        0.6073636        113.5182
4.7302                 0.6067339        112.6663        0.3319978       -15.06493        0.3319981       -15.06493        0.6067348        112.6662
4.7316                  0.606036        111.8124        0.3286947       -15.86131         0.328695        -15.8613        0.6060368        111.8123
4.733                  0.6052604        110.9564        0.3253001       -16.66661        0.3253004       -16.66661        0.6052611        110.9563
4.7344                 0.6043987        110.0982        0.3218104       -17.47867        0.3218107       -17.47867        0.6043994        110.0981
4.7358                 0.6034429         109.238         0.318224       -18.29516        0.3182242       -18.29516        0.6034434        109.2378
4.7372                 0.6023852         108.376        0.3145411       -19.11366        0.3145413       -19.11366        0.6023856        108.3759
4.7386                 0.6012186        107.5127        0.3107638       -19.93168        0.3107641       -19.93168         0.601219        107.5125
4.74                   0.5999374        106.6484        0.3068964       -20.74671        0.3068966       -20.74671        0.5999376        106.6483
4.7414                 0.5985365        105.7839        0.3029444       -21.55623        0.3029447       -21.55624        0.5985366        105.7838
4.7428                 0.5970121        104.9198        0.2989155       -22.35777        0.2989157       -22.35778        0.5970121        104.9197
4.7442                  0.595362        104.0569        0.2948186       -23.14893        0.2948189       -23.14894        0.5953618        104.0567
4.7456                 0.5935848        103.1959        0.2906641       -23.92744        0.2906644       -23.92744        0.5935845        103.1958
4.747                  0.5916815        102.3378        0.2864638       -24.69117         0.286464       -24.69118        0.5916811        102.3377
4.7484                 0.5896538        101.4834        0.2822301       -25.43821        0.2822304       -25.43822        0.5896533        101.4833
4.7498                 0.5875054        100.6336        0.2779766       -26.16689        0.2779769        -26.1669        0.5875049        100.6335
4.7512                 0.5852413        99.78923        0.2737173       -26.87584        0.2737175       -26.87584        0.5852406        99.78913
4.7526                 0.5828678         98.9511        0.2694665       -27.56398        0.2694667         -27.564        0.5828671        98.95099
4.754                   0.580393        98.11997        0.2652385       -28.23066        0.2652387       -28.23067        0.5803921        98.11989
4.7554                 0.5778255        97.29646        0.2610476       -28.87559        0.2610479       -28.87559        0.5778245        97.29641
4.7568                 0.5751755        96.48118        0.2569075       -29.49891        0.2569077       -29.49893        0.5751745         96.4811
4.7582                  0.572454        95.67449        0.2528309       -30.10127        0.2528311       -30.10128         0.572453        95.67444
4.7596                 0.5696725        94.87675        0.2488298       -30.68375          0.24883       -30.68376        0.5696715         94.8767
4.761                  0.5668431        94.08809        0.2449146       -31.24792        0.2449149       -31.24794        0.5668421        94.08804
4.7624                  0.563978        93.30844        0.2410944       -31.79584        0.2410947       -31.79586         0.563977        93.30841
4.7638                 0.5610895        92.53766        0.2373763          -32.33        0.2373766       -32.33003        0.5610885        92.53764
4.7652                 0.5581895         91.7754        0.2337656       -32.85332        0.2337659       -32.85335        0.5581886        91.77538
4.7666                 0.5552895        91.02112        0.2302656       -33.36906        0.2302658       -33.36909        0.5552886        91.02109
4.768                  0.5524001        90.27404        0.2268771       -33.88083        0.2268773       -33.88086        0.5523993        90.27405
4.7694                 0.5495309        89.53336        0.2235991       -34.39242        0.2235993       -34.39246        0.5495301        89.53336
4.7708                 0.5466905        88.79796        0.2204281       -34.90781        0.2204283       -34.90785        0.5466898        88.79799
4.7722                 0.5438857        88.06674        0.2173586       -35.43101        0.2173588       -35.43104        0.5438851        88.06674
4.7736                  0.541122        87.33831        0.2143832         -35.966        0.2143834       -35.96603        0.5411214        87.33834
4.775                  0.5384029        86.61129        0.2114925       -36.51664        0.2114927       -36.51668        0.5384024        86.61132
4.7764                 0.5357303        85.88421        0.2086756       -37.08658        0.2086758       -37.08662          0.53573        85.88424
4.7778                 0.5331042        85.15546        0.2059202       -37.67916        0.2059204       -37.67921        0.5331039        85.15552
