! TOUCHSTONE file generated by CST MICROWAVE STUDIO
! Date and time: Mon Dec  2 04:50:25 2024
! Project name: test_tuning.cst
! Parameters = {airCoaxOuterDiameter=3; chamferAngle=45; chamferWidth=24; connectorLength=10; drillingHoleDiameter=4.1; feedLength=60; flareDiameter=130; flareLength=70; gratingDistance=0; gratingGap=1.90274; outletLength=90; polarizerLength=134; probe1Diameter=1.3; probe1Distance=14; probe1Length=12; probe2Diameter=1.3; probe2Distance=0; probe2Length=12; probeLength=12; smaInnerDiameter=1.3; smaOuterDiameter=4.1; transitionCoefficient=1.33; waveguideFeedLength=30; waveguideSide=50; waveguideThickness=3; wireCount=25; wireDiameter=1.17699}
! Header version: 2024
! Port assignment regex: !\s*Touchstone port\s*([0-9]+)\s*=\s*(CST MWS port|CST DES external port|CST DES block port)\s*(.+)\s* \(\"(.*)\"\)(\s*mode\s*([0-9]+))?.*
! Touchstone port assignment:
! Touchstone port 1 = CST MWS port 1 ("Input1")
! Touchstone port 2 = CST MWS port 2 ("Input2")
# GHz S MA R 50
4.6                    0.2160943       -172.9324         0.655578        65.10142        0.6555784        65.10145        0.2160949       -172.9326
4.6014                 0.2214755       -173.4017        0.6566204        64.23456        0.6566208        64.23456         0.221476       -173.4019
4.6028                 0.2269844       -173.8889        0.6576033        63.36894        0.6576037        63.36892        0.2269848       -173.8891
4.6042                 0.2326032       -174.4014        0.6585602        62.50452        0.6585606         62.5045        0.2326036       -174.4016
4.6056                 0.2383042       -174.9434        0.6595211        61.64004        0.6595212        61.64001        0.2383046       -174.9435
4.607                  0.2440547       -175.5153         0.660507        60.77328        0.6605069        60.77324        0.2440551       -175.5154
4.6084                  0.249823       -176.1149        0.6615271        59.90149        0.6615269        59.90145        0.2498235        -176.115
4.6098                 0.2555835       -176.7374         0.662578        59.02182        0.6625776         59.0218        0.2555841       -176.7375
4.6112                 0.2613197       -177.3772        0.6636441        58.13186        0.6636437        58.13185        0.2613205       -177.3772
4.6126                 0.2670263       -178.0283        0.6647014        57.22989         0.664701        57.22991        0.2670271       -178.0284
4.614                  0.2727079        -178.686        0.6657215         56.3151        0.6657211        56.31513        0.2727088       -178.6861
4.6154                 0.2783774       -179.3471         0.666676        55.38761        0.6666758        55.38766        0.2783782       -179.3472
4.6168                 0.2840518        179.9896         0.667541        54.44833         0.667541        54.44837        0.2840526        179.9895
4.6182                 0.2897491        179.3233        0.6682998         53.4987        0.6682999        53.49874        0.2897497        179.3232
4.6196                 0.2954835        178.6519        0.6689442        52.54042        0.6689446        52.54045        0.2954841        178.6517
4.621                  0.3012635        177.9719         0.669475        51.57505        0.6694755        51.57508        0.3012639        177.9718
4.6224                 0.3070894        177.2799        0.6698998        50.60382        0.6699002        50.60383        0.3070897        177.2798
4.6238                 0.3129537        176.5727        0.6702308        49.62735         0.670231        49.62735        0.3129539        176.5726
4.6252                 0.3188421        175.8479        0.6704809        48.64566        0.6704812        48.64565        0.3188423        175.8478
4.6266                 0.3247354        175.1044        0.6706616        47.65818        0.6706618        47.65817        0.3247357        175.1044
4.628                  0.3306129        174.3423        0.6707799        46.66386        0.6707799        46.66386        0.3306132        174.3422
4.6294                 0.3364542        173.5626        0.6708363        45.66145        0.6708362        45.66145        0.3364546        173.5625
4.6308                 0.3422423        172.7673        0.6708252        44.64964        0.6708249        44.64965        0.3422428        172.7672
4.6322                 0.3479646        171.9587        0.6707348        43.62739        0.6707346         43.6274        0.3479652        171.9587
4.6336                 0.3536135        171.1392        0.6705497        42.59397        0.6705495          42.594        0.3536141        171.1392
4.635                  0.3591858        170.3108        0.6702522        41.54917         0.670252        41.54922        0.3591865        170.3107
4.6364                 0.3646819        169.4748        0.6698249        40.49326        0.6698249        40.49331        0.3646825        169.4747
4.6378                 0.3701033         168.632         0.669253         39.4269        0.6692532        39.42695        0.3701038        168.6319
4.6392                 0.3754515        167.7827        0.6685259        38.35102        0.6685263        38.35107         0.375452        167.7825
4.6406                 0.3807258        166.9264        0.6676375         37.2667         0.667638        37.26675        0.3807262        166.9262
4.642                  0.3859226        166.0625        0.6665861        36.17498        0.6665868        36.17501        0.3859229        166.0624
4.6434                 0.3910347        165.1906        0.6653743        35.07668         0.665375         35.0767        0.3910348        165.1905
4.6448                 0.3960512        164.3102        0.6640065        33.97238        0.6640073        33.97237        0.3960513        164.3102
4.6462                  0.400959        163.4214        0.6624883        32.86233         0.662489        32.86231         0.400959        163.4214
4.6476                 0.4057433        162.5246        0.6608244        31.74648        0.6608249        31.74646        0.4057433        162.5246
4.649                  0.4103894        161.6208        0.6590176         30.6246        0.6590178        30.62457        0.4103895        161.6208
4.6504                 0.4148836        160.7113        0.6570678         29.4963        0.6570679        29.49627        0.4148838        160.7113
4.6518                 0.4192145        159.7978        0.6549724         28.3612        0.6549724        28.36117        0.4192148        159.7978
4.6532                 0.4233733        158.8821        0.6527265        27.21901        0.6527264        27.21899        0.4233737        158.8822
4.6546                 0.4273536         157.966        0.6503236        26.06958        0.6503234        26.06958        0.4273541         157.966
4.656                  0.4311515        157.0512        0.6477564        24.91301        0.6477562        24.91302        0.4311521        157.0512
4.6574                  0.434765        156.1393        0.6450186        23.74956        0.6450185        23.74957        0.4347656        156.1392
4.6588                 0.4381929        155.2315        0.6421051        22.57963        0.6421051        22.57965        0.4381935        155.2315
4.6602                 0.4414345        154.3292        0.6390127        21.40374        0.6390128        21.40376        0.4414351        154.3292
4.6616                  0.444489        153.4336        0.6357405        20.22237        0.6357407        20.22239        0.4444895        153.4336
4.663                  0.4473552        152.5459        0.6322891        19.03595        0.6322893        19.03596        0.4473557        152.5458
4.6644                 0.4500323        151.6672        0.6286604        17.84475        0.6286607        17.84475        0.4500328        151.6672
4.6658                 0.4525195        150.7992        0.6248566        16.64889        0.6248569        16.64888        0.4525198        150.7992
4.6672                 0.4548171        149.9434        0.6208793         15.4483        0.6208796        15.44828        0.4548175        149.9434
4.6686                 0.4569274        149.1016        0.6167291        14.24277        0.6167292        14.24274        0.4569278        149.1016
4.67                   0.4588546        148.2757        0.6124047        13.03199        0.6124048        13.03196        0.4588551        148.2757
4.6714                 0.4606058        147.4678         0.607903         11.8156        0.6079027        11.81558        0.4606064        147.4678
4.6728                 0.4621912        146.6799        0.6032183        10.59326         0.603218        10.59325        0.4621918        146.6799
4.6742                 0.4636236        145.9139        0.5983438        9.364692        0.5983435        9.364693        0.4636244        145.9139
4.6756                 0.4649191        145.1719        0.5932706        8.129718        0.5932703        8.129731          0.46492        145.1719
4.677                  0.4660966        144.4555        0.5879886        6.888286        0.5879883        6.888312        0.4660974        144.4555
4.6784                 0.4671777        143.7664        0.5824866        5.640491        0.5824863        5.640528        0.4671785        143.7664
4.6798                 0.4681869        143.1061         0.576752        4.386591        0.5767519        4.386634        0.4681877        143.1061
4.6812                 0.4691526        142.4759        0.5707715        3.127035        0.5707714         3.12708        0.4691534        142.4759
4.6826                 0.4701067        141.8769        0.5645299        1.862518        0.5645301         1.86256        0.4701073        141.8768
4.684                  0.4710858        141.3096        0.5580113       0.5940616        0.5580114       0.5940969        0.4710864        141.3096
4.6854                 0.4721313        140.7744        0.5511981      -0.6768756        0.5511984      -0.6768507        0.4721317        140.7744
4.6868                 0.4732892        140.2706        0.5440727        -1.94826         0.544073       -1.948247        0.4732897        140.2705
4.6882                 0.4746102        139.7965        0.5366175       -3.217329        0.5366178       -3.217328        0.4746105        139.7965
4.6896                 0.4761468        139.3493        0.5288172       -4.480444        0.5288174       -4.480452        0.4761472        139.3493
4.691                  0.4779524        138.9247          0.52066       -5.732963        0.5206602       -5.732976        0.4779528        138.9247
4.6924                 0.4800773        138.5168        0.5121409       -6.969151        0.5121409       -6.969166        0.4800778        138.5168
4.6938                  0.482565        138.1181         0.503263       -8.182183        0.5032628       -8.182193        0.4825656        138.1181
4.6952                 0.4854484        137.7198        0.4940407       -9.364188        0.4940406       -9.364189         0.485449        137.7198
4.6966                 0.4887454        137.3121        0.4845016       -10.50644        0.4845014       -10.50643        0.4887461        137.3121
4.698                  0.4924569        136.8848        0.4746872       -11.59962        0.4746871       -11.59962        0.4924577        136.8848
4.6994                  0.496564        136.4278        0.4646542       -12.63413        0.4646541        -12.6341        0.4965647        136.4277
4.7008                 0.5010277        135.9316        0.4544734       -13.60074        0.4544734       -13.60071        0.5010283        135.9316
4.7022                 0.5057906        135.3883        0.4442281       -14.49083        0.4442282       -14.49077        0.5057911        135.3883
4.7036                 0.5107789        134.7919        0.4340112       -15.29719        0.4340114       -15.29716        0.5107796        134.7918
4.705                  0.5159075        134.1384        0.4239217       -16.01457        0.4239219       -16.01454         0.515908        134.1383
4.7064                 0.5210834        133.4263        0.4140595       -16.64009        0.4140599       -16.64006        0.5210838        133.4263
4.7078                  0.526212        132.6563        0.4045212       -17.17368        0.4045216       -17.17368        0.5262124        132.6563
4.7092                 0.5312016        131.8313        0.3953943        -17.6184        0.3953946       -17.61843        0.5312019        131.8312
4.7106                 0.5359678        130.9557        0.3867529       -17.98027        0.3867531        -17.9803        0.5359682        130.9557
4.712                  0.5404377        130.0355        0.3786542       -18.26822        0.3786544       -18.26826        0.5404381        130.0355
4.7134                 0.5445516        129.0775        0.3711359       -18.49345         0.371136       -18.49349        0.5445521        129.0775
4.7148                  0.548265         128.089        0.3642151       -18.66882         0.364215       -18.66885        0.5482655         128.089
4.7162                 0.5515484        127.0773        0.3578891       -18.80798        0.3578889         -18.808        0.5515489        127.0773
4.7176                 0.5543872        126.0496        0.3521376       -18.92457        0.3521374       -18.92457        0.5543878        126.0495
4.719                  0.5567798        125.0124        0.3469255       -19.03141        0.3469253       -19.03141        0.5567805        125.0124
4.7204                 0.5587359        123.9717        0.3422071       -19.13991        0.3422069       -19.13989        0.5587365        123.9717
4.7218                 0.5602735        122.9326          0.33793       -19.25963        0.3379299        -19.2596        0.5602741        122.9326
4.7232                 0.5614178        121.8993        0.3340392       -19.39812        0.3340392       -19.39809        0.5614183        121.8993
4.7246                 0.5621976        120.8752        0.3304801       -19.56096        0.3304802       -19.56093        0.5621981        120.8752
4.726                  0.5626443         119.863        0.3272011       -19.75191        0.3272012       -19.75189        0.5626447         119.863
4.7274                 0.5627896        118.8644        0.3241551       -19.97322        0.3241553       -19.97322          0.56279        118.8644
4.7288                 0.5626647        117.8808        0.3213005       -20.22594        0.3213006       -20.22595         0.562665        117.8808
4.7302                 0.5622993         116.913        0.3186013       -20.51024        0.3186014       -20.51027        0.5622995         116.913
4.7316                 0.5617209        115.9613        0.3160268       -20.82567        0.3160268       -20.82571        0.5617212        115.9613
4.733                   0.560955        115.0257        0.3135509       -21.17139        0.3135508       -21.17143        0.5609552        115.0257
4.7344                 0.5600241        114.1061        0.3111516       -21.54629        0.3111515       -21.54633        0.5600244        114.1061
4.7358                 0.5589487         113.202        0.3088105       -21.94911        0.3088102       -21.94914        0.5589492         113.202
4.7372                 0.5577469        112.3129        0.3065117       -22.37851        0.3065113       -22.37852        0.5577474        112.3129
4.7386                 0.5564342         111.438        0.3042421       -22.83306        0.3042418       -22.83306        0.5564347         111.438
4.74                   0.5550242        110.5768        0.3019909       -23.31133        0.3019906       -23.31131        0.5550247        110.5768
4.7414                 0.5535283        109.7285         0.299749       -23.81187        0.2997488       -23.81184        0.5535287        109.7285
4.7428                 0.5519562        108.8922        0.2975094       -24.33327        0.2975092       -24.33322        0.5519567        108.8922
4.7442                  0.550316        108.0675        0.2952665       -24.87417        0.2952664       -24.87412        0.5503164        108.0674
4.7456                 0.5486149        107.2534        0.2930161       -25.43332        0.2930162       -25.43328        0.5486153        107.2534
4.747                  0.5468588        106.4496        0.2907554        -26.0096        0.2907555       -26.00957        0.5468591        106.4496
4.7484                 0.5450534        105.6553         0.288482         -26.602        0.2884822       -26.60198        0.5450537        105.6553
4.7498                 0.5432038        104.8702        0.2861945       -27.20967        0.2861946       -27.20966         0.543204        104.8702
4.7512                 0.5413153        104.0937        0.2838914       -27.83185        0.2838915       -27.83186        0.5413155        104.0937
4.7526                 0.5393928        103.3253        0.2815718       -28.46788        0.2815719        -28.4679         0.539393        103.3253
4.754                   0.537441        102.5644         0.279235       -29.11717        0.2792349       -29.11719        0.5374413        102.5644
4.7554                 0.5354648        101.8106        0.2768801       -29.77915          0.27688       -29.77917         0.535465        101.8106
4.7568                 0.5334677         101.063        0.2745068       -30.45328        0.2745066       -30.45329         0.533468         101.063
4.7582                 0.5314528         100.321         0.272115       -31.13903        0.2721148       -31.13903        0.5314532         100.321
4.7596                 0.5294222        99.58384        0.2697051       -31.83592        0.2697049       -31.83589        0.5294226        99.58387
4.761                  0.5273763        98.85083        0.2672777       -32.54351        0.2672775       -32.54348        0.5273768        98.85085
4.7624                 0.5253151         98.1213        0.2648341       -33.26147         0.264834       -33.26143        0.5253156        98.12133
4.7638                  0.523237        97.39461        0.2623756       -33.98956        0.2623756       -33.98952        0.5232374        97.39461
4.7652                 0.5211402         96.6703        0.2599038        -34.7277        0.2599038       -34.72767        0.5211405         96.6703
4.7666                 0.5190225        95.94804        0.2574199       -35.47594          0.25742       -35.47591        0.5190228        95.94799
4.768                  0.5168821        95.22752        0.2549251       -36.23445        0.2549252       -36.23442        0.5168823        95.22751
4.7694                 0.5147177        94.50861        0.2524201       -37.00346        0.2524202       -37.00346        0.5147179        94.50861
4.7708                 0.5125291        93.79125         0.249905       -37.78331        0.2499051       -37.78332        0.5125292        93.79125
4.7722                 0.5103168        93.07533        0.2473795       -38.57426        0.2473795       -38.57428        0.5103169        93.07533
4.7736                 0.5080824        92.36069        0.2448429       -39.37655        0.2448429       -39.37659        0.5080825        92.36071
4.775                  0.5058277        91.64711        0.2422946       -40.19035        0.2422945       -40.19039        0.5058278        91.64711
4.7764                 0.5035548        90.93421        0.2397339       -41.01571        0.2397337       -41.01573        0.5035549        90.93424
4.7778                 0.5012654        90.22155        0.2371604       -41.85259        0.2371602       -41.85261        0.5012656        90.22157
