! TOUCHSTONE file generated by CST MICROWAVE STUDIO
! Date and time: Mon Dec  2 04:50:23 2024
! Project name: test_tuning.cst
! Parameters = {airCoaxOuterDiameter=3; chamferAngle=45; chamferWidth=24; connectorLength=10; drillingHoleDiameter=4.1; feedLength=60; flareDiameter=130; flareLength=70; gratingDistance=0; gratingGap=1.90274; outletLength=20; polarizerLength=134; probe1Diameter=1.3; probe1Distance=14; probe1Length=12; probe2Diameter=1.3; probe2Distance=0; probe2Length=12; probeLength=12; smaInnerDiameter=1.3; smaOuterDiameter=4.1; transitionCoefficient=1.33; waveguideFeedLength=30; waveguideSide=50; waveguideThickness=3; wireCount=25; wireDiameter=1.17699}
! Header version: 2024
! Port assignment regex: !\s*Touchstone port\s*([0-9]+)\s*=\s*(CST MWS port|CST DES external port|CST DES block port)\s*(.+)\s* \(\"(.*)\"\)(\s*mode\s*([0-9]+))?.*
! Touchstone port assignment:
! Touchstone port 1 = CST MWS port 1 ("Input1")
! Touchstone port 2 = CST MWS port 2 ("Input2")
# GHz S MA R 50
4.6                    0.2118673       -160.7405        0.5991502         64.2551        0.5991505        64.25506        0.2118676       -160.7407
4.6014                 0.2187268        -161.601        0.6005876        63.39352        0.6005879        63.39348        0.2187272       -161.6012
4.6028                 0.2255492       -162.4752        0.6019162        62.52857        0.6019165        62.52852        0.2255496       -162.4753
4.6042                 0.2323288       -163.3597        0.6031436        61.66097         0.603144        61.66093        0.2323292       -163.3598
4.6056                 0.2390613       -164.2516         0.604279        60.79127        0.6042792        60.79122        0.2390617       -164.2517
4.607                  0.2457436       -165.1484        0.6053313        59.91984        0.6053315        59.91981        0.2457441       -165.1485
4.6084                  0.252374       -166.0479        0.6063108         59.0469        0.6063109        59.04687        0.2523745        -166.048
4.6098                 0.2589517       -166.9481        0.6072273        58.17248        0.6072275        58.17243        0.2589522       -166.9482
4.6112                 0.2654772       -167.8475        0.6080909         57.2964        0.6080911        57.29637        0.2654777       -167.8476
4.6126                 0.2719517       -168.7448        0.6089113        56.41836        0.6089114        56.41833        0.2719523       -168.7449
4.614                  0.2783775       -169.6391        0.6096973        55.53787        0.6096974        55.53783        0.2783781       -169.6392
4.6154                 0.2847573       -170.5295        0.6104572        54.65426        0.6104571        54.65422        0.2847578       -170.5296
4.6168                 0.2910942       -171.4156        0.6111976        53.76676        0.6111975        53.76673        0.2910948       -171.4157
4.6182                 0.2973923       -172.2971        0.6119242        52.87446        0.6119241        52.87442        0.2973929       -172.2972
4.6196                 0.3036551       -173.1741         0.612641        51.97633         0.612641         51.9763        0.3036558       -173.1742
4.621                   0.309887       -174.0465        0.6133504         51.0713        0.6133503        51.07127        0.3098876       -174.0466
4.6224                 0.3160916       -174.9148        0.6140529        50.15817        0.6140528        50.15816        0.3160922       -174.9149
4.6238                 0.3222727       -175.7794        0.6147471        49.23579        0.6147469        49.23577        0.3222734       -175.7795
4.6252                 0.3284337       -176.6408        0.6154295        48.30293        0.6154293        48.30291        0.3284344       -176.6409
4.6266                 0.3345775       -177.4998        0.6160948         47.3584        0.6160946        47.35839        0.3345782       -177.4998
4.628                  0.3407063       -178.3569        0.6167356        46.40105        0.6167355        46.40103         0.340707        -178.357
4.6294                 0.3468218       -179.2131        0.6173431        45.42979        0.6173429        45.42978        0.3468225       -179.2132
4.6308                 0.3529248        179.9308         0.617906        44.44361        0.6179059         44.4436        0.3529254        179.9307
4.6322                 0.3590152        179.0741         0.618412        43.44161        0.6184117        43.44161        0.3590159         179.074
4.6336                 0.3650924         178.216        0.6188467        42.42302        0.6188466        42.42302         0.365093        178.2159
4.635                  0.3711544        177.3556         0.619195        41.38719        0.6191948        41.38719        0.3711551        177.3555
4.6364                 0.3771989        176.4924        0.6194405         40.3336        0.6194404         40.3336        0.3771995        176.4923
4.6378                 0.3832224        175.6257        0.6195659        39.26194        0.6195657        39.26196         0.383223        175.6256
4.6392                 0.3892206        174.7549        0.6195532        38.17204        0.6195531        38.17204        0.3892212        174.7548
4.6406                 0.3951885        173.8795        0.6193843        37.06388        0.6193842        37.06389        0.3951891        173.8795
4.642                  0.4011206        172.9994        0.6190408        35.93763        0.6190407        35.93764        0.4011211        172.9993
4.6434                 0.4070105        172.1141        0.6185046        34.79364        0.6185044        34.79365        0.4070111         172.114
4.6448                 0.4128516        171.2236        0.6177575        33.63242        0.6177575        33.63243        0.4128522        171.2235
4.6462                 0.4186369        170.3278        0.6167827        32.45463        0.6167826        32.45464        0.4186374        170.3277
4.6476                 0.4243589        169.4269        0.6155635        31.26111        0.6155635        31.26113        0.4243594        169.4268
4.649                  0.4300102         168.521        0.6140848        30.05286        0.6140847        30.05288        0.4300107        168.5209
4.6504                 0.4355835        167.6104        0.6123323        28.83099        0.6123323        28.83101         0.435584        167.6103
4.6518                 0.4410713        166.6955        0.6102934        27.59679        0.6102934         27.5968        0.4410718        166.6955
4.6532                 0.4464665        165.7768         0.607957        26.35164        0.6079571        26.35166        0.4464671        165.7768
4.6546                 0.4517625        164.8549        0.6053138        25.09708        0.6053139         25.0971         0.451763        164.8548
4.656                  0.4569529        163.9302        0.6023563        23.83475        0.6023564        23.83477        0.4569534        163.9302
4.6574                  0.462032        163.0036         0.599079        22.56637        0.5990791        22.56639        0.4620325        163.0036
4.6588                 0.4669948        162.0757        0.5954783        21.29378        0.5954785         21.2938        0.4669953        162.0757
4.6602                 0.4718369        161.1473        0.5915531         20.0189        0.5915532        20.01892        0.4718375        161.1473
4.6616                 0.4765549        160.2192         0.587304        18.74373        0.5873041        18.74374        0.4765554        160.2191
4.663                  0.4811462         159.292         0.582734        17.47033        0.5827342        17.47034        0.4811467         159.292
4.6644                 0.4856091        158.3667        0.5778485        16.20081        0.5778487        16.20082        0.4856096        158.3667
4.6658                 0.4899428         157.444        0.5726549        14.93736        0.5726551        14.93737        0.4899432         157.444
4.6672                 0.4941475        156.5246        0.5671628        13.68217        0.5671629        13.68218         0.494148        156.5245
4.6686                 0.4982245        155.6092        0.5613838        12.43749        0.5613841         12.4375         0.498225        155.6092
4.67                    0.502176        154.6985        0.5553321        11.20556        0.5553323        11.20557        0.5021765        154.6984
4.6714                 0.5060051        153.7931        0.5490232        9.988644        0.5490235        9.988648        0.5060056         153.793
4.6728                 0.5097157        152.8935        0.5424751        8.788976        0.5424753         8.78898        0.5097162        152.8934
4.6742                 0.5133128        152.0002        0.5357072        7.608779        0.5357074        7.608779        0.5133133        152.0001
4.6756                  0.516802        151.1135        0.5287406        6.450223        0.5287408        6.450222        0.5168025        151.1135
4.677                  0.5201895        150.2338        0.5215981        5.315419        0.5215983        5.315417        0.5201901        150.2337
4.6784                 0.5234823        149.3611        0.5143038        4.206395         0.514304        4.206391        0.5234829        149.3611
4.6798                 0.5266878        148.4957        0.5068827        3.125074        0.5068829        3.125068        0.5266883        148.4956
4.6812                 0.5298135        147.6374        0.4993609        2.073249        0.4993612        2.073242         0.529814        147.6373
4.6826                 0.5328675        146.7861        0.4917654        1.052558        0.4917656         1.05255         0.532868         146.786
4.684                  0.5358576        145.9415        0.4841232      0.06445845        0.4841234      0.06444888        0.5358582        145.9415
4.6854                 0.5387919        145.1033         0.476462      -0.8898059        0.4764622      -0.8898166        0.5387924        145.1033
4.6868                 0.5416779         144.271        0.4688091        -1.80923        0.4688092       -1.809241        0.5416784        144.2709
4.6882                 0.5445228         143.444        0.4611916       -2.693075        0.4611917       -2.693088        0.5445234         143.444
4.6896                 0.5473335        142.6216         0.453636         -3.5409         0.453636       -3.540914         0.547334        142.6216
4.691                  0.5501157        141.8031        0.4461675       -4.352588        0.4461677       -4.352601        0.5501162         141.803
4.6924                 0.5528748        140.9876        0.4388107       -5.128358        0.4388107       -5.128372        0.5528753        140.9875
4.6938                 0.5556149        140.1741         0.431588       -5.868798         0.431588       -5.868812        0.5556152        140.1741
4.6952                 0.5583389        139.3618        0.4245203       -6.574864        0.4245203       -6.574878        0.5583393        139.3618
4.6966                  0.561049        138.5496        0.4176263       -7.247895        0.4176264       -7.247909        0.5610495        138.5496
4.698                  0.5637458        137.7366        0.4109225       -7.889605        0.4109225       -7.889618        0.5637462        137.7366
4.6994                 0.5664286        136.9216        0.4044225       -8.502058        0.4044225       -8.502086         0.566429        136.9216
4.7008                 0.5690954        136.1038        0.3981374       -9.087692        0.3981374       -9.087691        0.5690959        136.1037
4.7022                  0.571743         135.282        0.3920753       -9.649218        0.3920753       -9.649243        0.5717433         135.282
4.7036                 0.5743663        134.4554        0.3862413       -10.18964        0.3862413       -10.18967        0.5743667        134.4554
4.705                  0.5769597        133.6232        0.3806375       -10.71217        0.3806375        -10.7122        0.5769601        133.6232
4.7064                 0.5795158        132.7845         0.375263       -11.22017         0.375263        -11.2202        0.5795162        132.7845
4.7078                 0.5820263        131.9387         0.370114       -11.71711         0.370114       -11.71711        0.5820266        131.9387
4.7092                 0.5844817        131.0852        0.3651839        -12.2065        0.3651839        -12.2065        0.5844821        131.0851
4.7106                 0.5868718        130.2234        0.3604635       -12.69172        0.3604635       -12.69172        0.5868721        130.2234
4.712                  0.5891855        129.3532        0.3559413       -13.17618        0.3559413       -13.17618        0.5891858        129.3531
4.7134                 0.5914113        128.4741        0.3516039       -13.66301        0.3516039       -13.66301        0.5914115        128.4741
4.7148                  0.593537        127.5863        0.3474359       -14.15514        0.3474359       -14.15514        0.5935372        127.5863
4.7162                 0.5955502        126.6897        0.3434208        -14.6552        0.3434207        -14.6552        0.5955505        126.6897
4.7176                 0.5974387        125.7845        0.3395409       -15.16549        0.3395408       -15.16549         0.597439        125.7844
4.719                  0.5991903        124.8709         0.335778       -15.68794        0.3357779       -15.68793        0.5991905        124.8709
4.7204                 0.6007929        123.9496        0.3321136       -16.22409        0.3321136       -16.22408        0.6007932        123.9496
4.7218                 0.6022352         123.021        0.3285295       -16.77507        0.3285295       -16.77506        0.6022354         123.021
4.7232                 0.6035065        122.0859        0.3250075       -17.34163        0.3250076       -17.34162        0.6035067        122.0859
4.7246                 0.6045967         121.145        0.3215307       -17.92408        0.3215306       -17.92407        0.6045969         121.145
4.726                  0.6054972        120.1992        0.3180826       -18.52237        0.3180827       -18.52235        0.6054974        120.1992
4.7274                    0.6062        119.2496        0.3146486       -19.13606        0.3146487       -19.13605        0.6062002        119.2496
4.7288                 0.6066987        118.2972        0.3112153       -19.76439        0.3112154       -19.76438         0.606699        118.2972
4.7302                 0.6069884        117.3432        0.3077708       -20.40628        0.3077709       -20.40627        0.6069886        117.3432
4.7316                 0.6070653        116.3887        0.3043052       -21.06037        0.3043053       -21.06036        0.6070656        116.3887
4.733                  0.6069277        115.4351        0.3008104       -21.72508        0.3008105       -21.72507         0.606928        115.4351
4.7344                 0.6065751        114.4835        0.2972803       -22.39861        0.2972804        -22.3986        0.6065753        114.4836
4.7358                 0.6060089        113.5354        0.2937106       -23.07903        0.2937107       -23.07902        0.6060092        113.5355
4.7372                 0.6052321         112.592        0.2900991       -23.76428        0.2900992       -23.76427        0.6052323         112.592
4.7386                 0.6042496        111.6546        0.2864453       -24.45224        0.2864454       -24.45223        0.6042499        111.6546
4.74                    0.603068        110.7245        0.2827508       -25.14078        0.2827509       -25.14077        0.6030683        110.7245
4.7414                 0.6016954        109.8029        0.2790185       -25.82777        0.2790186       -25.82776        0.6016956        109.8029
4.7428                 0.6001415        108.8909        0.2752532       -26.51116        0.2752533       -26.51115        0.6001418        108.8909
4.7442                 0.5984176        107.9896         0.271461         -27.189         0.271461         -27.189        0.5984179        107.9896
4.7456                 0.5965363        107.1001        0.2676491       -27.85952        0.2676492       -27.85951        0.5965366        107.1001
4.747                  0.5945116        106.2233        0.2638259       -28.52112        0.2638259       -28.52112        0.5945119        106.2233
4.7484                 0.5923585        105.3599        0.2600005       -29.17248        0.2600006       -29.17248        0.5923588        105.3599
4.7498                  0.590093        104.5105        0.2561827       -29.81251        0.2561828       -29.81251        0.5900933        104.5105
4.7512                 0.5877317        103.6756        0.2523825       -30.44048        0.2523826       -30.44048         0.587732        103.6756
4.7526                 0.5852919        102.8555        0.2486101         -31.056        0.2486102       -31.05601        0.5852921        102.8555
4.754                  0.5827908        102.0504        0.2448753       -31.65907        0.2448753       -31.65907        0.5827911        102.0504
4.7554                 0.5802463        101.2602        0.2411877       -32.25006        0.2411877       -32.25007        0.5802466        101.2602
4.7568                 0.5776755        100.4846        0.2375561       -32.82978        0.2375562       -32.82979        0.5776758        100.4847
4.7582                 0.5750953        99.72328        0.2339887       -33.39945        0.2339888       -33.39945        0.5750956        99.72331
4.7596                  0.572522        98.97548        0.2304921       -33.96069        0.2304921       -33.96071        0.5725224        98.97551
4.761                  0.5699707        98.24043        0.2270719       -34.51555        0.2270719       -34.51556        0.5699709        98.24043
4.7624                 0.5674552        97.51701        0.2237321        -35.0664        0.2237322       -35.06642        0.5674555        97.51701
4.7638                 0.5649883        96.80408        0.2204753       -35.61598        0.2204753       -35.61599        0.5649886        96.80408
4.7652                 0.5625809        96.10025        0.2173021       -36.16728        0.2173021       -36.16729        0.5625812        96.10025
4.7666                 0.5602419        95.40395        0.2142115       -36.72352        0.2142116       -36.72353        0.5602421        95.40395
4.768                  0.5579786        94.71357        0.2112009       -37.28808        0.2112009       -37.28809        0.5579788        94.71359
4.7694                 0.5557958        94.02735        0.2082657       -37.86443        0.2082657       -37.86444         0.555796        94.02738
4.7708                 0.5536964        93.34347        0.2053999       -38.45601        0.2053999       -38.45602        0.5536967        93.34347
4.7722                 0.5516811        92.66004        0.2025959       -39.06625        0.2025959       -39.06626        0.5516814        92.66004
4.7736                 0.5497482        91.97521        0.1998446        -39.6984        0.1998446       -39.69841        0.5497484        91.97521
4.775                  0.5478939        91.28704        0.1971361       -40.35552        0.1971361       -40.35553        0.5478941         91.2871
4.7764                 0.5461124        90.59385        0.1944591       -41.04041        0.1944591       -41.04042        0.5461126        90.59385
4.7778                 0.5443957        89.89381         0.191802       -41.75554         0.191802       -41.75555        0.5443958        89.89384
