! TOUCHSTONE file generated by CST MICROWAVE STUDIO
! Date and time: Mon Dec  2 05:46:49 2024
! Project name: test_tuning.cst
! Parameters = {airCoaxOuterDiameter=3; chamferAngle=45; chamferWidth=24; connectorLength=10; drillingHoleDiameter=4.1; feedLength=90; flareDiameter=130; flareLength=70; gratingDistance=0; gratingGap=1.90274; outletLength=30; polarizerLength=134; probe1Diameter=1.3; probe1Distance=14; probe1Length=12; probe2Diameter=1.3; probe2Distance=0; probe2Length=12; probeLength=12; smaInnerDiameter=1.3; smaOuterDiameter=4.1; transitionCoefficient=1.33; waveguideFeedLength=30; waveguideSide=50; waveguideThickness=3; wireCount=25; wireDiameter=1.17699}
! Header version: 2024
! Port assignment regex: !\s*Touchstone port\s*([0-9]+)\s*=\s*(CST MWS port|CST DES external port|CST DES block port)\s*(.+)\s* \(\"(.*)\"\)(\s*mode\s*([0-9]+))?.*
! Touchstone port assignment:
! Touchstone port 1 = CST MWS port 1 ("Input1")
! Touchstone port 2 = CST MWS port 2 ("Input2")
# GHz S MA R 50
4.6                    0.4792398        84.12661        0.0995469       -150.0423       0.09954679       -150.0427        0.4792363        84.12643
4.6014                 0.4782229        83.56049       0.09862323       -151.3559       0.09862304       -151.3562        0.4782192        83.56034
4.6028                 0.4770318        82.98084       0.09801563       -152.6018       0.09801536       -152.6021        0.4770281        82.98073
4.6042                 0.4756514        82.38991       0.09771494       -153.8042       0.09771459       -153.8045        0.4756478        82.38983
4.6056                 0.4740688         81.7902        0.0977056       -154.9869       0.09770519       -154.9871        0.4740652        81.79016
4.607                  0.4722745        81.18455       0.09796607       -156.1715       0.09796561       -156.1717         0.472271        81.18454
4.6084                 0.4702624        80.57605       0.09846962       -157.3769       0.09846913        -157.377        0.4702589        80.57609
4.6098                 0.4680303          79.968       0.09918547       -158.6181       0.09918494       -158.6182        0.4680269        79.96805
4.6112                 0.4655802        79.36379        0.1000799       -159.9059        0.1000793       -159.9059        0.4655768        79.36389
4.6126                 0.4629184        78.76695        0.1011173       -161.2466        0.1011168       -161.2466        0.4629152        78.76708
4.614                  0.4600557        78.18096        0.1022619       -162.6425        0.1022614       -162.6424        0.4600527        78.18114
4.6154                 0.4570072        77.60924        0.1034783        -164.092        0.1034778       -164.0918        0.4570042        77.60945
4.6168                  0.453792        77.05503        0.1047326       -165.5903        0.1047322       -165.5901        0.4537892        77.05526
4.6182                 0.4504332        76.52131        0.1059935       -167.1301        0.1059931       -167.1299        0.4504307        76.52156
4.6196                 0.4469574        76.01071        0.1072326       -168.7018        0.1072323       -168.7016        0.4469551          76.011
4.621                  0.4433938        75.52544        0.1084253       -170.2946        0.1084251       -170.2943        0.4433916        75.52574
4.6224                 0.4397737        75.06714        0.1095511       -171.8963        0.1095509        -171.896        0.4397718        75.06746
4.6238                   0.43613         74.6369        0.1105936       -173.4943        0.1105935        -173.494        0.4361284        74.63724
4.6252                 0.4324959        74.23509        0.1115415       -175.0758        0.1115415       -175.0755        0.4324945        74.23546
4.6266                  0.428904        73.86144        0.1123878        -176.628        0.1123879       -176.6277        0.4289029        73.86181
4.628                  0.4253858        73.51486        0.1131308       -178.1384        0.1131309       -178.1381        0.4253849        73.51525
4.6294                 0.4219701        73.19354        0.1137731       -179.5954        0.1137733       -179.5951        0.4219694        73.19395
4.6308                 0.4186824        72.89501        0.1143224        179.0119        0.1143226        179.0121         0.418682        72.89541
4.6322                  0.415544        72.61607        0.1147905         177.693        0.1147909        177.6932         0.415544        72.61646
4.6336                 0.4125717        72.35299        0.1151936        176.4561        0.1151941        176.4563         0.412572        72.35338
4.635                  0.4097764        72.10158        0.1155513        175.3074        0.1155518        175.3075        0.4097769        72.10197
4.6364                 0.4071634        71.85737        0.1158863         174.251        0.1158868        174.2512        0.4071641        71.85775
4.6378                 0.4047321        71.61573        0.1162234         173.289         0.116224        173.2892        0.4047329        71.61608
4.6392                 0.4024758        71.37202        0.1165891        172.4206        0.1165897        172.4207        0.4024768        71.37237
4.6406                 0.4003824        71.12183        0.1170099        171.6424        0.1170105        171.6424        0.4003836        71.12217
4.642                  0.3984348        70.86114        0.1175118        170.9482        0.1175124        170.9483        0.3984362        70.86144
4.6434                 0.3966115        70.58632        0.1181191        170.3294        0.1181197        170.3294         0.396613        70.58659
4.6448                 0.3948872        70.29445        0.1188529        169.7748        0.1188534        169.7748        0.3948888        70.29471
4.6462                 0.3932344        69.98329        0.1197304        169.2714         0.119731        169.2714        0.3932361        69.98353
4.6476                 0.3916238        69.65141        0.1207642         168.805        0.1207647        168.8048        0.3916256        69.65162
4.649                  0.3900258        69.29814        0.1219611        168.3603        0.1219615        168.3602        0.3900276        69.29834
4.6504                 0.3884111        68.92367        0.1233223        167.9226        0.1233227        167.9224        0.3884129        68.92385
4.6518                 0.3867522        68.52896        0.1248429        167.4775        0.1248432        167.4774         0.386754        68.52911
4.6532                  0.385024        68.11568        0.1265125        167.0125        0.1265128        167.0123        0.3850258        68.11581
4.6546                 0.3832046        67.68618        0.1283155        166.5167        0.1283158        166.5165        0.3832064        67.68631
4.656                  0.3812762        67.24338        0.1302318        165.9817         0.130232        165.9815        0.3812779         67.2435
4.6574                 0.3792254        66.79067        0.1322378        165.4016        0.1322379        165.4014        0.3792271        66.79077
4.6588                 0.3770436        66.33178        0.1343074        164.7731        0.1343075         164.773        0.3770453        66.33184
4.6602                 0.3747277        65.87064         0.136413        164.0955        0.1364131        164.0954        0.3747294         65.8707
4.6616                 0.3722794        65.41131        0.1385267        163.3704        0.1385268        163.3703        0.3722811        65.41135
4.663                  0.3697057        64.95781        0.1406212        162.6013        0.1406212        162.6012        0.3697073        64.95785
4.6644                 0.3670183          64.514        0.1426704        161.7936        0.1426704        161.7936          0.36702        64.51401
4.6658                 0.3642336        64.08338         0.144651        160.9542         0.144651        160.9542        0.3642353        64.08338
4.6672                 0.3613717        63.66908        0.1465425         160.091        0.1465425        160.0909        0.3613733        63.66908
4.6686                 0.3584557        63.27364         0.148328        159.2126         0.148328        159.2126        0.3584573        63.27362
4.67                   0.3555114        62.89895        0.1499949        158.3284        0.1499949        158.3284         0.355513        62.89892
4.6714                  0.352566        62.54612        0.1515348        157.4477        0.1515349        157.4477        0.3525676        62.54607
4.6728                 0.3496469        62.21545        0.1529443        156.5801        0.1529444        156.5801        0.3496485        62.21538
4.6742                 0.3467813        61.90633        0.1542246        155.7347        0.1542247        155.7347        0.3467829        61.90623
4.6756                 0.3439947        61.61723        0.1553817          154.92        0.1553818          154.92        0.3439961        61.61713
4.677                  0.3413099         61.3458        0.1564262         154.144        0.1564263         154.144        0.3413113        61.34568
4.6784                 0.3387465        61.08882        0.1573732        153.4136        0.1573733        153.4136        0.3387479        61.08867
4.6798                 0.3363196        60.84235        0.1582414        152.7345        0.1582416        152.7345        0.3363208         60.8422
4.6812                 0.3340393        60.60189        0.1590531        152.1111        0.1590533         152.111        0.3340405        60.60171
4.6826                 0.3319106        60.36247        0.1598331        151.5458        0.1598333        151.5458        0.3319116        60.36227
4.684                  0.3299325        60.11889         0.160608        151.0399        0.1606082        151.0399        0.3299334        60.11867
4.6854                 0.3280987        59.86594        0.1614054        150.5923        0.1614056        150.5923        0.3280995        59.86571
4.6868                 0.3263973        59.59855        0.1622525        150.2004        0.1622528        150.2003        0.3263978        59.59831
4.6882                 0.3248113        59.31205        0.1631756        149.8595        0.1631758        149.8594        0.3248117        59.31179
4.6896                 0.3233195        59.00225        0.1641982        149.5634        0.1641984        149.5633        0.3233196        59.00201
4.691                  0.3218969        58.66575        0.1653411        149.3044        0.1653413        149.3043        0.3218968         58.6655
4.6924                 0.3205159         58.2999        0.1666204        149.0736        0.1666207        149.0735        0.3205156        58.29965
4.6938                 0.3191471        57.90297        0.1680478        148.8615         0.168048        148.8614        0.3191467        57.90272
4.6952                 0.3177605        57.47416        0.1696293        148.6583        0.1696294        148.6582        0.3177598        57.47393
4.6966                 0.3163262        57.01363        0.1713653        148.4542        0.1713654        148.4541        0.3163253        57.01343
4.698                  0.3148154         56.5225        0.1732509        148.2404         0.173251        148.2403        0.3148144        56.52231
4.6994                 0.3132019        56.00271        0.1752758        148.0087        0.1752759        148.0086        0.3132007        56.00254
4.7008                 0.3114619        55.45704        0.1774251        147.7527        0.1774251        147.7526        0.3114606        55.45691
4.7022                 0.3095754        54.88897        0.1796798        147.4673        0.1796797        147.4672         0.309574        54.88888
4.7036                 0.3075264        54.30261        0.1820181        147.1493         0.182018        147.1492         0.307525        54.30256
4.705                  0.3053037        53.70255        0.1844162        146.7973        0.1844161        146.7972        0.3053021        53.70253
4.7064                 0.3029005        53.09374        0.1868495        146.4116        0.1868494        146.4115        0.3028989        53.09377
4.7078                 0.3003151        52.48141        0.1892933        145.9941        0.1892932         145.994        0.3003136        52.48149
4.7092                 0.2975509        51.87089        0.1917245        145.5482        0.1917243        145.5482        0.2975494        51.87101
4.7106                 0.2946157        51.26751         0.194122        145.0788        0.1941218        145.0787        0.2946143        51.26764
4.712                  0.2915221        50.67646         0.196468        144.5913        0.1964678        144.5913        0.2915207        50.67665
4.7134                 0.2882865        50.10263        0.1987484        144.0924        0.1987482        144.0923        0.2882853        50.10288
4.7148                 0.2849291        49.55054        0.2009538        143.5888        0.2009536        143.5888        0.2849281        49.55084
4.7162                  0.281473        49.02418        0.2030797        143.0879        0.2030795        143.0879        0.2814722        49.02448
4.7176                 0.2779436        48.52686        0.2051269        142.5966        0.2051268        142.5966        0.2779429        48.52721
4.719                  0.2743675        48.06118        0.2071019        142.1219        0.2071018         142.122        0.2743671        48.06153
4.7204                 0.2707723        47.62879        0.2090166        141.6701        0.2090165        141.6701        0.2707721        47.62917
4.7218                 0.2671851        47.23056        0.2108883        141.2466        0.2108882        141.2466        0.2671852        47.23094
4.7232                 0.2636321        46.86626        0.2127391        140.8558         0.212739        140.8558        0.2636324        46.86664
4.7246                 0.2601375        46.53474        0.2145956        140.5007        0.2145955        140.5007         0.260138        46.53511
4.726                  0.2567226        46.23393        0.2164878        140.1831        0.2164878        140.1831        0.2567233        46.23427
4.7274                 0.2534056        45.96075        0.2184485         139.903        0.2184486         139.903        0.2534065        45.96106
4.7288                 0.2502005        45.71146        0.2205121        139.6586        0.2205122        139.6586        0.2502016        45.71174
4.7302                 0.2471172         45.4816        0.2227129        139.4465         0.222713        139.4466        0.2471184        45.48188
4.7316                 0.2441608        45.26645        0.2250843        139.2617        0.2250844        139.2617        0.2441621        45.26663
4.733                  0.2413319        45.06083        0.2276573        139.0972        0.2276574        139.0972        0.2413333        45.06095
4.7344                 0.2386268        44.85969         0.230459        138.9452        0.2304591        138.9453        0.2386282        44.85979
4.7358                 0.2360376        44.65826        0.2335115        138.7967        0.2335117        138.7967        0.2360389         44.6583
4.7372                 0.2335528        44.45211        0.2368311        138.6419        0.2368313        138.6419        0.2335542         44.4521
4.7386                 0.2311585        44.23749         0.240427        138.4711        0.2404272        138.4711        0.2311597        44.23744
4.74                   0.2288384        44.01157        0.2443015        138.2745        0.2443016        138.2745        0.2288395        44.01147
4.7414                 0.2265752        43.77228        0.2484491        138.0431        0.2484493        138.0431        0.2265762        43.77215
4.7428                 0.2243514        43.51866        0.2528574         137.769        0.2528576         137.769        0.2243523        43.51847
4.7442                 0.2221502         43.2507         0.257507        137.4452        0.2575071        137.4452        0.2221509        43.25054
4.7456                 0.2199562         42.9695        0.2623725        137.0664        0.2623727        137.0664        0.2199567        42.96928
4.747                  0.2177563        42.67696        0.2674234        136.6288        0.2674236        136.6288        0.2177567        42.67671
4.7484                 0.2155405        42.37587        0.2726251        136.1303        0.2726252        136.1303        0.2155407        42.37563
4.7498                  0.213302        42.06961        0.2779398        135.5703          0.27794        135.5703         0.213302        42.06934
4.7512                 0.2110379        41.76213        0.2833284        134.9496        0.2833286        134.9496        0.2110377        41.76189
4.7526                 0.2087495        41.45763         0.288751        134.2705        0.2887512        134.2705        0.2087491         41.4574
4.754                  0.2064419        41.16035        0.2941682        133.5362        0.2941684        133.5362        0.2064414        41.16014
4.7554                 0.2041245        40.87434        0.2995424        132.7511        0.2995426        132.7511        0.2041238        40.87417
4.7568                 0.2018099        40.60322        0.3048384        131.9203        0.3048386        131.9203        0.2018091        40.60308
4.7582                 0.1995142        40.34988        0.3100246        131.0494        0.3100247        131.0494        0.1995134        40.34978
4.7596                  0.197256        40.11628        0.3150732        130.1445        0.3150734        130.1445        0.1972551        40.11622
4.761                  0.1950554        39.90314        0.3199614        129.2118        0.3199616        129.2118        0.1950545        39.90312
4.7624                 0.1929335        39.70984        0.3246714        128.2578        0.3246716        128.2578        0.1929326        39.70986
4.7638                 0.1909113        39.53417        0.3291909        127.2889        0.3291911        127.2888        0.1909104        39.53423
4.7652                 0.1890083         39.3723        0.3335131         126.311        0.3335133        126.3109        0.1890075         39.3724
4.7666                 0.1872419        39.21874         0.337637          125.33        0.3376372          125.33        0.1872412        39.21888
4.768                  0.1856262        39.06646        0.3415671        124.3513        0.3415672        124.3513        0.1856255        39.06662
4.7694                 0.1841708        38.90701        0.3453131        123.3799        0.3453133        123.3799        0.1841702        38.90721
4.7708                 0.1828806        38.73085          0.34889        122.4198        0.3488901        122.4198          0.18288        38.73105
4.7722                 0.1817548        38.52762        0.3523167        121.4747        0.3523169        121.4747        0.1817544        38.52783
4.7736                  0.180787        38.28663        0.3556165        120.5473        0.3556167        120.5473        0.1807867        38.28685
4.775                  0.1799648        37.99723        0.3588152        119.6396        0.3588154        119.6396        0.1799646        37.99744
4.7764                 0.1792706        37.64927        0.3619411        118.7527        0.3619413        118.7527        0.1792704        37.64947
4.7778                 0.1786814        37.23344        0.3650238        117.8867        0.3650239        117.8867        0.1786813        37.23362
