! TOUCHSTONE file generated by CST MICROWAVE STUDIO
! Date and time: Mon Dec  2 05:46:47 2024
! Project name: test_tuning.cst
! Parameters = {airCoaxOuterDiameter=3; chamferAngle=45; chamferWidth=24; connectorLength=10; drillingHoleDiameter=4.1; feedLength=30; flareDiameter=130; flareLength=70; gratingDistance=0; gratingGap=1.90274; outletLength=30; polarizerLength=134; probe1Diameter=1.3; probe1Distance=14; probe1Length=12; probe2Diameter=1.3; probe2Distance=0; probe2Length=12; probeLength=12; smaInnerDiameter=1.3; smaOuterDiameter=4.1; transitionCoefficient=1.33; waveguideFeedLength=30; waveguideSide=50; waveguideThickness=3; wireCount=25; wireDiameter=1.17699}
! Header version: 2024
! Port assignment regex: !\s*Touchstone port\s*([0-9]+)\s*=\s*(CST MWS port|CST DES external port|CST DES block port)\s*(.+)\s* \(\"(.*)\"\)(\s*mode\s*([0-9]+))?.*
! Touchstone port assignment:
! Touchstone port 1 = CST MWS port 1 ("Input1")
! Touchstone port 2 = CST MWS port 2 ("Input2")
# GHz S MA R 50
4.6                    0.4126851        61.09045        0.2356313        113.1001         0.235632        113.1003        0.4126848         61.0904
4.6014                 0.4123888        60.58702        0.2361518        113.0018        0.2361525         113.002        0.4123884        60.58697
4.6028                 0.4120236        60.05689        0.2368089        112.9082        0.2368097        112.9084        0.4120232        60.05685
4.6042                 0.4115642        59.50145        0.2376051        112.8136         0.237606        112.8137        0.4115638        59.50144
4.6056                 0.4109876        58.92258        0.2385389         112.712        0.2385398        112.7121        0.4109872        58.92257
4.607                  0.4102735        58.32258        0.2396047        112.5979        0.2396058         112.598        0.4102731        58.32257
4.6084                 0.4094047         57.7041        0.2407936         112.466        0.2407946        112.4661        0.4094043         57.7041
4.6098                 0.4083677        57.07012        0.2420926        112.3119        0.2420936         112.312        0.4083672        57.07014
4.6112                 0.4071523        56.42383         0.243486        112.1316        0.2434871        112.1316        0.4071518        56.42385
4.6126                 0.4057524        55.76863        0.2449557        111.9219        0.2449567        111.9219        0.4057519        55.76866
4.614                  0.4041657        55.10796         0.246481        111.6806        0.2464821        111.6806        0.4041653        55.10799
4.6154                  0.402394        54.44533        0.2480405        111.4063        0.2480415        111.4063        0.4023936        54.44536
4.6168                 0.4004426        53.78419        0.2496113        111.0986        0.2496123        111.0985        0.4004422        53.78423
4.6182                 0.3983207        53.12791        0.2511706        110.7576        0.2511715        110.7575        0.3983202        53.12797
4.6196                 0.3960407        52.47969         0.252696        110.3846        0.2526968        110.3845        0.3960403        52.47975
4.621                  0.3936183        51.84248        0.2541656        109.9814        0.2541663        109.9813         0.393618        51.84254
4.6224                  0.391072        51.21893        0.2555593        109.5506        0.2555599        109.5505        0.3910717          51.219
4.6238                 0.3884224        50.61136        0.2568585        109.0952        0.2568591        109.0951        0.3884222        50.61142
4.6252                 0.3856924        50.02163         0.258047        108.6189        0.2580475        108.6187        0.3856922        50.02171
4.6266                 0.3829058        49.45118        0.2591111        108.1254        0.2591115        108.1253        0.3829056        49.45126
4.628                  0.3800875        48.90091        0.2600399        107.6192        0.2600402        107.6191        0.3800874        48.90099
4.6294                 0.3772627        48.37116        0.2608255        107.1047        0.2608257        107.1045        0.3772626        48.37124
4.6308                 0.3744559         47.8617         0.261463        106.5863        0.2614632        106.5861        0.3744558        47.86179
4.6322                  0.371691         47.3717         0.261951        106.0687         0.261951        106.0686         0.371691        47.37179
4.6336                 0.3689901        46.89975        0.2622909        105.5564        0.2622909        105.5563        0.3689902        46.89984
4.635                  0.3663735        46.44388        0.2624878        105.0539        0.2624877        105.0538        0.3663735        46.44397
4.6364                 0.3638583        46.00154        0.2625493        104.5652        0.2625491        104.5651        0.3638585        46.00162
4.6378                 0.3614593        45.56972        0.2624862        104.0943        0.2624859        104.0942        0.3614594         45.5698
4.6392                 0.3591871          45.145        0.2623117        103.6446        0.2623114        103.6445        0.3591873        45.14508
4.6406                 0.3570491        44.72362        0.2620414        103.2191        0.2620411         103.219        0.3570493         44.7237
4.642                  0.3550486         44.3016         0.261693        102.8204        0.2616926        102.8203        0.3550488        44.30168
4.6434                 0.3531848        43.87485        0.2612856        102.4503        0.2612852        102.4503        0.3531851        43.87492
4.6448                 0.3514533        43.43923        0.2608394        102.1102        0.2608391        102.1102        0.3514535        43.43929
4.6462                 0.3498454        42.99072        0.2603754        101.8006         0.260375        101.8006        0.3498458         42.9908
4.6476                 0.3483495        42.52555        0.2599143        101.5214        0.2599139        101.5214        0.3483498        42.52561
4.649                  0.3469502         42.0402        0.2594767        101.2716        0.2594763        101.2716        0.3469505        42.04027
4.6504                 0.3456298        41.53158        0.2590821        101.0497        0.2590816        101.0497        0.3456301        41.53163
4.6518                  0.344368        40.99705        0.2587481        100.8532        0.2587477        100.8533        0.3443684         40.9971
4.6532                  0.343143        40.43451        0.2584908        100.6794        0.2584904        100.6794        0.3431434        40.43456
4.6546                 0.3419317        39.84239        0.2583232        100.5245        0.2583229        100.5246        0.3419321        39.84243
4.656                  0.3407104        39.21971        0.2582558        100.3847        0.2582555        100.3847        0.3407108        39.21975
4.6574                 0.3394553        38.56609        0.2582955        100.2555        0.2582953        100.2556        0.3394557        38.56611
4.6588                 0.3381431        37.88166        0.2584459        100.1326        0.2584457        100.1327        0.3381435        37.88169
4.6602                 0.3367515        37.16719        0.2587069        100.0112        0.2587068        100.0113         0.336752         37.1672
4.6616                 0.3352596        36.42387        0.2590749        99.88702        0.2590748         99.8871          0.33526        36.42388
4.663                  0.3336482        35.65342        0.2595429        99.75577        0.2595428        99.75586        0.3336485        35.65343
4.6644                 0.3319003        34.85798        0.2601004        99.61367        0.2601004        99.61375        0.3319007        34.85799
4.6658                 0.3300016        34.04006        0.2607343        99.45743        0.2607343        99.45752        0.3300019        34.04005
4.6672                 0.3279402        33.20249        0.2614289        99.28441         0.261429        99.28449        0.3279405        33.20248
4.6686                 0.3257071        32.34838        0.2621666        99.09265        0.2621667        99.09273        0.3257074        32.34838
4.67                   0.3232964        31.48107        0.2629281        98.88094        0.2629283        98.88101        0.3232967        31.48106
4.6714                 0.3207051        30.60405        0.2636937        98.64886        0.2636938        98.64894        0.3207053        30.60403
4.6728                 0.3179331        29.72093         0.264443         98.3968        0.2644432        98.39688        0.3179333        29.72091
4.6742                 0.3149835        28.83536        0.2651563        98.12587        0.2651564        98.12593        0.3149837        28.83534
4.6756                 0.3118619        27.95103        0.2658145        97.83792        0.2658147        97.83798        0.3118621          27.951
4.677                  0.3085771        27.07155        0.2664002         97.5355        0.2664004        97.53554        0.3085772        27.07152
4.6784                 0.3051398        26.20045        0.2668978        97.22174         0.266898        97.22178          0.30514        26.20042
4.6798                 0.3015636         25.3411        0.2672942        96.90032        0.2672944        96.90036        0.3015637        25.34107
4.6812                 0.2978635        24.49669        0.2675793        96.57538        0.2675795         96.5754        0.2978636        24.49666
4.6826                 0.2940566        23.67012        0.2677458        96.25142         0.267746        96.25145        0.2940566        23.67008
4.684                  0.2901612        22.86399        0.2677903         95.9332        0.2677904        95.93323        0.2901612        22.86396
4.6854                 0.2861965        22.08057        0.2677126        95.62571        0.2677128        95.62573        0.2861965        22.08054
4.6868                 0.2821826        21.32171        0.2675169        95.33392         0.267517        95.33395        0.2821826        21.32167
4.6882                 0.2781396         20.5888        0.2672107        95.06286        0.2672109        95.06289        0.2781396        20.58877
4.6896                 0.2740876        19.88277        0.2668059        94.81733        0.2668061        94.81736        0.2740875        19.88275
4.691                  0.2700458        19.20403         0.266318        94.60192        0.2663181        94.60192        0.2700457        19.20401
4.6924                 0.2660329        18.55245        0.2657661        94.42073        0.2657662        94.42076        0.2660327        18.55242
4.6938                 0.2620659        17.92735        0.2651728        94.27744        0.2651728        94.27745        0.2620658        17.92733
4.6952                 0.2581604        17.32753        0.2645636        94.17496        0.2645637        94.17499        0.2581602        17.32752
4.6966                 0.2543297        16.75128        0.2639669        94.11546        0.2639669         94.1155        0.2543294        16.75127
4.698                   0.250585         16.1964        0.2634127        94.10021        0.2634127        94.10025        0.2505848         16.1964
4.6994                 0.2469351        15.66027        0.2629328        94.12936        0.2629328         94.1294        0.2469349        15.66027
4.7008                 0.2433862        15.13993        0.2625593        94.20198        0.2625594        94.20202         0.243386        15.13994
4.7022                 0.2399417        14.63214        0.2623247        94.31594        0.2623248          94.316        0.2399415        14.63216
4.7036                 0.2366024        14.13351          0.26226        94.46787          0.26226        94.46793        0.2366022        14.13353
4.705                  0.2333665        13.64059        0.2623944         94.6532        0.2623945        94.65326        0.2333663        13.64062
4.7064                 0.2302298        13.14998        0.2627548        94.86623        0.2627548         94.8663        0.2302296        13.15001
4.7078                  0.227186        12.65844        0.2633639        95.10024         0.263364         95.1003        0.2271858        12.65848
4.7092                 0.2242267        12.16302        0.2642405        95.34766        0.2642407        95.34773        0.2242265        12.16306
4.7106                 0.2213421        11.66111        0.2653984        95.60036        0.2653986        95.60042         0.221342         11.6612
4.712                  0.2185212        11.15066        0.2668457        95.84983        0.2668459        95.84988        0.2185211        11.15073
4.7134                 0.2157522        10.63005         0.268585        96.08745        0.2685853        96.08751        0.2157521        10.63011
4.7148                 0.2130231         10.0983        0.2706131        96.30489        0.2706133        96.30494         0.213023        10.09833
4.7162                 0.2103218        9.555012        0.2729208        96.49421        0.2729211        96.49429        0.2103217        9.555042
4.7176                  0.207637        9.000495        0.2754938        96.64828        0.2754941        96.64834         0.207637        9.000587
4.719                  0.2049582        8.435736        0.2783125        96.76081         0.278313        96.76086        0.2049581         8.43579
4.7204                 0.2022761         7.86225        0.2813534        96.82665        0.2813538        96.82668        0.2022761        7.862304
4.7218                 0.1995833        7.282221        0.2845888        96.84172        0.2845892        96.84175        0.1995833        7.282275
4.7232                  0.196874        6.698364        0.2879885        96.80317         0.287989        96.80322         0.196874        6.698415
4.7246                 0.1941448        6.113878        0.2915202        96.70935        0.2915207        96.70938        0.1941448        6.113924
4.726                  0.1913945        5.532369        0.2951503        96.55974        0.2951507        96.55979        0.1913945        5.532412
4.7274                 0.1886242        4.957764        0.2988446        96.35488        0.2988451         96.3549        0.1886242        4.957803
4.7288                 0.1858377        4.394205        0.3025695        96.09625          0.30257        96.09625        0.1858378        4.394239
4.7302                 0.1830413        3.845934        0.3062921         95.7861        0.3062927        95.78613        0.1830414        3.845963
4.7316                 0.1802436        3.317162        0.3099815        95.42758         0.309982        95.42758        0.1802436        3.317184
4.733                  0.1774555        2.811933        0.3136085        95.02421        0.3136091        95.02418        0.1774555         2.81195
4.7344                   0.17469        2.333968        0.3171468        94.58009        0.3171473        94.58009          0.17469        2.333979
4.7358                 0.1719621        1.886499        0.3205729         94.0997        0.3205735        94.09967        0.1719622        1.886504
4.7372                 0.1692883        1.472102        0.3238669         93.5876        0.3238674        93.58757        0.1692883          1.4721
4.7386                 0.1666861        1.092512        0.3270119        93.04872        0.3270124        93.04869        0.1666862        1.092504
4.74                    0.164174       0.7484633        0.3299952        92.48787        0.3299957        92.48782         0.164174        0.748449
4.7414                 0.1617705       0.4395193        0.3328077        91.90987        0.3328081        91.90984        0.1617705       0.4394993
4.7428                 0.1594939       0.1639387        0.3354439        91.31951        0.3354444        91.31946        0.1594939       0.1639134
4.7442                 0.1573616     -0.08142759        0.3379026        90.72134         0.337903        90.72128        0.1573616     -0.08145758
4.7456                 0.1553897      -0.3011897        0.3401858        90.11967        0.3401862        90.11962        0.1553897      -0.3012238
4.747                  0.1535921       -0.501416        0.3422993        89.51858        0.3422996         89.5185         0.153592      -0.5014535
4.7484                 0.1519802      -0.6895577        0.3442521        88.92175        0.3442524        88.92169        0.1519801       -0.689598
4.7498                 0.1505624      -0.8742991        0.3460564        88.33253        0.3460566        88.33247        0.1505623      -0.8743412
4.7512                 0.1493438       -1.065337        0.3477269        87.75374        0.3477272        87.75372        0.1493437        -1.06538
4.7526                 0.1483256       -1.273099        0.3492812        87.18786        0.3492814        87.18778        0.1483255       -1.273142
4.754                  0.1475054       -1.508406        0.3507384        86.63667        0.3507386        86.63661        0.1475053       -1.508449
4.7554                 0.1468769       -1.782119        0.3521193        86.10159        0.3521194        86.10151        0.1468768       -1.782162
4.7568                 0.1464301       -2.104772        0.3534456        85.58335        0.3534457        85.58329          0.14643       -2.104812
4.7582                 0.1461518       -2.486227        0.3547396        85.08217        0.3547397        85.08212        0.1461516       -2.486266
4.7596                 0.1460255       -2.935388        0.3560233        84.59768        0.3560235        84.59762        0.1460253       -2.935425
4.761                  0.1460325       -3.459952        0.3573185        84.12893        0.3573186        84.12891        0.1460323       -3.459985
4.7624                 0.1461521       -4.066245        0.3586454        83.67452        0.3586455        83.67447        0.1461519       -4.066276
4.7638                 0.1463621       -4.759123        0.3600227        83.23245        0.3600228        83.23242        0.1463619       -4.759152
4.7652                 0.1466397       -5.541947        0.3614669        82.80039        0.3614668        82.80036        0.1466394       -5.541973
4.7666                 0.1469617       -6.416606        0.3629915        82.37557        0.3629915        82.37551        0.1469614        -6.41663
4.768                  0.1473053       -7.383597        0.3646075        81.95501        0.3646075        81.95498        0.1473051       -7.383619
4.7694                 0.1476485       -8.442137        0.3663223        81.53552        0.3663222         81.5355        0.1476483       -8.442156
4.7708                 0.1479705       -9.590287        0.3681398        81.11378        0.3681398        81.11375        0.1479703       -9.590305
4.7722                 0.1482519       -10.82511        0.3700604        80.68662        0.3700603        80.68659        0.1482517       -10.82512
4.7736                 0.1484752       -12.14279        0.3720808        80.25083        0.3720808         80.2508        0.1484749       -12.14281
4.775                   0.148625        -13.5388        0.3741944         79.8035        0.3741944        79.80347        0.1486247       -13.53882
4.7764                 0.1486879       -15.00801        0.3763912        79.34201        0.3763912        79.34201        0.1486877       -15.00803
4.7778                 0.1486533       -16.54481        0.3786583        78.86407        0.3786583        78.86404        0.1486531       -16.54482
