! TOUCHSTONE file generated by CST MICROWAVE STUDIO
! Date and time: Mon Dec  2 05:46:48 2024
! Project name: test_tuning.cst
! Parameters = {airCoaxOuterDiameter=3; chamferAngle=45; chamferWidth=24; connectorLength=10; drillingHoleDiameter=4.1; feedLength=70; flareDiameter=130; flareLength=70; gratingDistance=0; gratingGap=1.90274; outletLength=30; polarizerLength=134; probe1Diameter=1.3; probe1Distance=14; probe1Length=12; probe2Diameter=1.3; probe2Distance=0; probe2Length=12; probeLength=12; smaInnerDiameter=1.3; smaOuterDiameter=4.1; transitionCoefficient=1.33; waveguideFeedLength=30; waveguideSide=50; waveguideThickness=3; wireCount=25; wireDiameter=1.17699}
! Header version: 2024
! Port assignment regex: !\s*Touchstone port\s*([0-9]+)\s*=\s*(CST MWS port|CST DES external port|CST DES block port)\s*(.+)\s* \(\"(.*)\"\)(\s*mode\s*([0-9]+))?.*
! Touchstone port assignment:
! Touchstone port 1 = CST MWS port 1 ("Input1")
! Touchstone port 2 = CST MWS port 2 ("Input2")
# GHz S MA R 50
4.6                    0.5384165         139.509        0.5468626        11.74446        0.5468626        11.74446        0.5384169         139.509
4.6014                 0.5399005        138.6706        0.5402792        10.40645        0.5402792        10.40645         0.539901        138.6707
4.6028                 0.5413039        137.8556         0.533427        9.065462         0.533427         9.06546        0.5413044        137.8557
4.6042                  0.542646        137.0633         0.526292        7.724271         0.526292        7.724269        0.5426465        137.0634
4.6056                 0.5439465        136.2931        0.5188648        6.386181        0.5188649        6.386178        0.5439471        136.2931
4.607                  0.5452255         135.544        0.5111416        5.054987        0.5111416        5.054982        0.5452259         135.544
4.6084                 0.5465026        134.8151        0.5031237        3.734919        0.5031238        3.734913        0.5465031        134.8151
4.6098                 0.5477972        134.1049        0.4948189        2.430589        0.4948191        2.430582        0.5477978        134.1049
4.6112                 0.5491289        133.4122        0.4862411        1.146914        0.4862412        1.146906        0.5491294        133.4122
4.6126                 0.5505155        132.7352        0.4774104      -0.1109521        0.4774105      -0.1109622        0.5505159        132.7352
4.614                  0.5519742        132.0719        0.4683526       -1.337711        0.4683527       -1.337723        0.5519747        132.0719
4.6154                 0.5535204        131.4202        0.4590995        -2.52801        0.4590995       -2.528024        0.5535208        131.4202
4.6168                 0.5551674        130.7777        0.4496878       -3.676549        0.4496879       -3.676565        0.5551678        130.7777
4.6182                  0.556926        130.1418        0.4401592       -4.778195        0.4401593       -4.778212        0.5569264        130.1418
4.6196                 0.5588045        129.5099        0.4305588       -5.828103        0.4305589       -5.828122        0.5588048        129.5099
4.621                  0.5608075         128.879        0.4209349       -6.821851        0.4209351        -6.82187        0.5608078         128.879
4.6224                 0.5629362        128.2464        0.4113378       -7.755573        0.4113379       -7.755593        0.5629364        128.2464
4.6238                 0.5651878        127.6089        0.4018184       -8.626107        0.4018185       -8.626129         0.565188        127.6089
4.6252                 0.5675559         126.964        0.3924277       -9.431124        0.3924277       -9.431149        0.5675561         126.964
4.6266                 0.5700296        126.3087        0.3832149       -10.16926         0.383215       -10.16929        0.5700298        126.3087
4.628                  0.5725945        125.6406        0.3742268       -10.84024        0.3742268       -10.84026        0.5725947        125.6406
4.6294                 0.5752317        124.9573        0.3655062       -11.44492        0.3655062       -11.44495        0.5752319        124.9573
4.6308                 0.5779192        124.2568        0.3570908        -11.9854        0.3570908       -11.98542        0.5779195        124.2568
4.6322                 0.5806318        123.5375        0.3490127       -12.46495        0.3490127       -12.46498        0.5806321        123.5375
4.6336                 0.5833414        122.7981        0.3412967       -12.88802        0.3412967       -12.88805        0.5833417        122.7981
4.635                  0.5860178        122.0377        0.3339606       -13.26011        0.3339606       -13.26013        0.5860181        122.0377
4.6364                 0.5886295         121.256        0.3270142       -13.58756        0.3270142       -13.58759        0.5886298         121.256
4.6378                 0.5911439        120.4529        0.3204597       -13.87742        0.3204596       -13.87745        0.5911442        120.4529
4.6392                 0.5935286         119.629        0.3142914       -14.13709        0.3142913       -14.13712         0.593529         119.629
4.6406                 0.5957517        118.7852        0.3084968       -14.37413        0.3084967       -14.37415        0.5957521        118.7852
4.642                   0.597783        117.9227         0.303057       -14.59587        0.3030569       -14.59589        0.5977834        117.9227
4.6434                 0.5995942        117.0433         0.297948       -14.80924        0.2979479       -14.80925        0.5995946        117.0433
4.6448                 0.6011599         116.149        0.2931417       -15.02042        0.2931416       -15.02043        0.6011603         116.149
4.6462                 0.6024581        115.2421        0.2886073       -15.23471        0.2886072       -15.23472        0.6024583        115.2421
4.6476                 0.6034704        114.3252        0.2843127       -15.45636        0.2843127       -15.45637        0.6034708        114.3252
4.649                  0.6041834        113.4009        0.2802256       -15.68852        0.2802256       -15.68852        0.6041837        113.4009
4.6504                 0.6045878        112.4723        0.2763151       -15.93316         0.276315       -15.93316        0.6045881        112.4723
4.6518                 0.6046796        111.5422        0.2725519       -16.19118        0.2725519       -16.19118        0.6046798        111.5422
4.6532                 0.6044592        110.6136        0.2689105       -16.46249        0.2689104       -16.46249        0.6044593        110.6135
4.6546                 0.6039326        109.6893        0.2653683       -16.74613        0.2653683       -16.74612        0.6039327        109.6893
4.656                  0.6031101        108.7722        0.2619075       -17.04043        0.2619074       -17.04042        0.6031102        108.7722
4.6574                 0.6020069        107.8649         0.258514       -17.34325        0.2585141       -17.34324        0.6020069        107.8649
4.6588                  0.600642        106.9697        0.2551786       -17.65213        0.2551786       -17.65211        0.6006418        106.9697
4.6602                  0.599038        106.0888        0.2518956       -17.96449        0.2518956       -17.96448        0.5990379        106.0888
4.6616                 0.5972205        105.2238        0.2486633       -18.27787        0.2486634       -18.27786        0.5972203        105.2238
4.663                  0.5952177        104.3761        0.2454831       -18.59005        0.2454832       -18.59004        0.5952174        104.3761
4.6644                 0.5930587        103.5468         0.242359       -18.89925        0.2423591       -18.89924        0.5930585        103.5468
4.6658                 0.5907738        102.7362        0.2392965       -19.20421        0.2392967        -19.2042        0.5907735        102.7362
4.6672                 0.5883928        101.9444        0.2363025       -19.50432        0.2363027       -19.50432        0.5883925        101.9444
4.6686                 0.5859445        101.1711        0.2333839       -19.79966        0.2333841       -19.79967        0.5859442        101.1711
4.67                   0.5834559        100.4154        0.2305472       -20.09099        0.2305475       -20.09101        0.5834556        100.4155
4.6714                 0.5809512        99.67614        0.2277978       -20.37974         0.227798       -20.37976        0.5809508        99.67617
4.6728                 0.5784514        98.95165        0.2251391       -20.66794        0.2251393       -20.66797        0.5784511        98.95168
4.6742                 0.5759737        98.24007        0.2225727       -20.95808        0.2225729       -20.95812        0.5759733         98.2401
4.6756                 0.5735309        97.53925        0.2200975       -21.25298        0.2200977       -21.25303        0.5735306        97.53931
4.677                  0.5711312        96.84696        0.2177098       -21.55565        0.2177101       -21.55571         0.571131          96.847
4.6784                 0.5687785        96.16081        0.2154036       -21.86907        0.2154039       -21.86914        0.5687783        96.16087
4.6798                 0.5664716        95.47851        0.2131703       -22.19604        0.2131705       -22.19612        0.5664715        95.47857
4.6812                 0.5642056        94.79785        0.2109993       -22.53899        0.2109995       -22.53908        0.5642055        94.79791
4.6826                 0.5619713        94.11677        0.2088785       -22.89983        0.2088787       -22.89994        0.5619713        94.11683
4.684                  0.5597564        93.43355        0.2067947       -23.27989        0.2067948          -23.28        0.5597564        93.43361
4.6854                 0.5575457        92.74673        0.2047343       -23.67975        0.2047344       -23.67984        0.5575458        92.74678
4.6868                 0.5553225        92.05524         0.202684       -24.09918         0.202684       -24.09928        0.5553226        92.05529
4.6882                 0.5530684         91.3584         0.200631       -24.53722         0.200631       -24.53738        0.5530687        91.35845
4.6896                 0.5507654        90.65594        0.1985642       -24.99221        0.1985642       -24.99237        0.5507656        90.65599
4.691                  0.5483954        89.94801        0.1964741       -25.46174        0.1964741       -25.46187        0.5483956        89.94805
4.6924                 0.5459418        89.23517        0.1943537       -25.94276        0.1943536       -25.94293        0.5459421        89.23521
4.6938                 0.5433901         88.5183        0.1921985       -26.43188        0.1921983       -26.43202        0.5433904        88.51834
4.6952                 0.5407284        87.79862        0.1900067       -26.92521        0.1900065       -26.92535        0.5407287        87.79866
4.6966                 0.5379476        87.07764        0.1877796       -27.41882        0.1877794       -27.41893        0.5379478        87.07767
4.698                   0.535042        86.35703        0.1855212       -27.90863        0.1855209       -27.90877        0.5350423        86.35706
4.6994                 0.5320102         85.6386        0.1832382       -28.39088        0.1832379       -28.39099        0.5320104        85.63862
4.7008                 0.5288536        84.92423        0.1809396       -28.86205        0.1809393       -28.86219        0.5288537        84.92426
4.7022                 0.5255779        84.21578        0.1786366        -29.3192        0.1786363       -29.31928         0.525578        84.21581
4.7036                  0.522192        83.51499        0.1763419          -29.76        0.1763416       -29.76012        0.5221921        83.51502
4.705                  0.5187079        82.82347        0.1740691       -30.18301        0.1740687       -30.18309         0.518708        82.82348
4.7064                 0.5151405        82.14253         0.171832       -30.58771        0.1718316       -30.58777        0.5151404        82.14256
4.7078                 0.5115063        81.47328        0.1696445       -30.97461        0.1696441       -30.97467        0.5115062        81.47331
4.7092                 0.5078235        80.81638        0.1675193       -31.34522        0.1675189       -31.34531        0.5078234         80.8164
4.7106                 0.5041111        80.17215        0.1654676       -31.70221        0.1654673       -31.70224         0.504111        80.17218
4.712                  0.5003879        79.54049        0.1634987       -32.04908        0.1634984       -32.04911        0.5003877        79.54052
4.7134                 0.4966717        78.92093        0.1616192       -32.39027        0.1616188        -32.3903        0.4966716        78.92096
4.7148                 0.4929792         78.3125        0.1598327       -32.73087        0.1598324       -32.73088         0.492979        78.31253
4.7162                 0.4893246        77.71393        0.1581401       -33.07639        0.1581398       -33.07639        0.4893244        77.71395
4.7176                 0.4857193        77.12349        0.1565387       -33.43256        0.1565384       -33.43255        0.4857191        77.12352
4.719                  0.4821715        76.53929        0.1550232       -33.80503        0.1550229       -33.80502        0.4821713        76.53931
4.7204                 0.4786858        75.95918        0.1535853       -34.19913        0.1535851       -34.19911        0.4786856         75.9592
4.7218                  0.475263        75.38088        0.1522145       -34.61959        0.1522143       -34.61958        0.4752628        75.38097
4.7232                 0.4719001         74.8022        0.1508983       -35.07038         0.150898       -35.07037        0.4718999        74.80226
4.7246                 0.4685903        74.22076         0.149623       -35.55452        0.1496228        -35.5545        0.4685901        74.22084
4.726                  0.4653235        73.63459        0.1483745       -36.07394        0.1483742       -36.07392        0.4653234         73.6347
4.7274                 0.4620867        73.04185        0.1471383       -36.62947        0.1471381       -36.62946        0.4620866        73.04194
4.7288                 0.4588644          72.441        0.1459009       -37.22085        0.1459007       -37.22084        0.4588643        72.44106
4.7302                 0.4556394        71.83093        0.1446498       -37.84671        0.1446497        -37.8467        0.4556393        71.83098
4.7316                 0.4523934        71.21089        0.1433745       -38.50473        0.1433744       -38.50473        0.4523933        71.21095
4.733                  0.4491076        70.58064        0.1420665       -39.19177        0.1420663       -39.19176        0.4491076         70.5807
4.7344                 0.4457641        69.94044        0.1407196       -39.90396        0.1407195       -39.90395        0.4457642         69.9405
4.7358                 0.4423459        69.29091        0.1393307       -40.63699        0.1393305       -40.63698        0.4423459          69.291
4.7372                 0.4388376        68.63318        0.1378992       -41.38622         0.137899       -41.38621        0.4388376        68.63323
4.7386                 0.4352266        67.96874        0.1364274       -42.14696        0.1364272       -42.14696        0.4352267         67.9688
4.74                   0.4315031        67.29945        0.1349202       -42.91465        0.1349201       -42.91465        0.4315031         67.2995
4.7414                 0.4276603        66.62738        0.1333852       -43.68511         0.133385       -43.68511        0.4276604        66.62743
4.7428                 0.4236953        65.95487        0.1318318       -44.45475        0.1318316       -44.45474        0.4236954        65.95492
4.7442                 0.4196085        65.28429        0.1302713       -45.22076        0.1302711       -45.22075        0.4196086        65.28438
4.7456                  0.415404         64.6182        0.1287165       -45.98135        0.1287162       -45.98134        0.4154041        64.61828
4.747                  0.4110894        63.95895        0.1271805       -46.73587        0.1271803       -46.73586        0.4110894        63.95903
4.7484                  0.406675        63.30873        0.1256768       -47.48497        0.1256766       -47.48495        0.4066751        63.30882
4.7498                 0.4021743         62.6696        0.1242185       -48.23066        0.1242183       -48.23063        0.4021743        62.66965
4.7512                 0.3976024        62.04321        0.1228176       -48.97632        0.1228174       -48.97629        0.3976024        62.04327
4.7526                 0.3929762        61.43084        0.1214846       -49.72673        0.1214844       -49.72669        0.3929763         61.4309
4.754                  0.3883133         60.8333        0.1202279       -50.48783        0.1202277       -50.48779        0.3883133        60.83336
4.7554                 0.3836314        60.25095        0.1190535       -51.26665        0.1190534       -51.26661        0.3836314        60.25103
4.7568                 0.3789473        59.68363        0.1179649       -52.07102        0.1179647       -52.07097        0.3789473        59.68369
4.7582                 0.3742765        59.13057        0.1169624       -52.90924        0.1169622        -52.9092        0.3742765        59.13062
4.7596                 0.3696322        58.59057        0.1160438       -53.78984        0.1160437        -53.7898        0.3696322        58.59063
4.761                  0.3650251        58.06197        0.1152043       -54.72119        0.1152042       -54.72114        0.3650251        58.06202
4.7624                 0.3604622        57.54267        0.1144365       -55.71118        0.1144363       -55.71114        0.3604623        57.54276
4.7638                 0.3559474        57.03033        0.1137311         -56.767        0.1137309       -56.76696        0.3559474        57.03041
4.7652                 0.3514802        56.52239        0.1130773       -57.89485        0.1130771       -57.89482        0.3514802        56.52244
4.7666                 0.3470565        56.01619        0.1124633       -59.09983        0.1124632       -59.09979        0.3470565        56.01623
4.768                  0.3426683        55.50925         0.111877        -60.3858        0.1118769       -60.38577        0.3426683         55.5093
4.7694                 0.3383042         54.9992        0.1113062       -61.75537        0.1113061       -61.75534        0.3383043        54.99925
4.7708                 0.3339498        54.48407        0.1107395       -63.20993        0.1107393       -63.20991        0.3339499        54.48412
4.7722                 0.3295882        53.96236        0.1101664       -64.74975        0.1101663       -64.74972        0.3295881        53.96242
4.7736                 0.3252005        53.43316        0.1095781       -66.37407         0.109578       -66.37404        0.3252005        53.43322
4.775                  0.3207674        52.89625        0.1089675       -68.08122        0.1089674        -68.0812        0.3207674         52.8963
4.7764                 0.3162691        52.35216        0.1083296       -69.86887        0.1083294       -69.86884        0.3162691         52.3522
4.7778                 0.3116867        51.80224        0.1076615       -71.73412        0.1076613       -71.73409        0.3116867        51.80228
