! TOUCHSTONE file generated by CST MICROWAVE STUDIO
! Date and time: Mon Dec  2 05:46:50 2024
! Project name: test_tuning.cst
! Parameters = {airCoaxOuterDiameter=3; chamferAngle=45; chamferWidth=24; connectorLength=10; drillingHoleDiameter=4.1; feedLength=100; flareDiameter=130; flareLength=70; gratingDistance=0; gratingGap=1.90274; outletLength=30; polarizerLength=134; probe1Diameter=1.3; probe1Distance=14; probe1Length=12; probe2Diameter=1.3; probe2Distance=0; probe2Length=12; probeLength=12; smaInnerDiameter=1.3; smaOuterDiameter=4.1; transitionCoefficient=1.33; waveguideFeedLength=30; waveguideSide=50; waveguideThickness=3; wireCount=25; wireDiameter=1.17699}
! Header version: 2024
! Port assignment regex: !\s*Touchstone port\s*([0-9]+)\s*=\s*(CST MWS port|CST DES external port|CST DES block port)\s*(.+)\s* \(\"(.*)\"\)(\s*mode\s*([0-9]+))?.*
! Touchstone port assignment:
! Touchstone port 1 = CST MWS port 1 ("Input1")
! Touchstone port 2 = CST MWS port 2 ("Input2")
# GHz S MA R 50
4.6                    0.3853946        76.82133        0.2033199        139.2934          0.20332        139.2935        0.3853949        76.82179
4.6014                 0.3836539        76.57248        0.2039688        138.6283        0.2039689        138.6284        0.3836543        76.57295
4.6028                  0.382022        76.33343        0.2045993        138.0011        0.2045995        138.0013        0.3820225        76.33389
4.6042                 0.3805094        76.10075         0.205226        137.4119        0.2052261         137.412        0.3805099        76.10119
4.6056                  0.379122        75.87077         0.205864        136.8599        0.2058643          136.86        0.3791225        75.87124
4.607                  0.3778612        75.63977        0.2065291        136.3438        0.2065294        136.3439        0.3778617        75.64022
4.6084                  0.376724        75.40399        0.2072364        135.8616        0.2072367        135.8617        0.3767247        75.40446
4.6098                 0.3757034        75.15986        0.2080006        135.4105        0.2080008        135.4105        0.3757042        75.16032
4.6112                 0.3747881        74.90408        0.2088349         134.987        0.2088352        134.9871         0.374789        74.90453
4.6126                  0.373964         74.6337         0.209751        134.5874        0.2097513        134.5874        0.3739649        74.63415
4.614                  0.3732135        74.34627        0.2107585        134.2069        0.2107588        134.2069        0.3732146        74.34673
4.6154                 0.3725177        74.03987        0.2118645         133.841        0.2118648         133.841        0.3725189        74.04032
4.6168                 0.3718559        73.71313        0.2130732        133.4845        0.2130734        133.4844        0.3718571        73.71357
4.6182                 0.3712068         73.3653         0.214386        133.1324        0.2143862        133.1323        0.3712081        73.36575
4.6196                 0.3705492         72.9962        0.2158011        132.7798        0.2158013        132.7797        0.3705507        72.99664
4.621                  0.3698629        72.60625        0.2173139         132.422        0.2173139        132.4219        0.3698643         72.6067
4.6224                 0.3691287         72.1964        0.2189165        132.0548        0.2189165        132.0548        0.3691302        72.19684
4.6238                 0.3683295        71.76803        0.2205989        131.6746        0.2205988        131.6745        0.3683312        71.76847
4.6252                 0.3674508          71.323        0.2223483        131.2783        0.2223482        131.2782        0.3674526        71.32341
4.6266                 0.3664808        70.86346        0.2241504        130.8637        0.2241502        130.8636        0.3664827        70.86387
4.628                  0.3654107        70.39183        0.2259891        130.4292        0.2259888        130.4292        0.3654127         70.3922
4.6294                 0.3642351        69.91065        0.2278477        129.9743        0.2278474        129.9743        0.3642371        69.91103
4.6308                 0.3629517        69.42266         0.229709         129.499        0.2297086         129.499        0.3629538        69.42301
4.6322                 0.3615617        68.93048        0.2315559        129.0042        0.2315555        129.0042        0.3615638        68.93083
4.6336                 0.3600693        68.43669        0.2333721        128.4914        0.2333716        128.4914        0.3600715        68.43703
4.635                  0.3584818        67.94374        0.2351424        127.9629        0.2351418        127.9628        0.3584841        67.94403
4.6364                  0.356809        67.45373        0.2368532        127.4213        0.2368525        127.4212        0.3568112        67.45401
4.6378                 0.3550628        66.96853        0.2384929        126.8697        0.2384922        126.8697        0.3550651         66.9688
4.6392                 0.3532572        66.48961        0.2400525        126.3117        0.2400517        126.3117        0.3532594        66.48987
4.6406                 0.3514071        66.01802        0.2415252        125.7509        0.2415245        125.7509        0.3514095        66.01825
4.642                  0.3495287        65.55429        0.2429074        125.1912        0.2429067        125.1912        0.3495309        65.55452
4.6434                 0.3476377        65.09856        0.2441983        124.6364        0.2441975        124.6364        0.3476399        65.09874
4.6448                   0.34575        64.65032        0.2453999        124.0901        0.2453991        124.0902        0.3457521        64.65049
4.6462                 0.3438802        64.20869        0.2465173         123.556        0.2465165        123.5561        0.3438823        64.20885
4.6476                 0.3420415        63.77225        0.2475583        123.0373        0.2475575        123.0373        0.3420436         63.7724
4.649                  0.3402455        63.33915        0.2485332        122.5366        0.2485324        122.5367        0.3402475        63.33927
4.6504                  0.338501        62.90717        0.2494545        122.0563        0.2494538        122.0565        0.3385029        62.90728
4.6518                 0.3368144        62.47375        0.2503368        121.5982        0.2503362        121.5984        0.3368163        62.47386
4.6532                 0.3351893        62.03613        0.2511959        121.1634        0.2511953        121.1635        0.3351911        62.03624
4.6546                 0.3336261         61.5914        0.2520485        120.7522         0.252048        120.7524        0.3336279        61.59149
4.656                  0.3321224        61.13658        0.2529118        120.3644        0.2529113        120.3646        0.3321241        61.13667
4.6574                 0.3306725        60.66878        0.2538027        119.9991        0.2538023        119.9992        0.3306741        60.66887
4.6588                 0.3292683        60.18523        0.2547374        119.6544         0.254737        119.6546        0.3292699        60.18531
4.6602                  0.327899        59.68338        0.2557306        119.3283        0.2557303        119.3285        0.3279005        59.68346
4.6616                 0.3265517          59.161        0.2567951        119.0177        0.2567949        119.0179        0.3265532        59.16109
4.663                  0.3252117        58.61623        0.2579415        118.7194        0.2579413        118.7196        0.3252131        58.61631
4.6644                  0.323863        58.04762        0.2591774        118.4297        0.2591773        118.4299        0.3238644        58.04771
4.6658                 0.3224889        57.45416        0.2605074        118.1449        0.2605074        118.1451        0.3224903        57.45426
4.6672                 0.3210722        56.83534        0.2619327        117.8609        0.2619327        117.8611        0.3210736        56.83543
4.6686                 0.3195959        56.19107        0.2634512         117.574        0.2634513        117.5742        0.3195974        56.19115
4.67                   0.3180438        55.52173        0.2650575        117.2806        0.2650577        117.2808        0.3180452        55.52182
4.6714                 0.3164003        54.82816        0.2667431        116.9777        0.2667433        116.9778        0.3164018        54.82825
4.6728                 0.3146517        54.11156        0.2684966        116.6625        0.2684969        116.6626        0.3146531        54.11165
4.6742                 0.3127855        53.37351        0.2703043        116.3329        0.2703045        116.3331         0.312787         53.3736
4.6756                 0.3107916        52.61589        0.2721504        115.9878        0.2721507        115.9879         0.310793        52.61597
4.677                  0.3086617        51.84083         0.274018        115.6263        0.2740183        115.6264        0.3086632        51.84088
4.6784                 0.3063902        51.05064        0.2758893        115.2486        0.2758897        115.2487        0.3063917         51.0507
4.6798                 0.3039734        50.24783        0.2777464        114.8555        0.2777468        114.8556        0.3039749        50.24787
4.6812                 0.3014102        49.43491        0.2795722        114.4486        0.2795726        114.4486        0.3014117        49.43494
4.6826                 0.2987017        48.61448        0.2813506        114.0299         0.281351          114.03        0.2987032        48.61449
4.684                  0.2958514        47.78908        0.2830672        113.6024        0.2830676        113.6025        0.2958529        47.78908
4.6854                 0.2928643        46.96118        0.2847102        113.1692        0.2847106        113.1693        0.2928658        46.96116
4.6868                 0.2897476         46.1331        0.2862706         112.734         0.286271        112.7341         0.289749        46.13308
4.6882                 0.2865098        45.30703        0.2877427        112.3009        0.2877431        112.3009        0.2865112        45.30699
4.6896                 0.2831606         44.4849        0.2891244        111.8739        0.2891248        111.8739         0.283162        44.48483
4.691                   0.279711        43.66839        0.2904175        111.4573        0.2904179        111.4573        0.2797123        43.66832
4.6924                 0.2761721        42.85895         0.291628        111.0553        0.2916284        111.0553        0.2761734        42.85885
4.6938                 0.2725557         42.0577        0.2927658        110.6719        0.2927662        110.6719        0.2725569        42.05758
4.6952                 0.2688734        41.26546        0.2938452        110.3107        0.2938456        110.3108        0.2688744        41.26534
4.6966                 0.2651363        40.48276        0.2948841        109.9751        0.2948844        109.9751        0.2651373        40.48262
4.698                  0.2613555        39.70981        0.2959041        109.6676        0.2959044        109.6676        0.2613564        39.70965
4.6994                 0.2575407        38.94654          0.29693        109.3903        0.2969303        109.3903        0.2575414        38.94638
4.7008                 0.2537008        38.19263        0.2979893        109.1443        0.2979896        109.1444        0.2537014        38.19246
4.7022                 0.2498435        37.44755        0.2991115          108.93        0.2991118        108.9301         0.249844        37.44738
4.7036                 0.2459754        36.71059        0.3003271        108.7467        0.3003275        108.7467        0.2459758        36.71042
4.705                  0.2421014        35.98089        0.3016674        108.5926        0.3016678        108.5926        0.2421018        35.98072
4.7064                 0.2382256        35.25755        0.3031631         108.465        0.3031634        108.4651        0.2382258        35.25737
4.7078                 0.2343503        34.53963        0.3048433        108.3604        0.3048436        108.3604        0.2343504        34.53946
4.7092                 0.2304771        33.82627        0.3067349         108.274        0.3067352        108.2741        0.2304771        33.82611
4.7106                 0.2266064        33.11667        0.3088616        108.2006        0.3088619        108.2006        0.2266063        33.11655
4.712                  0.2227379        32.41032        0.3112432         108.134        0.3112435         108.134        0.2227378        32.41017
4.7134                 0.2188708        31.70673        0.3138945        108.0679        0.3138948        108.0679        0.2188706        31.70664
4.7148                  0.215004        31.00583        0.3168253        107.9955        0.3168256        107.9955        0.2150037        31.00577
4.7162                 0.2111364         30.3078          0.32004        107.9101        0.3200403        107.9102        0.2111361        30.30775
4.7176                 0.2072671        29.61307        0.3235371        107.8053        0.3235374        107.8053        0.2072668        29.61301
4.719                  0.2033959        28.92242        0.3273095        107.6749        0.3273098         107.675        0.2033956         28.9224
4.7204                 0.1995234        28.23697        0.3313449        107.5136        0.3313453        107.5136         0.199523        28.23697
4.7218                  0.195651        27.55805        0.3356261        107.3165        0.3356264        107.3165        0.1956506        27.55805
4.7232                 0.1917815        26.88729        0.3401314        107.0799        0.3401317        107.0799        0.1917811        26.88733
4.7246                 0.1879188        26.22644        0.3448355        106.8008         0.344836        106.8008        0.1879185         26.2265
4.726                  0.1840685        25.57736        0.3497106        106.4772         0.349711        106.4772        0.1840683        25.57742
4.7274                 0.1802375        24.94196        0.3547265        106.1082        0.3547269        106.1082        0.1802372        24.94209
4.7288                 0.1764338          24.322         0.359852        105.6936        0.3598524        105.6936        0.1764336        24.32216
4.7302                 0.1726672        23.71904        0.3650556         105.234         0.365056         105.234         0.172667        23.71917
4.7316                 0.1689481        23.13423         0.370306         104.731        0.3703064         104.731         0.168948        23.13436
4.733                   0.165288        22.56821        0.3755735        104.1865        0.3755738        104.1865         0.165288        22.56836
4.7344                  0.161699        22.02101        0.3808297        103.6034        0.3808301        103.6034         0.161699        22.02117
4.7358                 0.1581934        21.49179         0.386049        102.9844        0.3860494        102.9844        0.1581935        21.49195
4.7372                 0.1547831        20.97877        0.3912085         102.333        0.3912089         102.333        0.1547832        20.97892
4.7386                 0.1514796        20.47906        0.3962883        101.6527        0.3962887        101.6527        0.1514798        20.47922
4.74                   0.1482932        19.98864        0.4012724        100.9472        0.4012728        100.9471        0.1482934        19.98879
4.7414                 0.1452327        19.50222        0.4061482        100.2201        0.4061485        100.2201         0.145233        19.50236
4.7428                  0.142305        19.01325        0.4109067        99.47502        0.4109071        99.47502        0.1423053        19.01339
4.7442                 0.1395145        18.51402        0.4155431        98.71547        0.4155434        98.71545        0.1395149        18.51414
4.7456                 0.1368633        17.99568        0.4200558        97.94466        0.4200562        97.94466        0.1368637        17.99578
4.747                  0.1343505        17.44842        0.4244469        97.16558        0.4244473        97.16558        0.1343508         17.4485
4.7484                 0.1319721         16.8617        0.4287216         96.3809         0.428722         96.3809        0.1319725        16.86177
4.7498                 0.1297215        16.22446        0.4328882        95.59299        0.4328886        95.59296        0.1297219        16.22452
4.7512                 0.1275894        15.52542        0.4369568        94.80372        0.4369572         94.8037        0.1275897        15.52545
4.7526                 0.1255637        14.75328        0.4409404        94.01459        0.4409409        94.01459         0.125564        14.75331
4.754                  0.1236305        13.89707        0.4448529        93.22679        0.4448533        93.22676        0.1236309        13.89708
4.7554                 0.1217742         12.9463        0.4487093        92.44089        0.4487097        92.44089        0.1217746        12.94629
4.7568                 0.1199783        11.89116        0.4525251        91.65723        0.4525255        91.65723        0.1199786        11.89114
4.7582                 0.1182255        10.72267        0.4563157        90.87565        0.4563162        90.87565        0.1182259        10.72264
4.7596                 0.1164989        9.432732        0.4600959        90.09562        0.4600963         90.0956        0.1164993        9.432691
4.761                  0.1147822        8.014144         0.463879         89.3164        0.4638794        89.31634        0.1147825        8.014094
4.7624                 0.1130603        6.460586        0.4676772        88.53673        0.4676775         88.5367        0.1130607        6.460529
4.7638                 0.1113201        4.766522        0.4715001        87.75544        0.4715006        87.75539        0.1113204        4.766457
4.7652                 0.1095502        2.927126        0.4753556        86.97091         0.475356        86.97089        0.1095506        2.927052
4.7666                 0.1077425       0.9381389        0.4792484        86.18167        0.4792488        86.18164        0.1077428        0.938056
4.768                  0.1058912       -1.204224        0.4831808        85.38597        0.4831813        85.38594        0.1058915       -1.204316
4.7694                  0.103994       -3.503418        0.4871523        84.58227        0.4871527        84.58225        0.1039943       -3.503519
4.7708                 0.1020518       -5.962647        0.4911596        83.76909          0.49116        83.76906        0.1020522       -5.962758
4.7722                 0.1000691       -8.584923        0.4951966        82.94504         0.495197        82.94501        0.1000695       -8.585046
4.7736                0.09805362        -11.3731        0.4992554        82.10899        0.4992557        82.10896       0.09805401       -11.37324
4.775                 0.09601684       -14.32983        0.5033256        81.25998         0.503326        81.25992       0.09601726       -14.32998
4.7764                0.09397355       -17.45743        0.5073954        80.39741        0.5073957        80.39733       0.09397399        -17.4576
4.7778                0.09194181       -20.75775        0.5114518        79.52082        0.5114521        79.52079        0.0919423       -20.75793
