! TOUCHSTONE file generated by CST MICROWAVE STUDIO
! Date and time: Mon Dec  2 05:46:48 2024
! Project name: test_tuning.cst
! Parameters = {airCoaxOuterDiameter=3; chamferAngle=45; chamferWidth=24; connectorLength=10; drillingHoleDiameter=4.1; feedLength=50; flareDiameter=130; flareLength=70; gratingDistance=0; gratingGap=1.90274; outletLength=30; polarizerLength=134; probe1Diameter=1.3; probe1Distance=14; probe1Length=12; probe2Diameter=1.3; probe2Distance=0; probe2Length=12; probeLength=12; smaInnerDiameter=1.3; smaOuterDiameter=4.1; transitionCoefficient=1.33; waveguideFeedLength=30; waveguideSide=50; waveguideThickness=3; wireCount=25; wireDiameter=1.17699}
! Header version: 2024
! Port assignment regex: !\s*Touchstone port\s*([0-9]+)\s*=\s*(CST MWS port|CST DES external port|CST DES block port)\s*(.+)\s* \(\"(.*)\"\)(\s*mode\s*([0-9]+))?.*
! Touchstone port assignment:
! Touchstone port 1 = CST MWS port 1 ("Input1")
! Touchstone port 2 = CST MWS port 2 ("Input2")
# GHz S MA R 50
4.6                    0.1208866       -27.34971        0.4502445        97.40653        0.4502448        97.40651        0.1208873       -27.35006
4.6014                 0.1195851       -29.65929         0.451713        96.95219        0.4517133        96.95219        0.1195856       -29.65959
4.6028                 0.1183953        -32.0364        0.4532094        96.48961        0.4532097        96.48958        0.1183958       -32.03665
4.6042                 0.1173228       -34.47749        0.4547253        96.01841        0.4547255         96.0184        0.1173233        -34.4777
4.6056                 0.1163735       -36.97821        0.4562519        95.53847        0.4562522        95.53846        0.1163741       -36.97838
4.607                  0.1155538       -39.53346        0.4577804        95.04977        0.4577807        95.04976        0.1155543       -39.53359
4.6084                 0.1148697        -42.1374        0.4593021        94.55245        0.4593025        94.55243        0.1148703       -42.13749
4.6098                 0.1143278       -44.78354        0.4608085        94.04682        0.4608089        94.04679        0.1143283       -44.78358
4.6112                 0.1139341       -47.46474        0.4622912         93.5333        0.4622917        93.53327        0.1139346       -47.46475
4.6126                 0.1136945       -50.17341        0.4637428        93.01249        0.4637433        93.01246        0.1136951       -50.17339
4.614                  0.1136147       -52.90154        0.4651564        92.48507        0.4651569        92.48505        0.1136154       -52.90149
4.6154                 0.1136999       -55.64085        0.4665258        91.95183        0.4665263        91.95179        0.1137006       -55.64078
4.6168                 0.1139546         -58.383        0.4678459        91.41363        0.4678464        91.41358        0.1139552       -58.38292
4.6182                 0.1143828       -61.11969        0.4691126        90.87141         0.469113        90.87139        0.1143836       -61.11958
4.6196                 0.1149881        -63.8428        0.4703228        90.32619        0.4703233        90.32615        0.1149889       -63.84269
4.621                  0.1157734       -66.54466        0.4714747        89.77896        0.4714751         89.7789        0.1157742       -66.54454
4.6224                 0.1167408       -69.21807        0.4725675        89.23075        0.4725679        89.23069        0.1167416       -69.21794
4.6238                 0.1178921       -71.85649        0.4736018        88.68261        0.4736022        88.68253        0.1178929       -71.85638
4.6252                 0.1192285       -74.45417        0.4745792        88.13549        0.4745796        88.13541        0.1192294       -74.45405
4.6266                 0.1207508       -77.00616        0.4755025        87.59039        0.4755029        87.59032        0.1207517       -77.00604
4.628                  0.1224593       -79.50843        0.4763757         87.0482         0.476376        87.04812        0.1224602       -79.50831
4.6294                 0.1243539       -81.95784        0.4772036        86.50971        0.4772038        86.50963        0.1243549       -81.95774
4.6308                 0.1264343       -84.35222        0.4779922         85.9757        0.4779924        85.97562        0.1264353       -84.35213
4.6322                 0.1286999       -86.69017        0.4787481        85.44677        0.4787483        85.44667        0.1287009       -86.69013
4.6336                 0.1311497       -88.97133        0.4794788        84.92345        0.4794789        84.92335        0.1311508       -88.97126
4.635                  0.1337825       -91.19585        0.4801922        84.40614        0.4801923        84.40603        0.1337836       -91.19585
4.6364                 0.1365969       -93.36484         0.480897         83.8951        0.4808969        83.89501        0.1365979       -93.36484
4.6378                  0.139591       -95.47979        0.4816017        83.39048        0.4816016         83.3904         0.139592       -95.47981
4.6392                 0.1427626        -97.5428        0.4823154        82.89228        0.4823153         82.8922        0.1427637       -97.54283
4.6406                 0.1461093       -99.55632        0.4830472        82.40036         0.483047        82.40027        0.1461104       -99.55638
4.642                  0.1496281       -101.5232        0.4838058        81.91445        0.4838055        81.91437        0.1496291       -101.5233
4.6434                 0.1533154       -103.4464        0.4845998        81.43416        0.4845995        81.43409        0.1533164       -103.4464
4.6448                 0.1571674        -105.329        0.4854374        80.95897         0.485437        80.95891        0.1571684       -105.3291
4.6462                 0.1611794       -107.1742        0.4863262        80.48825        0.4863259        80.48818        0.1611803       -107.1743
4.6476                 0.1653462       -108.9851        0.4872733        80.02126        0.4872729         80.0212        0.1653471       -108.9853
4.649                   0.169662       -110.7648         0.488285        79.55717        0.4882845        79.55712        0.1696629        -110.765
4.6504                 0.1741204       -112.5163        0.4893665         79.0951        0.4893661        79.09505        0.1741212       -112.5165
4.6518                 0.1787141       -114.2422        0.4905227        78.63409        0.4905221        78.63403        0.1787149       -114.2423
4.6532                 0.1834355        -115.945        0.4917568        78.17312        0.4917563        78.17309        0.1834362       -115.9451
4.6546                 0.1882761        -117.627        0.4930718        77.71119        0.4930713        77.71116        0.1882768       -117.6271
4.656                   0.193227       -119.2902        0.4944692        77.24726        0.4944688        77.24723        0.1932276       -119.2904
4.6574                 0.1982785       -120.9364        0.4959498         76.7803        0.4959494        76.78027        0.1982791       -120.9366
4.6588                 0.2034209       -122.5671        0.4975135        76.30927        0.4975129        76.30927        0.2034214       -122.5672
4.6602                 0.2086436       -124.1834        0.4991589        75.83327        0.4991584        75.83325        0.2086441       -124.1836
4.6616                 0.2139361       -125.7864        0.5008843        75.35131        0.5008838         75.3513        0.2139365       -125.7865
4.663                  0.2192873       -127.3767         0.502687        74.86254        0.5026865        74.86254        0.2192877       -127.3769
4.6644                 0.2246864       -128.9549        0.5045636        74.36616        0.5045631        74.36617        0.2246867       -128.9551
4.6658                 0.2301223       -130.5213        0.5065102        73.86144        0.5065097        73.86146        0.2301226       -130.5215
4.6672                 0.2355839        -132.076        0.5085223        73.34772        0.5085218        73.34775        0.2355841       -132.0762
4.6686                 0.2410606       -133.6189        0.5105951        72.82443        0.5105947        72.82444        0.2410608        -133.619
4.67                   0.2465418       -135.1498        0.5127236        72.29104        0.5127231        72.29107         0.246542       -135.1499
4.6714                 0.2520175       -136.6683        0.5149022        71.74716        0.5149018        71.74718        0.2520176       -136.6684
4.6728                 0.2574781        -138.174        0.5171255        71.19241        0.5171252        71.19244        0.2574781       -138.1741
4.6742                 0.2629145       -139.6664        0.5193881        70.62654        0.5193877        70.62656        0.2629145       -139.6664
4.6756                 0.2683183       -141.1447        0.5216842         70.0493        0.5216838        70.04933        0.2683183       -141.1448
4.677                  0.2736821       -142.6085        0.5240084        69.46053        0.5240082        69.46055        0.2736821       -142.6085
4.6784                  0.278999       -144.0569        0.5263555        68.86012        0.5263552        68.86015         0.278999        -144.057
4.6798                 0.2842633       -145.4893          0.52872        68.24801        0.5287198        68.24804        0.2842633       -145.4893
4.6812                 0.2894699       -146.9049        0.5310971        67.62414        0.5310969        67.62417        0.2894699        -146.905
4.6826                 0.2946148       -148.3031        0.5334817        66.98852        0.5334815        66.98856        0.2946148       -148.3032
4.684                  0.2996952       -149.6833        0.5358694        66.34116        0.5358693        66.34119        0.2996953       -149.6834
4.6854                 0.3047092       -151.0448        0.5382556        65.68206        0.5382554        65.68209        0.3047092       -151.0449
4.6868                 0.3096557       -152.3872        0.5406359        65.01128        0.5406357        65.01131        0.3096557       -152.3872
4.6882                 0.3145348       -153.7099        0.5430062        64.32887        0.5430061        64.32889        0.3145349       -153.7099
4.6896                 0.3193477       -155.0127        0.5453623        63.63484        0.5453623        63.63488        0.3193478       -155.0127
4.691                  0.3240962       -156.2952        0.5477005        62.92926        0.5477005        62.92929        0.3240963       -156.2952
4.6924                 0.3287833       -157.5573        0.5500167        62.21214        0.5500167        62.21216        0.3287834       -157.5573
4.6938                 0.3334125        -158.799         0.552307         61.4835        0.5523069        61.48353        0.3334127        -158.799
4.6952                 0.3379883       -160.0204        0.5545672         60.7434        0.5545672        60.74343        0.3379884       -160.0204
4.6966                 0.3425155       -161.2217        0.5567937        59.99181        0.5567938        59.99184        0.3425156       -161.2217
4.698                  0.3469995       -162.4033        0.5589819        59.22881         0.558982        59.22883        0.3469997       -162.4033
4.6994                 0.3514464       -163.5657        0.5611278        58.45435        0.5611278        58.45438        0.3514465       -163.5657
4.7008                  0.355862       -164.7094        0.5632268        57.66849        0.5632269        57.66852        0.3558622       -164.7094
4.7022                 0.3602526       -165.8353        0.5652743        56.87123        0.5652744        56.87125        0.3602529       -165.8353
4.7036                 0.3646246       -166.9442        0.5672655        56.06262        0.5672655        56.06265        0.3646248       -166.9442
4.705                  0.3689838        -168.037        0.5691952         55.2427        0.5691953        55.24272        0.3689841       -168.0371
4.7064                 0.3733361        -169.115        0.5710583        54.41152        0.5710585        54.41154        0.3733364        -169.115
4.7078                 0.3776868       -170.1792        0.5728494        53.56917        0.5728496         53.5692        0.3776871       -170.1792
4.7092                 0.3820408       -171.2308        0.5745628        52.71579         0.574563        52.71581         0.382041       -171.2308
4.7106                 0.3864022       -172.2713        0.5761929        51.85147         0.576193        51.85149        0.3864024       -172.2713
4.712                  0.3907745       -173.3019        0.5777338        50.97643         0.577734        50.97646        0.3907747       -173.3019
4.7134                 0.3951602        -174.324        0.5791796        50.09085        0.5791798        50.09085        0.3951604        -174.324
4.7148                 0.3995611       -175.3389        0.5805245        49.19497        0.5805247        49.19497        0.3995613       -175.3389
4.7162                  0.403978       -176.3481        0.5817625        48.28907        0.5817628         48.2891        0.4039782       -176.3481
4.7176                 0.4084106       -177.3529        0.5828881        47.37351        0.5828884        47.37351        0.4084108       -177.3529
4.719                  0.4128577       -178.3545        0.5838956         46.4486        0.5838959        46.44859        0.4128579       -178.3545
4.7204                 0.4173171       -179.3542        0.5847797        45.51476        0.5847799        45.51476        0.4173173       -179.3542
4.7218                 0.4217857         179.647        0.5855352        44.57243        0.5855355        44.57243        0.4217858        179.6469
4.7232                 0.4262592        178.6479        0.5861576        43.62209        0.5861579        43.62209        0.4262594        178.6479
4.7246                  0.430733        177.6476        0.5866426        42.66424        0.5866428        42.66424        0.4307331        177.6476
4.726                   0.435201        176.6453        0.5869863        41.69947        0.5869865        41.69946        0.4352011        176.6453
4.7274                  0.439657        175.6403        0.5871854        40.72826        0.5871856        40.72827        0.4396571        175.6403
4.7288                 0.4440939        174.6321        0.5872371        39.75127        0.5872374        39.75127         0.444094         174.632
4.7302                 0.4485042          173.62        0.5871394        38.76908        0.5871396        38.76908        0.4485043          173.62
4.7316                 0.4528801        172.6039        0.5868908        37.78235        0.5868909        37.78235        0.4528801        172.6039
4.733                  0.4572133        171.5834        0.5864903        36.79169        0.5864905        36.79164        0.4572133        171.5834
4.7344                 0.4614957        170.5585        0.5859379         35.7977         0.585938         35.7977        0.4614957        170.5585
4.7358                 0.4657189        169.5292         0.585234        34.80109        0.5852342        34.80106         0.465719        169.5292
4.7372                  0.469875        168.4956        0.5843799        33.80241          0.58438        33.80238         0.469875        168.4956
4.7386                 0.4739559        167.4578        0.5833775        32.80231        0.5833775        32.80232        0.4739559        167.4578
4.74                   0.4779541        166.4163        0.5822292        31.80138        0.5822292        31.80138        0.4779541        166.4163
4.7414                 0.4818624        165.3713        0.5809382        30.80017        0.5809383        30.80015        0.4818624        165.3714
4.7428                 0.4856742        164.3234        0.5795083        29.79919        0.5795083        29.79916        0.4856743        164.3234
4.7442                 0.4893836        163.2729        0.5779436        28.79894        0.5779436        28.79892        0.4893837        163.2729
4.7456                 0.4929852        162.2204         0.576249        27.79986         0.576249        27.79984        0.4929853        162.2204
4.747                  0.4964744        161.1665        0.5744295        26.80234        0.5744296        26.80232        0.4964746        161.1665
4.7484                 0.4998475        160.1117        0.5724907        25.80672        0.5724906         25.8067        0.4998477        160.1117
4.7498                 0.5031015        159.0566        0.5704382        24.81328        0.5704381        24.81326        0.5031016        159.0566
4.7512                 0.5062341        158.0019         0.568278        23.82224         0.568278        23.82222        0.5062343        158.0019
4.7526                 0.5092441        156.9479        0.5660163        22.83374        0.5660161        22.83373        0.5092443        156.9479
4.754                  0.5121308        155.8954        0.5636588        21.84789        0.5636587        21.84788        0.5121311        155.8954
4.7554                 0.5148946        154.8447        0.5612116        20.86471        0.5612116        20.86469        0.5148948        154.8447
4.7568                 0.5175363        153.7964        0.5586808        19.88413        0.5586806        19.88412        0.5175366        153.7964
4.7582                 0.5200577        152.7508        0.5560716        18.90608        0.5560715        18.90606         0.520058        152.7508
4.7596                  0.522461        151.7083        0.5533894        17.93036        0.5533893        17.93034        0.5224613        151.7083
4.761                   0.524749        150.6691        0.5506393        16.95674        0.5506391        16.95673        0.5247494        150.6691
4.7624                 0.5269251        149.6335        0.5478253        15.98495        0.5478251        15.98494        0.5269255        149.6335
4.7638                  0.528993        148.6017        0.5449515        15.01464        0.5449513        15.01464        0.5289933        148.6017
4.7652                 0.5309564        147.5736        0.5420211        14.04544        0.5420209        14.04544        0.5309568        147.5736
4.7666                 0.5328197        146.5492        0.5390368        13.07692        0.5390367        13.07692          0.53282        146.5492
4.768                  0.5345867        145.5285        0.5360008        12.10864        0.5360006        12.10864        0.5345871        145.5285
4.7694                  0.536262        144.5112        0.5329143        11.14013        0.5329141        11.14014        0.5362623        144.5112
4.7708                 0.5378491        143.4973         0.529778        10.17091        0.5297779        10.17092        0.5378496        143.4973
4.7722                 0.5393521        142.4862         0.526592        9.200491        0.5265919        9.200499        0.5393525        142.4862
4.7736                 0.5407742        141.4777        0.5233557        8.228401        0.5233555        8.228411        0.5407746        141.4777
4.775                  0.5421185        140.4714        0.5200678        7.254176        0.5200677        7.254186        0.5421188        140.4713
4.7764                 0.5433874        139.4667        0.5167266        6.277378        0.5167265        6.277389        0.5433877        139.4666
4.7778                 0.5445827        138.4631        0.5133299          5.2976        0.5133299        5.297612         0.544583        138.4631
