! TOUCHSTONE file generated by CST MICROWAVE STUDIO
! Date and time: Mon Dec  2 05:46:48 2024
! Project name: test_tuning.cst
! Parameters = {airCoaxOuterDiameter=3; chamferAngle=45; chamferWidth=24; connectorLength=10; drillingHoleDiameter=4.1; feedLength=40; flareDiameter=130; flareLength=70; gratingDistance=0; gratingGap=1.90274; outletLength=30; polarizerLength=134; probe1Diameter=1.3; probe1Distance=14; probe1Length=12; probe2Diameter=1.3; probe2Distance=0; probe2Length=12; probeLength=12; smaInnerDiameter=1.3; smaOuterDiameter=4.1; transitionCoefficient=1.33; waveguideFeedLength=30; waveguideSide=50; waveguideThickness=3; wireCount=25; wireDiameter=1.17699}
! Header version: 2024
! Port assignment regex: !\s*Touchstone port\s*([0-9]+)\s*=\s*(CST MWS port|CST DES external port|CST DES block port)\s*(.+)\s* \(\"(.*)\"\)(\s*mode\s*([0-9]+))?.*
! Touchstone port assignment:
! Touchstone port 1 = CST MWS port 1 ("Input1")
! Touchstone port 2 = CST MWS port 2 ("Input2")
# GHz S MA R 50
4.6                    0.3209786        30.68225        0.3168402        111.6943        0.3168403        111.6942        0.3209785        30.68237
4.6014                 0.3182432        29.98697        0.3174168        111.2938        0.3174168        111.2937        0.3182431         29.9871
4.6028                 0.3155064        29.28954         0.318009        110.8946        0.3180089        110.8945        0.3155062        29.28966
4.6042                 0.3127745        28.58964        0.3186156        110.4957        0.3186155        110.4956        0.3127743        28.58977
4.6056                 0.3100534        27.88676        0.3192347        110.0961        0.3192344        110.0959        0.3100533        27.88688
4.607                  0.3073485        27.18013        0.3198629        109.6949        0.3198624        109.6948        0.3073485        27.18026
4.6084                 0.3046644         26.4688        0.3204957        109.2915        0.3204952        109.2914        0.3046643        26.46894
4.6098                 0.3020043        25.75166        0.3211284        108.8855        0.3211276        108.8854        0.3020042        25.75179
4.6112                 0.2993705        25.02743        0.3217552        108.4766        0.3217543        108.4764        0.2993706        25.02755
4.6126                 0.2967643        24.29476        0.3223705        108.0647        0.3223695        108.0646        0.2967643        24.29489
4.614                  0.2941855        23.55227        0.3229684        107.6501        0.3229673          107.65        0.2941856        23.55239
4.6154                 0.2916327        22.79856        0.3235437        107.2331        0.3235425         107.233        0.2916328        22.79868
4.6168                 0.2891037        22.03232        0.3240913        106.8144          0.32409        106.8144        0.2891038        22.03244
4.6182                 0.2865949         21.2523        0.3246071        106.3947        0.3246058        106.3947        0.2865951        21.25241
4.6196                 0.2841026        20.45742        0.3250881         105.975        0.3250868         105.975        0.2841028        20.45753
4.621                  0.2816221        19.64676         0.325532        105.5562        0.3255307        105.5562        0.2816223        19.64686
4.6224                 0.2791486        18.81958         0.325938        105.1394        0.3259367        105.1395        0.2791487        18.81967
4.6238                  0.276677        17.97537        0.3263064        104.7256        0.3263051        104.7257        0.2766772        17.97544
4.6252                 0.2742027        17.11382        0.3266385        104.3159        0.3266373         104.316        0.2742029        17.11389
4.6266                 0.2717213        16.23484         0.326937        103.9112        0.3269359        103.9114        0.2717215         16.2349
4.628                  0.2692291        15.33852        0.3272053        103.5124        0.3272043        103.5125        0.2692292        15.33856
4.6294                 0.2667231        14.42511        0.3274477          103.12        0.3274469        103.1202        0.2667232        14.42514
4.6308                 0.2642012        13.49501        0.3276691        102.7347        0.3276685        102.7349        0.2642014        13.49503
4.6322                 0.2616625        12.54871        0.3278749        102.3568        0.3278743         102.357        0.2616626        12.54873
4.6336                 0.2591068        11.58676        0.3280703        101.9864        0.3280698        101.9866        0.2591068        11.58677
4.635                  0.2565352        10.60972        0.3282605        101.6235        0.3282602        101.6236        0.2565352        10.60973
4.6364                 0.2539496        9.618097        0.3284505        101.2678        0.3284504        101.2679        0.2539495        9.618107
4.6378                  0.251353         8.61234        0.3286447        100.9189        0.3286447        100.9191        0.2513528        8.612348
4.6392                 0.2487489        7.592756        0.3288464        100.5765        0.3288465        100.5767        0.2487487        7.592767
4.6406                 0.2461416        6.559495        0.3290583        100.2399        0.3290586          100.24        0.2461414        6.559509
4.642                  0.2435358        5.512509        0.3292821        99.90844        0.3292824        99.90859        0.2435356        5.512529
4.6434                 0.2409364        4.451533        0.3295184        99.58155        0.3295187        99.58166        0.2409361        4.451559
4.6448                 0.2383482        3.376064        0.3297666        99.25861         0.329767        99.25872        0.2383479        3.376097
4.6462                  0.235776        2.285359        0.3300255        98.93913         0.330026        98.93922        0.2357756          2.2854
4.6476                 0.2332239        1.178437        0.3302928        98.62274        0.3302933        98.62281        0.2332236        1.178487
4.649                  0.2306959      0.05409576        0.3305658        98.30917        0.3305663        98.30923        0.2306956      0.05415354
4.6504                 0.2281948       -1.089066        0.3308412        97.99844        0.3308417        97.99847        0.2281945       -1.089001
4.6518                 0.2257229        -2.25261        0.3311155        97.69066         0.331116        97.69069        0.2257226       -2.252538
4.6532                 0.2232813       -3.438219        0.3313856        97.38622         0.331386        97.38622        0.2232811       -3.438143
4.6546                 0.2208702       -4.647647        0.3316484        97.08567        0.3316487        97.08567          0.22087       -4.647568
4.656                  0.2184891       -5.882664        0.3319017        96.78978         0.331902        96.78977        0.2184889       -5.882584
4.6574                 0.2161361       -7.144999        0.3321441        96.49946        0.3321444        96.49946         0.216136       -7.144922
4.6588                 0.2138088       -8.436291        0.3323754         96.2158        0.3323756        96.21578        0.2138087       -8.436217
4.6602                 0.2115041       -9.758022        0.3325967        95.93994        0.3325969        95.93991         0.211504       -9.757955
4.6616                  0.209218       -11.11148        0.3328108        95.67309        0.3328109        95.67308         0.209218       -11.11142
4.663                  0.2069464        -12.4977        0.3330217        95.41651        0.3330218        95.41649        0.2069464       -12.49765
4.6644                 0.2046848       -13.91744        0.3332353        95.17131        0.3332354        95.17129        0.2046849       -13.91741
4.6658                 0.2024288       -15.37116        0.3334592        94.93858        0.3334592        94.93856        0.2024288       -15.37114
4.6672                  0.200174       -16.85895        0.3337022        94.71917        0.3337023        94.71916        0.2001741       -16.85895
4.6686                 0.1979165       -18.38061        0.3339748         94.5138        0.3339748        94.51379        0.1979165       -18.38063
4.67                   0.1956528       -19.93556        0.3342885        94.32282        0.3342885        94.32282        0.1956528       -19.93559
4.6714                 0.1933801       -21.52288        0.3346557         94.1464        0.3346556        94.14639        0.1933801       -21.52294
4.6728                 0.1910965       -23.14135        0.3350895        93.98426        0.3350896        93.98426        0.1910965       -23.14142
4.6742                 0.1888008       -24.78941        0.3356034        93.83578        0.3356035        93.83578        0.1888008        -24.7895
4.6756                 0.1864931       -26.46524        0.3362107        93.70006        0.3362108        93.70005         0.186493       -26.46534
4.677                  0.1841744       -28.16676        0.3369244        93.57573        0.3369244        93.57573        0.1841742       -28.16688
4.6784                 0.1818465       -29.89168        0.3377564         93.4611        0.3377565         93.4611        0.1818463       -29.89181
4.6798                 0.1795126       -31.63752        0.3387179         93.3542         0.338718         93.3542        0.1795124       -31.63765
4.6812                 0.1771768       -33.40167        0.3398184        93.25275        0.3398186        93.25274        0.1771765       -33.40177
4.6826                 0.1748442       -35.18136        0.3410659        93.15427         0.341066        93.15425        0.1748438       -35.18149
4.684                  0.1725206       -36.97381        0.3424663        93.05608        0.3424663        93.05608        0.1725202       -36.97395
4.6854                 0.1702128        -38.7762        0.3440235        92.95544        0.3440235        92.95543        0.1702123       -38.77631
4.6868                 0.1679282       -40.58572        0.3457392        92.84958        0.3457393        92.84955        0.1679276       -40.58582
4.6882                 0.1656746       -42.39959        0.3476132        92.73577        0.3476133        92.73575        0.1656741        -42.3997
4.6896                 0.1634605       -44.21511        0.3496429        92.61138         0.349643        92.61135        0.1634599       -44.21522
4.691                  0.1612945       -46.02973        0.3518239        92.47395        0.3518238        92.47393        0.1612939       -46.02984
4.6924                 0.1591854       -47.84102        0.3541496        92.32124        0.3541496        92.32121        0.1591848       -47.84114
4.6938                  0.157142       -49.64678        0.3566122        92.15128        0.3566122        92.15125        0.1571414       -49.64686
4.6952                 0.1551731       -51.44488        0.3592024        91.96236        0.3592023        91.96233        0.1551725       -51.44497
4.6966                 0.1532871       -53.23352        0.3619094        91.75307        0.3619093        91.75306        0.1532865       -53.23355
4.698                  0.1514922       -55.01105        0.3647221        91.52239        0.3647219        91.52237        0.1514916       -55.01108
4.6994                 0.1497962       -56.77608        0.3676282        91.26947        0.3676281        91.26946        0.1497956       -56.77611
4.7008                 0.1482062       -58.52748        0.3706157         90.9939        0.3706155        90.99388        0.1482057       -58.52748
4.7022                 0.1467289       -60.26431         0.373672        90.69545        0.3736718        90.69543        0.1467285       -60.26434
4.7036                 0.1453704       -61.98592        0.3767848        90.37417        0.3767847        90.37415          0.14537       -61.98591
4.705                   0.144136       -63.69174        0.3799423        90.03036        0.3799422        90.03035        0.1441356       -63.69173
4.7064                 0.1430304       -65.38151         0.383133         89.6645        0.3831328         89.6645          0.14303        -65.3815
4.7078                 0.1420575       -67.05507         0.386346        89.27721        0.3863458        89.27721        0.1420572       -67.05508
4.7092                 0.1412206       -68.71243        0.3895712        88.86929         0.389571        88.86929        0.1412203       -68.71245
4.7106                 0.1405223       -70.35374        0.3927993         88.4416        0.3927992         88.4416        0.1405221       -70.35377
4.712                  0.1399648       -71.97919        0.3960219        87.99512        0.3960218        87.99512        0.1399646       -71.97923
4.7134                 0.1395494       -73.58908        0.3992314        87.53082        0.3992313        87.53082        0.1395492       -73.58913
4.7148                  0.139277       -75.18374        0.4024209        87.04979        0.4024208        87.04979        0.1392769       -75.18381
4.7162                 0.1391481       -76.76353        0.4055845        86.55303        0.4055845        86.55303         0.139148       -76.76362
4.7176                 0.1391627       -78.32885        0.4087173        86.04163        0.4087172        86.04163        0.1391626       -78.32896
4.719                  0.1393205       -79.88008        0.4118147        85.51659        0.4118147        85.51659        0.1393204        -79.8802
4.7204                 0.1396208       -81.41761        0.4148733        84.97894        0.4148733        84.97896        0.1396207       -81.41775
4.7218                 0.1400629       -82.94186        0.4178901        84.42962        0.4178901        84.42962        0.1400627         -82.942
4.7232                 0.1406455       -84.45319        0.4208628        83.86965        0.4208628        83.86965        0.1406454       -84.45334
4.7246                 0.1413676       -85.95203        0.4237899        83.29978        0.4237899        83.29978        0.1413674       -85.95219
4.726                  0.1422277       -87.43876        0.4266701        82.72097          0.42667        82.72097        0.1422275       -87.43893
4.7274                 0.1432243       -88.91382        0.4295028        82.13399        0.4295028        82.13399        0.1432241         -88.914
4.7288                 0.1443559       -90.37768        0.4322881        81.53958        0.4322881        81.53958        0.1443556       -90.37787
4.7302                 0.1456207       -91.83081        0.4350263        80.93842        0.4350262        80.93842        0.1456204       -91.83097
4.7316                  0.147017        -93.2737        0.4377182        80.33115        0.4377181        80.33115        0.1470167       -93.27386
4.733                  0.1485429       -94.70689         0.440365        79.71841        0.4403649        79.71841        0.1485425       -94.70703
4.7344                 0.1501962       -96.13092        0.4429684        79.10069        0.4429683        79.10069        0.1501959       -96.13105
4.7358                 0.1519748       -97.54639        0.4455304        78.47848        0.4455304        78.47848        0.1519745        -97.5465
4.7372                 0.1538764       -98.95384        0.4480534        77.85219        0.4480533        77.85219        0.1538761       -98.95396
4.7386                 0.1558983       -100.3539          0.45054        77.22217        0.4505399        77.22217        0.1558981        -100.354
4.74                    0.158038       -101.7471        0.4529931        76.58874        0.4529931        76.58874        0.1580377       -101.7472
4.7414                 0.1602924        -103.134        0.4554159        75.95207        0.4554159        75.95207        0.1602922        -103.134
4.7428                 0.1626585        -104.515        0.4578117        75.31234        0.4578116        75.31234        0.1626583       -104.5151
4.7442                  0.165133       -105.8907        0.4601838        74.66964        0.4601837        74.66964        0.1651328       -105.8908
4.7456                 0.1677125       -107.2615        0.4625359        74.02401        0.4625358        74.02401        0.1677123       -107.2615
4.747                  0.1703933       -108.6275        0.4648712        73.37533        0.4648711        73.37533        0.1703932       -108.6276
4.7484                 0.1731718       -109.9892        0.4671932        72.72349        0.4671931        72.72349        0.1731718       -109.9893
4.7498                 0.1760444       -111.3467         0.469505        72.06838        0.4695049        72.06838        0.1760443       -111.3467
4.7512                 0.1790072          -112.7        0.4718096        71.40963        0.4718096        71.40963        0.1790072          -112.7
4.7526                 0.1820565       -114.0492        0.4741098        70.74705        0.4741097        70.74705        0.1820565       -114.0492
4.754                  0.1851887       -115.3942        0.4764077        70.08022        0.4764076        70.08022        0.1851888       -115.3943
4.7554                 0.1884004        -116.735        0.4787053        69.40878        0.4787053        69.40878        0.1884005       -116.7351
4.7568                 0.1916882       -118.0714        0.4810042        68.73235        0.4810041        68.73235        0.1916883       -118.0715
4.7582                 0.1950492       -119.4033        0.4833051        68.05044        0.4833051        68.05043        0.1950493       -119.4034
4.7596                 0.1984805       -120.7305        0.4856086        67.36258        0.4856086        67.36258        0.1984806       -120.7306
4.761                  0.2019797       -122.0529        0.4879148        66.66841        0.4879148        66.66841        0.2019799        -122.053
4.7624                 0.2055447       -123.3703        0.4902231         65.9674        0.4902231         65.9674        0.2055448       -123.3704
4.7638                 0.2091737       -124.6826        0.4925326        65.25915        0.4925326        65.25915        0.2091738       -124.6827
4.7652                 0.2128652       -125.9898        0.4948417        64.54322        0.4948417        64.54322        0.2128654       -125.9899
4.7666                 0.2166182       -127.2919        0.4971489        63.81922        0.4971489        63.81922        0.2166183        -127.292
4.768                  0.2204317        -128.589        0.4994518         63.0868        0.4994518         63.0868        0.2204318       -128.5891
4.7694                 0.2243054       -129.8813        0.5017482        62.34561        0.5017482        62.34561        0.2243055       -129.8815
4.7708                 0.2282387       -131.1692        0.5040353        61.59537        0.5040353        61.59534        0.2282387       -131.1693
4.7722                 0.2322315       -132.4529        0.5063105        60.83578        0.5063104        60.83578        0.2322316        -132.453
4.7736                 0.2362838        -133.733        0.5085707        60.06665        0.5085707        60.06662        0.2362837       -133.7331
4.775                  0.2403952       -135.0099         0.510813        59.28771         0.510813         59.2877        0.2403951       -135.0101
4.7764                 0.2445658       -136.2845        0.5130347        58.49878        0.5130346        58.49877        0.2445657       -136.2846
4.7778                 0.2487953       -137.5573        0.5152326         57.6997        0.5152325         57.6997        0.2487951       -137.5574
