! TOUCHSTONE file generated by CST MICROWAVE STUDIO
! Date and time: Sun Dec  1 17:17:06 2024
! Project name: test_tuning.cst
! Parameters = {airCoaxOuterDiameter=3; chamferAngle=45; chamferWidth=24; connectorLength=10; drillingHoleDiameter=4.1; feedLength=60; flareDiameter=130; flareLength=70; gratingDistance=0; gratingGap=1.90274; outletLength=30; polarizerLength=122; probe1Diameter=1.3; probe1Distance=14; probe1Length=12; probe2Diameter=1.3; probe2Distance=0; probe2Length=12; probeLength=12; smaInnerDiameter=1.3; smaOuterDiameter=4.1; transitionCoefficient=1.33; waveguideFeedLength=30; waveguideSide=50; waveguideThickness=3; wireCount=25; wireDiameter=1.17699}
! Header version: 2024
! Port assignment regex: !\s*Touchstone port\s*([0-9]+)\s*=\s*(CST MWS port|CST DES external port|CST DES block port)\s*(.+)\s* \(\"(.*)\"\)(\s*mode\s*([0-9]+))?.*
! Touchstone port assignment:
! Touchstone port 1 = CST MWS port 1 ("Input1")
! Touchstone port 2 = CST MWS port 2 ("Input2")
# GHz S MA R 50
4.6                    0.2164631       -150.4483        0.6031967        60.96306        0.6031961         60.9632        0.2164627       -150.4489
4.6014                 0.2226701       -151.5154        0.6040579        60.16341        0.6040575        60.16353        0.2226698       -151.5159
4.6028                 0.2289583       -152.5708        0.6049465        59.35453         0.604946        59.35466         0.228958       -152.5713
4.6042                 0.2353237       -153.6174        0.6058564        58.53534         0.605856        58.53548        0.2353234       -153.6179
4.6056                 0.2417616       -154.6577        0.6067806        57.70478        0.6067802        57.70491        0.2417614       -154.6582
4.607                  0.2482665       -155.6939        0.6077104        56.86186        0.6077101        56.86199        0.2482662       -155.6944
4.6084                 0.2548317       -156.7277        0.6086355        56.00571        0.6086353        56.00584        0.2548315       -156.7281
4.6098                 0.2614502       -157.7605        0.6095445        55.13556        0.6095444        55.13569          0.26145       -157.7609
4.6112                 0.2681142       -158.7935        0.6104251        54.25075        0.6104249        54.25088         0.268114       -158.7939
4.6126                 0.2748155       -159.8276        0.6112637        53.35075        0.6112636        53.35087        0.2748152        -159.828
4.614                  0.2815454       -160.8632        0.6120462        52.43517        0.6120462        52.43529        0.2815452       -160.8636
4.6154                 0.2882953       -161.9008        0.6127582        51.50375        0.6127582        51.50388        0.2882951       -161.9011
4.6168                 0.2950564       -162.9404        0.6133844        50.55641        0.6133845        50.55653        0.2950562       -162.9407
4.6182                 0.3018201        -163.982        0.6139097        49.59317        0.6139099        49.59329        0.3018199       -163.9823
4.6196                 0.3085779       -165.0253        0.6143193        48.61422        0.6143196        48.61434        0.3085777       -165.0256
4.621                  0.3153218         -166.07        0.6145983        47.61988        0.6145985           47.62        0.3153216       -166.0703
4.6224                 0.3220442       -167.1156        0.6147322         46.6106        0.6147326        46.61071         0.322044       -167.1159
4.6238                 0.3287382       -168.1616        0.6147075        45.58694        0.6147079        45.58705         0.328738       -168.1619
4.6252                 0.3353976       -169.2073        0.6145114         44.5496        0.6145117         44.5497        0.3353974       -169.2076
4.6266                 0.3420169       -170.2521        0.6141316        43.49937        0.6141321        43.49946        0.3420167       -170.2524
4.628                  0.3485914       -171.2954        0.6135574        42.43714        0.6135579        42.43723        0.3485912       -171.2956
4.6294                 0.3551174       -172.3365        0.6127789        41.36389        0.6127794        41.36398        0.3551172       -172.3367
4.6308                 0.3615921       -173.3749        0.6117877        40.28069        0.6117884        40.28077        0.3615919       -173.3751
4.6322                 0.3680134         -174.41        0.6105767        39.18863        0.6105774        39.18871        0.3680132       -174.4101
4.6336                 0.3743802       -175.4412        0.6091401         38.0889        0.6091407        38.08898        0.3743799       -175.4414
4.635                  0.3806923       -176.4684        0.6074735        36.98272        0.6074742        36.98279         0.380692       -176.4685
4.6364                   0.38695        -177.491        0.6055742        35.87133         0.605575        35.87138        0.3869497       -177.4912
4.6378                 0.3931547        -178.509        0.6034408        34.75599        0.6034415        34.75604        0.3931544       -178.5091
4.6392                 0.3993081       -179.5221        0.6010733        33.63799         0.601074        33.63804        0.3993078       -179.5223
4.6406                 0.4054124        179.4695        0.5984732        32.51862        0.5984739        32.51866        0.4054121        179.4694
4.642                  0.4114704        178.4658        0.5956434        31.39914        0.5956442        31.39918        0.4114702        178.4657
4.6434                  0.417485        177.4665        0.5925883        30.28083         0.592589        30.28085        0.4174848        177.4664
4.6448                 0.4234592        176.4713        0.5893131         29.1649        0.5893138        29.16492        0.4234589        176.4712
4.6462                 0.4293958        175.4797        0.5858247        28.05257        0.5858253        28.05258        0.4293956        175.4796
4.6476                 0.4352979        174.4913        0.5821306        26.94498        0.5821313        26.94499        0.4352976        174.4912
4.649                  0.4411676        173.5053        0.5782399        25.84325        0.5782405        25.84326        0.4411675        173.5052
4.6504                 0.4470072        172.5211        0.5741618        24.74844        0.5741625        24.74844        0.4470071         172.521
4.6518                  0.452818        171.5379        0.5699071        23.66153        0.5699076        23.66152        0.4528178        171.5379
4.6532                 0.4586007         170.555        0.5654865        22.58344         0.565487        22.58343        0.4586006        170.5549
4.6546                 0.4643551        169.5714        0.5609118        21.51503        0.5609122        21.51501         0.464355        169.5714
4.656                  0.4700801        168.5863        0.5561947        20.45706        0.5561951        20.45704        0.4700801        168.5863
4.6574                 0.4757738        167.5989        0.5513475        19.41022        0.5513479         19.4102        0.4757738        167.5989
4.6588                 0.4814329        166.6084        0.5463827        18.37513         0.546383         18.3751         0.481433        166.6083
4.6602                 0.4870534        165.6138        0.5413125        17.35229        0.5413128        17.35226        0.4870536        165.6138
4.6616                   0.49263        164.6145        0.5361492        16.34214        0.5361494        16.34212        0.4926301        164.6145
4.663                  0.4981563        163.6098        0.5309049        15.34504         0.530905        15.34501        0.4981564        163.6098
4.6644                 0.5036247         162.599        0.5255912        14.36123        0.5255914         14.3612         0.503625         162.599
4.6658                 0.5090271        161.5816        0.5202196         13.3909        0.5202197        13.39086        0.5090274        161.5816
4.6672                  0.514354        160.5572        0.5148009        12.43414        0.5148009         12.4341        0.5143543        160.5572
4.6686                 0.5195953        159.5255        0.5093452        11.49097        0.5093453        11.49093        0.5195956        159.5255
4.67                     0.52474        158.4862        0.5038623        10.56134        0.5038623        10.56131        0.5247404        158.4862
4.6714                 0.5297766        157.4391        0.4983611        9.645142        0.4983611        9.645109        0.5297771        157.4392
4.6728                 0.5346933        156.3845        0.4928498        8.742199        0.4928497        8.742168        0.5346938        156.3845
4.6742                 0.5394776        155.3223         0.487336        7.852289        0.4873359         7.85226        0.5394781        155.3223
4.6756                 0.5441171        154.2529        0.4818263        6.975151        0.4818262        6.975122        0.5441177        154.2529
4.677                  0.5485993        153.1765        0.4763269        6.110483        0.4763267        6.110457        0.5485999        153.1765
4.6784                 0.5529118        152.0937         0.470843        5.257964        0.4708428         5.25794        0.5529124        152.0937
4.6798                 0.5570426        151.0051        0.4653792        4.417254        0.4653791        4.417233        0.5570432        151.0051
4.6812                   0.56098        149.9113        0.4599397        3.588005        0.4599396        3.587985        0.5609807        149.9113
4.6826                 0.5647133        148.8132        0.4545278        2.769866        0.4545275         2.76985         0.564714        148.8132
4.684                   0.568232        147.7117        0.4491462        1.962496         0.449146        1.962482        0.5682327        147.7117
4.6854                 0.5715268        146.6076        0.4437975        1.165564        0.4437972        1.165552        0.5715276        146.6076
4.6868                 0.5745897        145.5021        0.4384835       0.3787573        0.4384832       0.3787483        0.5745904        145.5021
4.6882                 0.5774134        144.3961        0.4332059      -0.3982139        0.4332057      -0.3982202        0.5774142        144.3961
4.6896                 0.5799921        143.2909         0.427966       -1.165615        0.4279658       -1.165619        0.5799929        143.2909
4.691                  0.5823214        142.1877        0.4227651       -1.923683        0.4227649       -1.923685        0.5823221        142.1877
4.6924                 0.5843981        141.0876         0.417604       -2.672631        0.4176038       -2.672631        0.5843988        141.0876
4.6938                 0.5862207        139.9919        0.4124838       -3.412643        0.4124836       -3.412641        0.5862213        139.9919
4.6952                 0.5877892        138.9018        0.4074052        -4.14388         0.407405       -4.143877        0.5877898        138.9018
4.6966                 0.5891051        137.8185        0.4023691       -4.866483         0.402369        -4.86648        0.5891057        137.8185
4.698                  0.5901715        136.7433        0.3973765       -5.580578        0.3973763       -5.580574        0.5901722        136.7433
4.6994                 0.5909932        135.6773        0.3924284       -6.286279        0.3924283       -6.286274        0.5909938        135.6773
4.7008                 0.5915763        134.6217        0.3875258       -6.983716        0.3875257       -6.983689        0.5915768        134.6217
4.7022                 0.5919282        133.5776        0.3826699       -7.672972        0.3826697       -7.672972        0.5919289        133.5776
4.7036                 0.5920583        132.5459        0.3778618       -8.354178        0.3778617       -8.354178         0.592059        132.5459
4.705                  0.5919769        131.5277         0.373103       -9.027508        0.3731028       -9.027508        0.5919776        131.5277
4.7064                 0.5916954        130.5237        0.3683947       -9.693098        0.3683946       -9.693069         0.591696        130.5238
4.7078                 0.5912265        129.5348        0.3637384       -10.35116        0.3637383       -10.35113        0.5912271        129.5349
4.7092                 0.5905836        128.5616        0.3591353       -11.00196        0.3591352       -11.00196        0.5905842        128.5617
4.7106                 0.5897809        127.6046        0.3545867       -11.64579        0.3545866       -11.64579        0.5897816        127.6046
4.712                  0.5888336        126.6642        0.3500939       -12.28297        0.3500938       -12.28297        0.5888342        126.6642
4.7134                 0.5877565        125.7406        0.3456576       -12.91391        0.3456575       -12.91392        0.5877572        125.7406
4.7148                 0.5865652         124.834        0.3412788       -13.53906        0.3412787       -13.53907         0.586566         124.834
4.7162                 0.5852751        123.9443        0.3369579       -14.15891        0.3369578       -14.15892        0.5852759        123.9443
4.7176                 0.5839012        123.0713         0.332695       -14.77403        0.3326949       -14.77404        0.5839021        123.0714
4.719                  0.5824584        122.2148          0.32849       -15.38502        0.3284899       -15.38502        0.5824593        122.2149
4.7204                 0.5809608        121.3743        0.3243423       -15.99251        0.3243421       -15.99252        0.5809617        121.3744
4.7218                 0.5794216        120.5492        0.3202508       -16.59719        0.3202506        -16.5972        0.5794226        120.5492
4.7232                 0.5778532        119.7386        0.3162141       -17.19975        0.3162139       -17.19976        0.5778542        119.7387
4.7246                 0.5762667        118.9419        0.3122304       -17.80091        0.3122302       -17.80092        0.5762678         118.942
4.726                  0.5746721         118.158        0.3082972       -18.40138        0.3082969       -18.40139        0.5746732        118.1581
4.7274                 0.5730778         117.386        0.3044118       -19.00185        0.3044115       -19.00186        0.5730789        117.3861
4.7288                 0.5714907        116.6246        0.3005709       -19.60299        0.3005707         -19.603         0.571492        116.6247
4.7302                 0.5699165        115.8728        0.2967712       -20.20541         0.296771       -20.20543        0.5699178        115.8729
4.7316                 0.5683587        115.1293        0.2930087       -20.80969        0.2930084        -20.8097        0.5683601        115.1294
4.733                  0.5668198        114.3931        0.2892794       -21.41631        0.2892791       -21.41632        0.5668213        114.3932
4.7344                 0.5653005        113.6628        0.2855788       -22.02567        0.2855786       -22.02567         0.565302        113.6628
4.7358                 0.5637999        112.9373        0.2819028       -22.63808        0.2819025       -22.63808        0.5638014        112.9374
4.7372                 0.5623159        112.2155        0.2782467       -23.25372        0.2782464       -23.25372        0.5623175        112.2156
4.7386                  0.560845        111.4965        0.2746063       -23.87268         0.274606       -23.87267        0.5608467        111.4966
4.74                   0.5593828        110.7792        0.2709773        -24.4949         0.270977       -24.49488        0.5593845        110.7793
4.7414                 0.5579235        110.0629        0.2673556        -25.1202        0.2673554       -25.12019        0.5579252        110.0629
4.7428                 0.5564608        109.3468        0.2637376       -25.74827        0.2637374       -25.74826        0.5564626        109.3468
4.7442                 0.5549878        108.6303        0.2601199       -26.37868        0.2601196       -26.37865        0.5549896        108.6303
4.7456                  0.553497        107.9129        0.2564996       -27.01084        0.2564993       -27.01081        0.5534988         107.913
4.747                   0.551981        107.1944        0.2528743       -27.64405         0.252874       -27.64402        0.5519828        107.1945
4.7484                  0.550432        106.4746        0.2492423       -28.27752         0.249242       -28.27749        0.5504339        106.4746
4.7498                 0.5488427        105.7534        0.2456023       -28.91032         0.245602       -28.91029        0.5488445        105.7534
4.7512                  0.547206        105.0308        0.2419538       -29.54145        0.2419536       -29.54141        0.5472078        105.0308
4.7526                 0.5455155        104.3071         0.238297       -30.16982        0.2382968       -30.16977        0.5455173        104.3071
4.754                  0.5437654        103.5826        0.2346327       -30.79428        0.2346325       -30.79423        0.5437671        103.5826
4.7554                 0.5419507        102.8578        0.2309625       -31.41366        0.2309623       -31.41361        0.5419522        102.8577
4.7568                 0.5400673         102.133        0.2272884       -32.02674        0.2272882        -32.0267        0.5400689        102.1329
4.7582                 0.5381125        101.4088        0.2236133       -32.63235        0.2236131        -32.6323        0.5381141        101.4088
4.7596                 0.5360846         100.686        0.2199406       -33.22931        0.2199404       -33.22925        0.5360861         100.686
4.761                  0.5339827        99.96516        0.2162742        -33.8165        0.2162741       -33.81645        0.5339842        99.96513
4.7624                 0.5318076        99.24698        0.2126186       -34.39291        0.2126185       -34.39286         0.531809        99.24692
4.7638                 0.5295611        98.53215        0.2089784       -34.95763        0.2089783       -34.95758        0.5295623        98.53206
4.7652                  0.527246         97.8213        0.2053588       -35.50988        0.2053587       -35.50982        0.5272472        97.82121
4.7666                 0.5248664        97.11505        0.2017649       -36.04905        0.2017649       -36.04899        0.5248674        97.11499
4.768                  0.5224272        96.41407        0.1982021       -36.57474        0.1982021       -36.57467        0.5224282        96.41398
4.7694                 0.5199346        95.71876        0.1946756       -37.08673        0.1946756       -37.08667        0.5199355         95.7187
4.7708                 0.5173952        95.02961        0.1911905       -37.58508        0.1911905       -37.58502        0.5173959        95.02952
4.7722                 0.5148162        94.34688        0.1877516       -38.07006        0.1877516       -38.07001        0.5148168         94.3468
4.7736                 0.5122056         93.6708        0.1843633       -38.54225        0.1843633        -38.5422        0.5122062        93.67072
4.775                  0.5095716        93.00141        0.1810295       -39.00246        0.1810295        -39.0024        0.5095721        93.00135
4.7764                 0.5069223        92.33867        0.1777534        -39.4518        0.1777533       -39.45174        0.5069226        92.33858
4.7778                 0.5042658        91.68234        0.1745375       -39.89162        0.1745374       -39.89157        0.5042662        91.68223
