! TOUCHSTONE file generated by CST MICROWAVE STUDIO
! Date and time: Sun Dec  1 17:16:54 2024
! Project name: test_tuning.cst
! Parameters = {airCoaxOuterDiameter=3; chamferAngle=45; chamferWidth=24; connectorLength=10; drillingHoleDiameter=4.1; feedLength=60; flareDiameter=130; flareLength=70; gratingDistance=0; gratingGap=1.90274; outletLength=30; polarizerLength=132; probe1Diameter=1.3; probe1Distance=14; probe1Length=12; probe2Diameter=1.3; probe2Distance=0; probe2Length=12; probeLength=12; smaInnerDiameter=1.3; smaOuterDiameter=4.1; transitionCoefficient=1.33; waveguideFeedLength=30; waveguideSide=50; waveguideThickness=3; wireCount=25; wireDiameter=1.17699}
! Header version: 2024
! Port assignment regex: !\s*Touchstone port\s*([0-9]+)\s*=\s*(CST MWS port|CST DES external port|CST DES block port)\s*(.+)\s* \(\"(.*)\"\)(\s*mode\s*([0-9]+))?.*
! Touchstone port assignment:
! Touchstone port 1 = CST MWS port 1 ("Input1")
! Touchstone port 2 = CST MWS port 2 ("Input2")
# GHz S MA R 50
4.6                    0.2282231       -159.6727        0.5943931        66.96007        0.5943933         66.9601        0.2282234       -159.6727
4.6014                 0.2347187       -160.3537        0.5967272        66.12331        0.5967274        66.12333         0.234719       -160.3538
4.6028                 0.2413291       -161.0401        0.5990317        65.26522         0.599032        65.26523        0.2413294       -161.0402
4.6042                 0.2480539       -161.7343        0.6012841         64.3854        0.6012844        64.38541        0.2480543       -161.7344
4.6056                 0.2548918       -162.4384        0.6034609        63.48373        0.6034611        63.48374        0.2548922       -162.4385
4.607                  0.2618396       -163.1543        0.6055381        62.56032        0.6055384        62.56032          0.26184       -163.1543
4.6084                 0.2688933       -163.8835        0.6074919        61.61557        0.6074922        61.61556        0.2688937       -163.8835
4.6098                 0.2760474       -164.6272        0.6092991        60.65009        0.6092994        60.65009        0.2760478       -164.6273
4.6112                 0.2832956       -165.3866        0.6109369        59.66476        0.6109372        59.66476         0.283296       -165.3867
4.6126                 0.2906307       -166.1623        0.6123838        58.66067        0.6123841        58.66067        0.2906311       -166.1623
4.614                  0.2980446       -166.9547        0.6136199        57.63909        0.6136203        57.63908         0.298045       -166.9547
4.6154                 0.3055288        -167.764        0.6146268         56.6015        0.6146271        56.60148        0.3055292        -167.764
4.6168                 0.3130743       -168.5903        0.6153882        55.54948        0.6153884        55.54947        0.3130747       -168.5903
4.6182                 0.3206718       -169.4334        0.6158899        54.48481        0.6158902         54.4848        0.3206723       -169.4334
4.6196                 0.3283119       -170.2929        0.6161202        53.40934        0.6161204        53.40931        0.3283124       -170.2929
4.621                  0.3359852       -171.1683        0.6160699          52.325        0.6160701        52.32497        0.3359857       -171.1683
4.6224                 0.3436824       -172.0591        0.6157324         51.2338        0.6157325        51.23378        0.3436829       -172.0592
4.6238                 0.3513943       -172.9647        0.6151036        50.13782        0.6151038        50.13779        0.3513948       -172.9647
4.6252                 0.3591122       -173.8842        0.6141826        49.03909        0.6141827        49.03906        0.3591127       -173.8842
4.6266                 0.3668274        -174.817        0.6129704        47.93969        0.6129706        47.93967        0.3668279        -174.817
4.628                  0.3745322       -175.7622        0.6114717        46.84167        0.6114717        46.84164        0.3745327       -175.7622
4.6294                 0.3822187       -176.7192        0.6096926        45.74701        0.6096927        45.74698        0.3822193       -176.7192
4.6308                   0.38988       -177.6871        0.6076424        44.65766        0.6076424        44.65763        0.3898806       -177.6871
4.6322                 0.3975094       -178.6652        0.6053326        43.57545        0.6053326        43.57541        0.3975099       -178.6652
4.6336                 0.4051007       -179.6529        0.6027765        42.50211        0.6027765        42.50209        0.4051012       -179.6529
4.635                  0.4126481        179.3505        0.5999897        41.43928        0.5999896        41.43925        0.4126487        179.3505
4.6364                 0.4201463        178.3456         0.596989        40.38842        0.5969889         40.3884        0.4201469        178.3456
4.6378                 0.4275904        177.3329        0.5937931        39.35086         0.593793        39.35083        0.4275909        177.3328
4.6392                 0.4349754        176.3128        0.5904215        38.32772        0.5904214         38.3277         0.434976        176.3128
4.6406                 0.4422972        175.2858        0.5868946        37.31997        0.5868945        37.31995        0.4422978        175.2858
4.642                  0.4495511        174.2521        0.5832337        36.32836        0.5832335        36.32834        0.4495517        174.2521
4.6434                 0.4567332        173.2122        0.5794596        35.35343        0.5794595        35.35341        0.4567337        173.2122
4.6448                  0.463839        172.1661        0.5755939         34.3955        0.5755937         34.3955        0.4638396        172.1661
4.6462                 0.4708643        171.1142        0.5716571         33.4547        0.5716569        33.45468        0.4708649        171.1142
4.6476                 0.4778048        170.0564        0.5676694        32.53087        0.5676693        32.53087        0.4778054        170.0564
4.649                  0.4846557         168.993        0.5636499        31.62371        0.5636497         31.6237        0.4846564         168.993
4.6504                 0.4914122         167.924        0.5596164        30.73264        0.5596162        30.73263        0.4914128         167.924
4.6518                 0.4980692        166.8495        0.5555853        29.85691         0.555585        29.85691        0.4980698        166.8494
4.6532                  0.504621        165.7694         0.551571        28.99559        0.5515709        28.99558        0.5046216        165.7694
4.6546                 0.5110618        164.6839        0.5475864        28.14756        0.5475862        28.14755        0.5110625        164.6839
4.656                  0.5173852         163.593         0.543642        27.31156        0.5436418        27.31156        0.5173858        163.5929
4.6574                 0.5235845        162.4967        0.5397461        26.48623        0.5397458        26.48623        0.5235851        162.4966
4.6588                 0.5296526        161.3951         0.535905         25.6701        0.5359048        25.67011        0.5296532        161.3951
4.6602                 0.5355818        160.2884        0.5321225        24.86165        0.5321223        24.86166        0.5355824        160.2884
4.6616                 0.5413645        159.1767        0.5284005        24.05934        0.5284003        24.05935        0.5413651        159.1766
4.663                  0.5469924        158.0601        0.5247385        23.26163        0.5247383        23.26164         0.546993        158.0601
4.6644                 0.5524571         156.939        0.5211339        22.46703        0.5211338        22.46704        0.5524578        156.9389
4.6658                 0.5577501        155.8136        0.5175826        21.67411        0.5175824        21.67412        0.5577507        155.8135
4.6672                 0.5628628        154.6842        0.5140786        20.88156        0.5140785        20.88157        0.5628634        154.6842
4.6686                 0.5677863        153.5514        0.5106145        20.08818        0.5106144         20.0882         0.567787        153.5513
4.67                   0.5725124        152.4155        0.5071818        19.29294        0.5071816        19.29295        0.5725131        152.4154
4.6714                 0.5770328         151.277        0.5037709        18.49497        0.5037708        18.49498        0.5770335         151.277
4.6728                 0.5813394        150.1367        0.5003719        17.69358        0.5003717         17.6936          0.58134        150.1367
4.6742                 0.5854249        148.9951        0.4969742         16.8883        0.4969741        16.88831        0.5854255        148.9951
4.6756                 0.5892821         147.853        0.4935675        16.07882        0.4935674        16.07884        0.5892828         147.853
4.677                  0.5929051        146.7112        0.4901414        15.26508        0.4901413        15.26509        0.5929056        146.7111
4.6784                 0.5962881        145.5703        0.4866862        14.44717        0.4866861        14.44719        0.5962888        145.5703
4.6798                 0.5994268        144.4314        0.4831927        13.62541        0.4831926        13.62543        0.5994274        144.4314
4.6812                 0.6023175        143.2953        0.4796527        12.80028        0.4796527        12.80029         0.602318        143.2952
4.6826                 0.6049578        142.1629        0.4760593        11.97242        0.4760592        11.97243        0.6049584        142.1629
4.684                  0.6073462        141.0352        0.4724066        11.14262        0.4724065        11.14264        0.6073468        141.0352
4.6854                 0.6094831        139.9132          0.46869        10.31181          0.46869        10.31183        0.6094836        139.9132
4.6868                 0.6113692        138.7978        0.4649068        9.481014        0.4649067        9.481026        0.6113697        138.7978
4.6882                 0.6130072          137.69        0.4610554        8.651325        0.4610553        8.651337        0.6130078          137.69
4.6896                 0.6144009        136.5909         0.457136        7.823905         0.457136        7.823916        0.6144016        136.5908
4.691                  0.6155556        135.5012        0.4531504        6.999942        0.4531503        6.999953        0.6155562        135.5011
4.6924                 0.6164779        134.4219        0.4491015        6.180622        0.4491015        6.180632        0.6164783        134.4218
4.6938                 0.6171752        133.3538         0.444994        5.367107         0.444994        5.367115        0.6171758        133.3538
4.6952                 0.6176569        132.2978        0.4408339        4.560503        0.4408339        4.560512        0.6176575        132.2978
4.6966                  0.617933        131.2546        0.4366281        3.761842        0.4366281        3.761851        0.6179335        131.2546
4.698                  0.6180147        130.2247        0.4323847        2.972049        0.4323847        2.972057        0.6180152        130.2247
4.6994                 0.6179143        129.2089        0.4281126         2.19192        0.4281126        2.191927        0.6179147        129.2088
4.7008                 0.6176446        128.2074        0.4238214        1.422103        0.4238214         1.42211        0.6176451        128.2074
4.7022                 0.6172194        127.2207         0.419521       0.6630776         0.419521       0.6630849        0.6172199        127.2207
4.7036                 0.6166527         126.249        0.4152214     -0.08486045        0.4152213     -0.08485318        0.6166532         126.249
4.705                  0.6159591        125.2924        0.4109327      -0.8216109        0.4109326      -0.8216037        0.6159596        125.2924
4.7064                 0.6151532        124.3508        0.4066646       -1.547291        0.4066645       -1.547263        0.6151535        124.3508
4.7078                 0.6142493        123.4241        0.4024265       -2.262169        0.4024264       -2.262169        0.6142497        123.4241
4.7092                 0.6132618         122.512        0.3982267       -2.966813        0.3982267       -2.966785        0.6132622         122.512
4.7106                 0.6122044        121.6141         0.394073       -3.661894        0.3940729       -3.661885        0.6122048        121.6141
4.712                  0.6110903        120.7297        0.3899716       -4.348329        0.3899715       -4.348318        0.6110907        120.7297
4.7134                 0.6099318        119.8583        0.3859279       -5.027169        0.3859278       -5.027158        0.6099322        119.8583
4.7148                   0.60874         118.999        0.3819456       -5.699619        0.3819455       -5.699606        0.6087403         118.999
4.7162                  0.607525        118.1509        0.3780272       -6.366992        0.3780271       -6.366979        0.6075254        118.1509
4.7176                 0.6062955         117.313        0.3741735       -7.030688        0.3741733       -7.030674         0.606296         117.313
4.719                   0.605059        116.4843        0.3703836       -7.692151        0.3703835       -7.692135        0.6050593        116.4843
4.7204                 0.6038208        115.6635        0.3666556       -8.352834        0.3666555       -8.352817        0.6038211        115.6635
4.7218                 0.6025852        114.8497        0.3629858       -9.014165        0.3629856       -9.014147        0.6025856        114.8497
4.7232                 0.6013548        114.0414        0.3593693       -9.677503        0.3593692       -9.677483        0.6013552        114.0414
4.7246                 0.6001304        113.2376           0.3558        -10.3441        0.3557999       -10.34408        0.6001307        113.2376
4.726                  0.5989111        112.4371        0.3522708       -11.01509        0.3522707       -11.01507        0.5989114        112.4371
4.7274                 0.5976949        111.6387         0.348774       -11.69141        0.3487739       -11.69139        0.5976952        111.6388
4.7288                 0.5964778        110.8415         0.345301       -12.37383        0.3453009        -12.3738        0.5964782        110.8415
4.7302                 0.5952552        110.0444         0.341843       -13.06288        0.3418429       -13.06285        0.5952555        110.0444
4.7316                 0.5940206        109.2465         0.338391       -13.75887        0.3383909       -13.75884         0.594021        109.2465
4.733                  0.5927668         108.447        0.3349362       -14.46187        0.3349362       -14.46184        0.5927672        108.4471
4.7344                 0.5914862        107.6454        0.3314702        -15.1717        0.3314702       -15.17166        0.5914866        107.6454
4.7358                   0.59017        106.8411         0.327985       -15.88791         0.327985       -15.88788        0.5901704        106.8411
4.7372                 0.5888094        106.0336        0.3244734       -16.60985        0.3244734       -16.60981        0.5888097        106.0336
4.7386                 0.5873951        105.2228        0.3209293       -17.33659        0.3209293       -17.33655        0.5873954        105.2228
4.74                   0.5859181        104.4084        0.3173475       -18.06702        0.3173475       -18.06697        0.5859184        104.4084
4.7414                 0.5843698        103.5906        0.3137243        -18.7998        0.3137243       -18.79976        0.5843701        103.5906
4.7428                 0.5827416        102.7696        0.3100571       -19.53347        0.3100572       -19.53343        0.5827419        102.7696
4.7442                 0.5810259        101.9455        0.3063451       -20.26639        0.3063452       -20.26634        0.5810263        101.9456
4.7456                 0.5792157        101.1189        0.3025887        -20.9968        0.3025888       -20.99676        0.5792161         101.119
4.747                  0.5773053        100.2902          0.29879       -21.72291          0.29879       -21.72287        0.5773056        100.2903
4.7484                 0.5752896        99.46008        0.2949523       -22.44286        0.2949524       -22.44282          0.57529        99.46011
4.7498                 0.5731652        98.62914        0.2910808       -23.15481        0.2910809       -23.15477        0.5731656        98.62916
4.7512                 0.5709297        97.79817        0.2871818       -23.85696        0.2871819       -23.85691        0.5709299        97.79817
4.7526                  0.568582        96.96791        0.2832627        -24.5476        0.2832628       -24.54756        0.5685823        96.96791
4.754                  0.5661226        96.13921        0.2793324       -25.22517        0.2793325       -25.22514         0.566123        96.13924
4.7554                 0.5635534        95.31288        0.2754004       -25.88831        0.2754006       -25.88827        0.5635537        95.31288
4.7568                 0.5608774        94.48968        0.2714772       -26.53585        0.2714773       -26.53582        0.5608777        94.48971
4.7582                  0.558099        93.67042        0.2675736       -27.16693        0.2675737        -27.1669        0.5580993        93.67042
4.7596                 0.5552238        92.85582        0.2637006         -27.781        0.2637008       -27.78099        0.5552241        92.85582
4.761                  0.5522586        92.04649        0.2598697       -28.37787        0.2598698       -28.37785        0.5522589        92.04652
4.7624                 0.5492111        91.24304        0.2560915       -28.95772        0.2560917        -28.9577        0.5492113        91.24306
4.7638                 0.5460896         90.4459        0.2523767       -29.52114        0.2523768       -29.52114        0.5460898        90.44592
4.7652                 0.5429033        89.65537        0.2487347       -30.06917        0.2487348       -30.06916        0.5429035         89.6554
4.7666                 0.5396616        88.87177        0.2451741       -30.60325        0.2451743       -30.60325        0.5396619        88.87176
4.768                  0.5363745        88.09502        0.2417023       -31.12525        0.2417025       -31.12525        0.5363748        88.09502
4.7694                 0.5330516        87.32515        0.2383251       -31.63743        0.2383253       -31.63743        0.5330518        87.32518
4.7708                 0.5297026        86.56187        0.2350466       -32.14242        0.2350467       -32.14243        0.5297028        86.56189
4.7722                 0.5263364        85.80482        0.2318691       -32.64317        0.2318693       -32.64318        0.5263366        85.80485
4.7736                 0.5229617        85.05341        0.2287931       -33.14285        0.2287932       -33.14287         0.522962        85.05346
4.775                  0.5195862        84.30699        0.2258169       -33.64486        0.2258171       -33.64487        0.5195864        84.30702
4.7764                 0.5162167        83.56473        0.2229373       -34.15266        0.2229374       -34.15268        0.5162168        83.56473
4.7778                 0.5128583        82.82565        0.2201489       -34.66977         0.220149       -34.66979        0.5128585        82.82565
