! TOUCHSTONE file generated by CST MICROWAVE STUDIO
! Date and time: Sun Dec  1 17:17:05 2024
! Project name: test_tuning.cst
! Parameters = {airCoaxOuterDiameter=3; chamferAngle=45; chamferWidth=24; connectorLength=10; drillingHoleDiameter=4.1; feedLength=60; flareDiameter=130; flareLength=70; gratingDistance=0; gratingGap=1.90274; outletLength=30; polarizerLength=112; probe1Diameter=1.3; probe1Distance=14; probe1Length=12; probe2Diameter=1.3; probe2Distance=0; probe2Length=12; probeLength=12; smaInnerDiameter=1.3; smaOuterDiameter=4.1; transitionCoefficient=1.33; waveguideFeedLength=30; waveguideSide=50; waveguideThickness=3; wireCount=25; wireDiameter=1.17699}
! Header version: 2024
! Port assignment regex: !\s*Touchstone port\s*([0-9]+)\s*=\s*(CST MWS port|CST DES external port|CST DES block port)\s*(.+)\s* \(\"(.*)\"\)(\s*mode\s*([0-9]+))?.*
! Touchstone port assignment:
! Touchstone port 1 = CST MWS port 1 ("Input1")
! Touchstone port 2 = CST MWS port 2 ("Input2")
# GHz S MA R 50
4.6                    0.1854087       -156.4438         0.672307        61.85232        0.6723069        61.85236        0.1854084       -156.4439
4.6014                 0.1914281       -157.5985        0.6731278        60.93711        0.6731279        60.93716        0.1914277       -157.5986
4.6028                 0.1974772       -158.7282        0.6738752         60.0162        0.6738753        60.01623        0.1974769       -158.7282
4.6042                 0.2035565       -159.8367        0.6745474         59.0897        0.6745476        59.08973        0.2035562       -159.8367
4.6056                 0.2096651       -160.9275        0.6751434        58.15778        0.6751437        58.15781        0.2096648       -160.9275
4.607                  0.2158011       -162.0041        0.6756625        57.22056        0.6756629        57.22058        0.2158009        -162.004
4.6084                 0.2219611       -163.0691        0.6761048        56.27812        0.6761052        56.27812         0.221961        -163.069
4.6098                 0.2281409       -164.1253        0.6764702        55.33052        0.6764706        55.33052        0.2281409       -164.1252
4.6112                 0.2343348       -165.1747        0.6767592        54.37775        0.6767595        54.37774        0.2343349       -165.1745
4.6126                 0.2405362        -166.219        0.6769719        53.41979        0.6769722        53.41976        0.2405365       -166.2189
4.614                  0.2467378       -167.2596        0.6771088        52.45653         0.677109         52.4565        0.2467382       -167.2595
4.6154                 0.2529315       -168.2975        0.6771698        51.48787          0.67717        51.48782         0.252932       -168.2973
4.6168                  0.259109       -169.3332        0.6771547        50.51361        0.6771549        50.51356        0.2591096       -169.3331
4.6182                 0.2652619       -170.3671        0.6770628        49.53356        0.6770629        49.53351        0.2652626        -170.367
4.6196                 0.2713818        -171.399         0.676893        48.54749        0.6768929        48.54744        0.2713826       -171.3989
4.621                   0.277461       -172.4289        0.6766434        47.55515        0.6766431         47.5551        0.2774619       -172.4288
4.6224                 0.2834922       -173.4562        0.6763115         46.5563        0.6763112        46.55623        0.2834931       -173.4561
4.6238                 0.2894689       -174.4804        0.6758944        45.55068         0.675894        45.55062          0.28947       -174.4803
4.6252                 0.2953859       -175.5008        0.6753886        44.53806        0.6753881        44.53801         0.295387       -175.5008
4.6266                 0.3012388       -176.5167        0.6747898        43.51827        0.6747892        43.51822        0.3012399       -176.5167
4.628                  0.3070243       -177.5275        0.6740935        42.49111        0.6740929        42.49106        0.3070254       -177.5275
4.6294                 0.3127403       -178.5325        0.6732947        41.45646        0.6732939        41.45642        0.3127415       -178.5325
4.6308                  0.318386       -179.5312        0.6723882        40.41423        0.6723874        40.41421        0.3183871       -179.5312
4.6322                  0.323961        179.4769        0.6713686        39.36442        0.6713677         39.3644        0.3239622        179.4769
4.6336                 0.3294664         178.492        0.6702306        38.30702        0.6702297        38.30701        0.3294676         178.492
4.635                  0.3349033        177.5144        0.6689688        37.24211         0.668968        37.24209        0.3349046        177.5143
4.6364                 0.3402738        176.5439        0.6675783        36.16979        0.6675775        36.16979         0.340275        176.5438
4.6378                 0.3455797        175.5804        0.6660542        35.09023        0.6660534        35.09024        0.3455809        175.5804
4.6392                 0.3508232        174.6238        0.6643922        34.00361        0.6643914        34.00362        0.3508244        174.6237
4.6406                 0.3560059        173.6735        0.6625882        32.91014        0.6625873        32.91017        0.3560071        173.6734
4.642                  0.3611294        172.7291        0.6606386        31.81007        0.6606379         31.8101        0.3611305        172.7291
4.6434                 0.3661943        171.7902        0.6585406        30.70363          0.65854        30.70366        0.3661955        171.7901
4.6448                 0.3712009         170.856        0.6562913        29.59107        0.6562909         29.5911        0.3712021         170.856
4.6462                 0.3761485        169.9262        0.6538887        28.47262        0.6538882        28.47266        0.3761496        169.9261
4.6476                 0.3810357        169.0001        0.6513306        27.34853        0.6513302        27.34857        0.3810368             169
4.649                  0.3858604        168.0773        0.6486152          26.219        0.6486149        26.21903        0.3858615        168.0773
4.6504                 0.3906199        167.1576        0.6457411        25.08423        0.6457408        25.08426        0.3906209        167.1575
4.6518                 0.3953108        166.2406        0.6427066        23.94442        0.6427063        23.94445        0.3953118        166.2405
4.6532                 0.3999297        165.3262        0.6395099        22.79972        0.6395096        22.79975        0.3999307        165.3262
4.6546                  0.404473        164.4146        0.6361492        21.65031        0.6361491        21.65033        0.4044739        164.4145
4.656                   0.408937        163.5057        0.6326226        20.49634        0.6326225        20.49637         0.408938        163.5056
4.6574                 0.4133189           162.6        0.6289276          19.338        0.6289274        19.33802        0.4133198        162.5999
4.6588                 0.4176162        161.6978        0.6250614        18.17548        0.6250613        18.17549         0.417617        161.6977
4.6602                 0.4218271        160.7995        0.6210211        17.00901        0.6210209        17.00902         0.421828        160.7994
4.6616                 0.4259515        159.9057        0.6168034        15.83887        0.6168032        15.83888        0.4259523        159.9056
4.663                  0.4299899        159.0169        0.6124047        14.66542        0.6124045        14.66542        0.4299907        159.0168
4.6644                 0.4339445        158.1336        0.6078213        13.48907         0.607821        13.48907        0.4339453        158.1336
4.6658                 0.4378187        157.2564        0.6030497        12.31036        0.6030493        12.31036        0.4378194        157.2563
4.6672                 0.4416173        156.3855        0.5980862        11.12991        0.5980858        11.12991        0.4416181        156.3855
4.6686                 0.4453466        155.5213        0.5929278        9.948482        0.5929275        9.948479        0.4453474        155.5213
4.67                   0.4490136        154.6638        0.5875719        8.766954        0.5875716        8.766953        0.4490143        154.6638
4.6714                 0.4526265         153.813        0.5820168        7.586345        0.5820164        7.586344        0.4526272        153.8129
4.6728                 0.4561939        152.9685        0.5762615        6.407812        0.5762611        6.407815        0.4561947        152.9685
4.6742                  0.459725        152.1298        0.5703066        5.232655        0.5703061        5.232662        0.4597259        152.1298
4.6756                 0.4632283        151.2962        0.5641537        4.062308        0.5641533        4.062318        0.4632292        151.2962
4.677                  0.4667125        150.4668        0.5578064        2.898336        0.5578059        2.898351        0.4667134        150.4668
4.6784                 0.4701847        149.6402        0.5512697        1.742421        0.5512692        1.742442        0.4701857        149.6402
4.6798                 0.4736512        148.8153        0.5445508       0.5963492        0.5445502       0.5963755        0.4736522        148.8153
4.6812                 0.4771164        147.9905        0.5376585      -0.5380105         0.537658      -0.5379782        0.4771175        147.9905
4.6826                 0.4805827        147.1642        0.5306039       -1.658726        0.5306034       -1.658688        0.4805839        147.1642
4.684                  0.4840503        146.3348        0.5234002        -2.76383        0.5233997       -2.763787        0.4840516        146.3348
4.6854                 0.4875171        145.5005        0.5160621       -3.851351        0.5160616       -3.851303        0.4875184        145.5005
4.6868                 0.4909781        144.6598        0.5086065        -4.91934        0.5086061       -4.919286        0.4909795        144.6598
4.6882                 0.4944262        143.8111        0.5010519       -5.965906        0.5010516       -5.965849        0.4944278        143.8111
4.6896                 0.4978516         142.953        0.4934183       -6.989259        0.4934181       -6.989197        0.4978531         142.953
4.691                  0.5012421        142.0844        0.4857269       -7.987732        0.4857267       -7.987669        0.5012437        142.0843
4.6924                 0.5045838        141.2041        0.4779996       -8.959834        0.4779996       -8.959769        0.5045854        141.2041
4.6938                 0.5078607        140.3117        0.4702595       -9.904273        0.4702594       -9.904206        0.5078623        140.3116
4.6952                 0.5110558        139.4064        0.4625292       -10.81999        0.4625292       -10.81992        0.5110573        139.4064
4.6966                 0.5141507        138.4883        0.4548317       -11.70621        0.4548318       -11.70615        0.5141522        138.4883
4.698                  0.5171269        137.5575        0.4471894       -12.56242        0.4471895       -12.56236        0.5171285        137.5574
4.6994                 0.5199662        136.6142        0.4396236       -13.38845        0.4396238       -13.38839        0.5199676        136.6141
4.7008                 0.5226501        135.6594        0.4321546       -14.18447        0.4321548       -14.18441        0.5226515        135.6593
4.7022                 0.5251617        134.6938         0.424801       -14.95092        0.4248013       -14.95087        0.5251629        134.6937
4.7036                 0.5274849        133.7188        0.4175795       -15.68864        0.4175798       -15.68859        0.5274861        133.7186
4.705                  0.5296058        132.7355        0.4105046       -16.39876        0.4105049        -16.3987        0.5296068        132.7354
4.7064                 0.5315121        131.7457        0.4035884       -17.08265        0.4035888       -17.08263         0.531513        131.7456
4.7078                 0.5331939        130.7509        0.3968405       -17.74208        0.3968409       -17.74205        0.5331947        130.7508
4.7092                 0.5346439        129.7529         0.390268       -18.37895        0.3902683       -18.37893        0.5346446        129.7528
4.7106                 0.5358571        128.7536        0.3838749       -18.99529        0.3838753       -18.99528        0.5358577        128.7534
4.712                  0.5368313        127.7546        0.3776633       -19.59337        0.3776637       -19.59337        0.5368318        127.7544
4.7134                 0.5375668        126.7577        0.3716323       -20.17546        0.3716327       -20.17546        0.5375672        126.7576
4.7148                 0.5380663        125.7648         0.365779       -20.74384        0.3657793       -20.74385        0.5380667        125.7647
4.7162                 0.5383349        124.7773        0.3600983       -21.30076        0.3600987       -21.30077        0.5383352        124.7772
4.7176                 0.5383798        123.7968        0.3545836       -21.84836         0.354584       -21.84838        0.5383801        123.7967
4.719                  0.5382098        122.8246        0.3492267       -22.38863         0.349227       -22.38866          0.53821        122.8245
4.7204                 0.5378355        121.8619        0.3440185       -22.92339        0.3440188       -22.92342        0.5378358        121.8618
4.7218                 0.5372685        120.9096        0.3389488       -23.45421        0.3389491       -23.45425        0.5372687        120.9095
4.7232                 0.5365212        119.9686        0.3340076       -23.98245        0.3340079       -23.98249        0.5365213        119.9685
4.7246                 0.5356063        119.0394        0.3291845        -24.5092        0.3291848       -24.50924        0.5356064        119.0393
4.726                   0.534537        118.1225        0.3244692       -25.03531        0.3244695       -25.03536         0.534537        118.1224
4.7274                 0.5333259         117.218        0.3198524       -25.56139        0.3198526       -25.56145         0.533326         117.218
4.7288                 0.5319854        116.3261         0.315325       -26.08782        0.3153252       -26.08789        0.5319855        116.3261
4.7302                 0.5305268        115.4467        0.3108789       -26.61481        0.3108791       -26.61488        0.5305269        115.4467
4.7316                 0.5289608        114.5796        0.3065071       -27.14237        0.3065072       -27.14245        0.5289608        114.5795
4.733                  0.5272966        113.7244        0.3022034       -27.67041        0.3022036       -27.67049        0.5272966        113.7243
4.7344                 0.5255427        112.8808         0.297963        -28.1987         0.297963        -28.1988        0.5255426        112.8807
4.7358                 0.5237058        112.0483        0.2937815       -28.72703        0.2937816       -28.72712        0.5237057        112.0483
4.7372                 0.5217919        111.2266         0.289656       -29.25508        0.2896559       -29.25518        0.5217917        111.2265
4.7386                 0.5198057        110.4152        0.2855839        -29.7826        0.2855839        -29.7827        0.5198054        110.4151
4.74                   0.5177507        109.6137        0.2815637       -30.30934        0.2815636       -30.30945        0.5177504        109.6136
4.7414                 0.5156302        108.8217        0.2775941       -30.83516        0.2775939       -30.83526        0.5156297        108.8217
4.7428                  0.513446        108.0391        0.2736743       -31.35993        0.2736742       -31.36003        0.5134455        108.0391
4.7442                 0.5112004        107.2656        0.2698039       -31.88365        0.2698037       -31.88376        0.5111998        107.2656
4.7456                 0.5088949        106.5011        0.2659822        -32.4064         0.265982       -32.40652        0.5088942        106.5011
4.747                  0.5065313        105.7455        0.2622089       -32.92836        0.2622086       -32.92847        0.5065305        105.7455
4.7484                 0.5041115         104.999        0.2584832       -33.44977        0.2584828       -33.44987        0.5041105         104.999
4.7498                 0.5016376        104.2615        0.2548043       -33.97094        0.2548039       -33.97103        0.5016366        104.2615
4.7512                 0.4991125        103.5332         0.251171       -34.49223        0.2511706       -34.49232        0.4991115        103.5332
4.7526                 0.4965394        102.8142        0.2475819       -35.01405        0.2475814       -35.01413        0.4965384        102.8143
4.754                  0.4939224        102.1048        0.2440353       -35.53678        0.2440347       -35.53685        0.4939212        102.1049
4.7554                 0.4912657        101.4051         0.240529       -36.06082        0.2405285       -36.06088        0.4912645        101.4052
4.7568                 0.4885745        100.7152        0.2370609       -36.58652        0.2370604       -36.58656        0.4885734        100.7153
4.7582                 0.4858543        100.0351        0.2336286       -37.11417         0.233628        -37.1142        0.4858532        100.0352
4.7596                 0.4831107        99.36482        0.2302294       -37.64399        0.2302288       -37.64402        0.4831098        99.36493
4.761                    0.48035        98.70421         0.226861       -38.17614        0.2268604       -38.17616         0.480349        98.70437
4.7624                 0.4775778        98.05315        0.2235208       -38.71069        0.2235202       -38.71068         0.477577        98.05332
4.7638                    0.4748        97.41124        0.2202065       -39.24758        0.2202059       -39.24756        0.4747993        97.41143
4.7652                  0.472022        96.77814        0.2169161       -39.78672        0.2169156       -39.78668        0.4720214        96.77836
4.7666                 0.4692484        96.15334        0.2136478       -40.32791        0.2136473       -40.32786         0.469248        96.15353
4.768                  0.4664834        95.53616        0.2104002        -40.8709        0.2103997       -40.87083        0.4664832        95.53638
4.7694                 0.4637302        94.92603        0.2071722       -41.41538        0.2071717       -41.41531        0.4637302        94.92628
4.7708                 0.4609911         94.3222         0.203963       -41.96104        0.2039627       -41.96096        0.4609912        94.32244
4.7722                 0.4582674         93.7239        0.2007725       -42.50753        0.2007721       -42.50744        0.4582676        93.72414
4.7736                 0.4555593        93.13048        0.1976005       -43.05454        0.1976002       -43.05443        0.4555597        93.13067
4.775                  0.4528663         92.5411        0.1944475       -43.60176        0.1944472       -43.60166        0.4528668        92.54129
4.7764                 0.4501869        91.95515         0.191314         -44.149        0.1913138       -44.14889        0.4501875        91.95537
4.7778                 0.4475187          91.372        0.1882008       -44.69609        0.1882006       -44.69597        0.4475195        91.37219
