! TOUCHSTONE file generated by CST MICROWAVE STUDIO
! Date and time: Sun Dec  1 17:17:01 2024
! Project name: test_tuning.cst
! Parameters = {airCoaxOuterDiameter=3; chamferAngle=45; chamferWidth=24; connectorLength=10; drillingHoleDiameter=4.1; feedLength=60; flareDiameter=130; flareLength=70; gratingDistance=0; gratingGap=1.90274; outletLength=30; polarizerLength=90; probe1Diameter=1.3; probe1Distance=14; probe1Length=12; probe2Diameter=1.3; probe2Distance=0; probe2Length=12; probeLength=12; smaInnerDiameter=1.3; smaOuterDiameter=4.1; transitionCoefficient=1.33; waveguideFeedLength=30; waveguideSide=50; waveguideThickness=3; wireCount=25; wireDiameter=1.17699}
! Header version: 2024
! Port assignment regex: !\s*Touchstone port\s*([0-9]+)\s*=\s*(CST MWS port|CST DES external port|CST DES block port)\s*(.+)\s* \(\"(.*)\"\)(\s*mode\s*([0-9]+))?.*
! Touchstone port assignment:
! Touchstone port 1 = CST MWS port 1 ("Input1")
! Touchstone port 2 = CST MWS port 2 ("Input2")
# GHz S MA R 50
4.6                    0.2374834       -159.5004         0.615785        69.81868         0.615785        69.81865        0.2374835       -159.5006
4.6014                 0.2446425       -160.5264        0.6177839        68.87708        0.6177839        68.87704        0.2446426       -160.5266
4.6028                 0.2518142       -161.5508        0.6196826        67.92732        0.6196826        67.92727        0.2518143        -161.551
4.6042                 0.2589957       -162.5744        0.6214766         66.9696        0.6214765        66.96955        0.2589957       -162.5746
4.6056                 0.2661841       -163.5975        0.6231611         66.0042         0.623161        66.00415        0.2661841       -163.5977
4.607                  0.2733762       -164.6208         0.624732         65.0314        0.6247319        65.03136        0.2733762        -164.621
4.6084                 0.2805687       -165.6447        0.6261855        64.05154        0.6261854        64.05148        0.2805687       -165.6449
4.6098                 0.2877581       -166.6698         0.627518        63.06491        0.6275179        63.06487        0.2877581       -166.6699
4.6112                 0.2949405       -167.6963        0.6287263        62.07189        0.6287264        62.07184        0.2949404       -167.6965
4.6126                 0.3021116       -168.7248        0.6298079        61.07282        0.6298078        61.07277        0.3021115       -168.7249
4.614                   0.309267       -169.7555        0.6307601        60.06807          0.63076        60.06803        0.3092669       -169.7556
4.6154                 0.3164018       -170.7888        0.6315812        59.05802        0.6315811        59.05799        0.3164018       -170.7889
4.6168                  0.323511        -171.825        0.6322697        58.04302        0.6322696        58.04299        0.3235109       -171.8251
4.6182                 0.3305891       -172.8642        0.6328244        57.02345        0.6328243        57.02341         0.330589       -172.8643
4.6196                 0.3376304       -173.9066        0.6332447        55.99965        0.6332445        55.99962        0.3376303       -173.9067
4.621                  0.3446289       -174.9523        0.6335302        54.97197        0.6335301        54.97194        0.3446288       -174.9524
4.6224                 0.3515783       -176.0014        0.6336812        53.94072         0.633681         53.9407        0.3515782       -176.0015
4.6238                 0.3584723       -177.0538        0.6336977        52.90624        0.6336975        52.90621        0.3584723       -177.0539
4.6252                 0.3653043       -178.1095        0.6335806         51.8688        0.6335804        51.86878        0.3653043       -178.1096
4.6266                 0.3720676       -179.1684        0.6333308        50.82869        0.6333307        50.82866        0.3720676       -179.1684
4.628                  0.3787554        179.7698        0.6329495        49.78614        0.6329492        49.78612        0.3787554        179.7698
4.6294                 0.3853609        178.7052        0.6324377         48.7414        0.6324375        48.74137         0.385361        178.7052
4.6308                 0.3918774        177.6381        0.6317973        47.69465        0.6317971        47.69464        0.3918775        177.6381
4.6322                 0.3982983        176.5688        0.6310296         46.6461        0.6310294        46.64608        0.3982984        176.5688
4.6336                  0.404617        175.4977        0.6301364        45.59589        0.6301361        45.59589        0.4046172        175.4976
4.635                  0.4108272        174.4251        0.6291192        44.54419         0.629119        44.54417        0.4108275         174.425
4.6364                  0.416923        173.3514        0.6279799         43.4911        0.6279797         43.4911        0.4169232        173.3514
4.6378                 0.4228986        172.2771          0.62672        42.43674        0.6267198        42.43673        0.4228988        172.2771
4.6392                 0.4287484        171.2027        0.6253413         41.3812        0.6253411        41.38119        0.4287487        171.2027
4.6406                 0.4344676        170.1286        0.6238452        40.32455         0.623845        40.32455        0.4344679        170.1286
4.642                  0.4400514        169.0553        0.6222332        39.26689        0.6222331        39.26688        0.4400518        169.0553
4.6434                 0.4454958        167.9833        0.6205068        38.20826        0.6205068        38.20825        0.4454962        167.9833
4.6448                  0.450797        166.9131        0.6186674        37.14872        0.6186673        37.14872        0.4507975        166.9131
4.6462                 0.4559518        165.8451        0.6167161        36.08833         0.616716        36.08833        0.4559523        165.8451
4.6476                 0.4609576        164.7799        0.6146541        35.02715         0.614654        35.02715        0.4609581        164.7798
4.649                   0.465812        163.7178        0.6124825        33.96524        0.6124824        33.96524        0.4658125        163.7178
4.6504                 0.4705134        162.6594        0.6102024        32.90268        0.6102023        32.90268        0.4705139        162.6593
4.6518                 0.4750605        161.6049        0.6078148        31.83951        0.6078147        31.83951         0.475061        161.6049
4.6532                 0.4794525        160.5549        0.6053208        30.77584        0.6053207        30.77585        0.4794531        160.5549
4.6546                 0.4836891        159.5097        0.6027211        29.71176        0.6027211        29.71177        0.4836896        159.5097
4.656                  0.4877703        158.4696        0.6000172        28.64737        0.6000171        28.64738        0.4877709        158.4695
4.6574                 0.4916966        157.4348          0.59721        27.58279          0.59721        27.58279        0.4916972        157.4348
4.6588                 0.4954687        156.4057        0.5943009        26.51814        0.5943009        26.51814        0.4954692        156.4057
4.6602                 0.4990877        155.3825        0.5912911        25.45355        0.5912911        25.45356        0.4990883        155.3824
4.6616                 0.5025548        154.3653        0.5881823        24.38919        0.5881823         24.3892        0.5025554        154.3652
4.663                  0.5058716        153.3542        0.5849761        23.32521        0.5849761        23.32521        0.5058721        153.3542
4.6644                 0.5090396        152.3495        0.5816745        22.26177        0.5816746        22.26177        0.5090401        152.3494
4.6658                 0.5120604        151.3511        0.5782795        21.19905        0.5782795        21.19905        0.5120609        151.3511
4.6672                 0.5149358        150.3592        0.5747936        20.13721        0.5747936        20.13721        0.5149362        150.3591
4.6686                 0.5176675        149.3736        0.5712191        19.07643        0.5712192        19.07643        0.5176679        149.3736
4.67                   0.5202571        148.3945        0.5675593        18.01688        0.5675593        18.01687        0.5202575        148.3944
4.6714                 0.5227061        147.4218        0.5638168         16.9587        0.5638169         16.9587        0.5227065        147.4217
4.6728                 0.5250157        146.4554        0.5599952        15.90207        0.5599953        15.90206        0.5250162        146.4553
4.6742                 0.5271873        145.4952        0.5560979         14.8471        0.5560979        14.84709        0.5271879        145.4952
4.6756                  0.529222        144.5413        0.5521285         13.7939        0.5521286         13.7939        0.5292223        144.5413
4.677                  0.5311202        143.5936        0.5480912        12.74257        0.5480913        12.74256        0.5311205        143.5935
4.6784                 0.5328826        142.6519        0.5439898        11.69316          0.54399        11.69315        0.5328828        142.6519
4.6798                 0.5345094        141.7163        0.5398286        10.64569        0.5398287        10.64569        0.5345097        141.7162
4.6812                 0.5360006        140.7866        0.5356117         9.60017        0.5356118         9.60016         0.536001        140.7866
4.6826                 0.5373563         139.863        0.5313433         8.55653        0.5313433         8.55652        0.5373566         139.863
4.684                  0.5385759        138.9454        0.5270277        7.514682        0.5270278        7.514671        0.5385762        138.9453
4.6854                 0.5396592        138.0338        0.5226689        6.474487         0.522669        6.474475        0.5396594        138.0338
4.6868                 0.5406052        137.1283         0.518271        5.435758        0.5182711        5.435745        0.5406055        137.1283
4.6882                 0.5414135        136.2291        0.5138379        4.398256         0.513838        4.398242        0.5414136        136.2291
4.6896                 0.5420833        135.3363         0.509373        3.361696        0.5093731        3.361681        0.5420834        135.3363
4.691                  0.5426138        134.4501        0.5048796        2.325742        0.5048798        2.325726         0.542614        134.4501
4.6924                 0.5430048        133.5708        0.5003608        1.290008        0.5003608         1.28999         0.543005        133.5708
4.6938                 0.5432556        132.6987         0.495819       0.2540603         0.495819       0.2540422        0.5432558        132.6987
4.6952                 0.5433663        131.8342        0.4912564       -0.782576        0.4912564      -0.7825951        0.5433665        131.8342
4.6966                 0.5433369        130.9775        0.4866745        -1.82042        0.4866746        -1.82044        0.5433371        130.9775
4.698                  0.5431681        130.1293        0.4820747       -2.860026        0.4820747       -2.860047        0.5431684        130.1293
4.6994                  0.542861          129.29        0.4774575       -3.901979        0.4774575       -3.902001        0.5428612          129.29
4.7008                 0.5424168          128.46         0.472823       -4.946893        0.4728231       -4.946916        0.5424172        128.4601
4.7022                 0.5418381        127.6401        0.4681708       -5.995389        0.4681709       -5.995416        0.5418384        127.6401
4.7036                 0.5411274        126.8308        0.4634998       -7.048115        0.4634999       -7.048141        0.5411277        126.8308
4.705                  0.5402881        126.0326        0.4588086       -8.105751        0.4588086        -8.10575        0.5402884        126.0326
4.7064                 0.5393244        125.2464         0.454095       -9.168897         0.454095       -9.168924        0.5393249        125.2464
4.7078                 0.5382414        124.4727        0.4493564       -10.23818        0.4493565       -10.23823        0.5382419        124.4727
4.7092                 0.5370448        123.7122          0.44459       -11.31424          0.44459       -11.31427        0.5370452        123.7122
4.7106                 0.5357409        122.9655        0.4397921       -12.39767        0.4397921       -12.39769        0.5357414        122.9655
4.712                  0.5343373        122.2333        0.4349592       -13.48898        0.4349591       -13.48901        0.5343377        122.2333
4.7134                  0.532842        121.5161        0.4300868        -14.5887        0.4300868       -14.58872        0.5328425        121.5161
4.7148                 0.5312638        120.8146        0.4251709       -15.69727        0.4251709       -15.69729        0.5312643        120.8146
4.7162                 0.5296124        120.1293        0.4202068       -16.81508        0.4202067       -16.81511        0.5296129        120.1293
4.7176                 0.5278981        119.4606        0.4151898       -17.94248        0.4151897       -17.94251        0.5278986        119.4606
4.719                  0.5261316        118.8088        0.4101153       -19.07972        0.4101153       -19.07974        0.5261321        118.8089
4.7204                 0.5243243        118.1744        0.4049787       -20.22699        0.4049786       -20.22701        0.5243249        118.1744
4.7218                 0.5224882        117.5574        0.3997754       -21.38438        0.3997753        -21.3844        0.5224888        117.5574
4.7232                 0.5206353        116.9579        0.3945011       -22.55195         0.394501       -22.55197        0.5206358         116.958
4.7246                  0.518778         116.376        0.3891517       -23.72962        0.3891516       -23.72964        0.5187786         116.376
4.726                  0.5169287        115.8115        0.3837235       -24.91726        0.3837234       -24.91727        0.5169292        115.8115
4.7274                    0.5151         115.264        0.3782132       -26.11464        0.3782131       -26.11465        0.5151005         115.264
4.7288                 0.5133038        114.7331        0.3726178       -27.32145        0.3726177       -27.32146        0.5133043        114.7331
4.7302                 0.5115523        114.2183        0.3669351       -28.53728         0.366935        -28.5373        0.5115528        114.2183
4.7316                 0.5098567        113.7188        0.3611631       -29.76167         0.361163       -29.76169        0.5098572        113.7188
4.733                   0.508228        113.2339        0.3553008       -30.99405        0.3553008       -30.99406        0.5082285        113.2339
4.7344                 0.5066761        112.7625        0.3493476       -32.23376        0.3493475       -32.23377        0.5066766        112.7625
4.7358                 0.5052103        112.3034        0.3433035        -33.4801        0.3433035       -33.48011        0.5052108        112.3034
4.7372                 0.5038388        111.8555        0.3371695       -34.73227        0.3371694       -34.73227        0.5038392        111.8554
4.7386                 0.5025686        111.4173        0.3309468       -35.98939        0.3309468       -35.98939         0.502569        111.4173
4.74                   0.5014055        110.9876        0.3246379       -37.25055        0.3246379       -37.25055        0.5014059        110.9876
4.7414                 0.5003542        110.5646        0.3182455       -38.51473        0.3182455       -38.51474        0.5003545        110.5646
4.7428                 0.4994177         110.147        0.3117732        -39.7809        0.3117732        -39.7809        0.4994181         110.147
4.7442                 0.4985982        109.7329        0.3052253       -41.04793        0.3052253       -41.04793        0.4985985        109.7329
4.7456                 0.4978958        109.3209        0.2986067       -42.31467        0.2986067       -42.31467        0.4978961        109.3209
4.747                  0.4973097        108.9092         0.291923        -43.5799         0.291923       -43.57991          0.49731        108.9092
4.7484                 0.4968374        108.4963          0.28518        -44.8424        0.2851801        -44.8424        0.4968378        108.4963
4.7498                 0.4964755        108.0806        0.2783847       -46.10085        0.2783848       -46.10086        0.4964758        108.0806
4.7512                 0.4962189        107.6606        0.2715441       -47.35396        0.2715441       -47.35396        0.4962192        107.6606
4.7526                 0.4960615        107.2349        0.2646656       -48.60037        0.2646657       -48.60037        0.4960618        107.2349
4.754                  0.4959962         106.802        0.2577574       -49.83872        0.2577575       -49.83872        0.4959965        106.8021
4.7554                 0.4960148         106.361        0.2508277       -51.06762        0.2508278       -51.06764        0.4960151         106.361
4.7568                 0.4961084        105.9105        0.2438852       -52.28569        0.2438852        -52.2857        0.4961086        105.9105
4.7582                 0.4962671        105.4497        0.2369384       -53.49152        0.2369385       -53.49153        0.4962673        105.4498
4.7596                 0.4964808        104.9778        0.2299964       -54.68373        0.2299965       -54.68374        0.4964811        104.9778
4.761                  0.4967388         104.494        0.2230683       -55.86091        0.2230683       -55.86092        0.4967391         104.494
4.7624                 0.4970302        103.9978        0.2161629       -57.02171         0.216163       -57.02172        0.4970304        103.9978
4.7638                 0.4973436        103.4887        0.2092893       -58.16477        0.2092894       -58.16479        0.4973439        103.4888
4.7652                  0.497668        102.9666        0.2024564       -59.28879        0.2024565        -59.2888        0.4976683        102.9666
4.7666                 0.4979923        102.4313        0.1956728       -60.39247        0.1956729        -60.3925        0.4979926        102.4313
4.768                  0.4983056        101.8826        0.1889469       -61.47459         0.188947       -61.47461        0.4983059        101.8827
4.7694                 0.4985974        101.3209        0.1822868         -62.534        0.1822869       -62.53404        0.4985978        101.3209
4.7708                 0.4988576        100.7462        0.1757003       -63.56959        0.1757004       -63.56963        0.4988579        100.7462
4.7722                 0.4990765        100.1589        0.1691947       -64.58035        0.1691948       -64.58039        0.4990769        100.1589
4.7736                 0.4992452         99.5593        0.1627769       -65.56534        0.1627769       -65.56539        0.4992455        99.55933
4.775                  0.4993552        98.94796        0.1564531       -66.52374        0.1564532       -66.52379        0.4993556        98.94799
4.7764                 0.4993989        98.32539        0.1502291       -67.45484        0.1502292       -67.45489        0.4993993        98.32542
4.7778                 0.4993694        97.69223        0.1441101         -68.358        0.1441101       -68.35806        0.4993698        97.69225
