! TOUCHSTONE file generated by CST MICROWAVE STUDIO
! Date and time: Sun Dec  1 17:16:56 2024
! Project name: test_tuning.cst
! Parameters = {airCoaxOuterDiameter=3; chamferAngle=45; chamferWidth=24; connectorLength=10; drillingHoleDiameter=4.1; feedLength=60; flareDiameter=130; flareLength=70; gratingDistance=0; gratingGap=1.90274; outletLength=30; polarizerLength=64; probe1Diameter=1.3; probe1Distance=14; probe1Length=12; probe2Diameter=1.3; probe2Distance=0; probe2Length=12; probeLength=12; smaInnerDiameter=1.3; smaOuterDiameter=4.1; transitionCoefficient=1.33; waveguideFeedLength=30; waveguideSide=50; waveguideThickness=3; wireCount=25; wireDiameter=1.17699}
! Header version: 2024
! Port assignment regex: !\s*Touchstone port\s*([0-9]+)\s*=\s*(CST MWS port|CST DES external port|CST DES block port)\s*(.+)\s* \(\"(.*)\"\)(\s*mode\s*([0-9]+))?.*
! Touchstone port assignment:
! Touchstone port 1 = CST MWS port 1 ("Input1")
! Touchstone port 2 = CST MWS port 2 ("Input2")
# GHz S MA R 50
4.6                    0.2319056       -167.0867        0.6555996        66.87884        0.6555997        66.87886        0.2319056       -167.0868
4.6014                 0.2382013       -168.2104        0.6575032        66.04059        0.6575033        66.04061        0.2382013       -168.2105
4.6028                 0.2444677       -169.3209        0.6593288        65.19324         0.659329        65.19325        0.2444677        -169.321
4.6042                 0.2507022       -170.4193        0.6610723        64.33698        0.6610725          64.337        0.2507022       -170.4194
4.6056                 0.2569023       -171.5065        0.6627293        63.47208        0.6627295        63.47211        0.2569023       -171.5066
4.607                  0.2630656       -172.5833         0.664296        62.59876        0.6642963        62.59877        0.2630656       -172.5834
4.6084                 0.2691897       -173.6505        0.6657684        61.71728        0.6657686        61.71731        0.2691897       -173.6506
4.6098                 0.2752724       -174.7087        0.6671428        60.82789        0.6671431         60.8279        0.2752724       -174.7088
4.6112                 0.2813113       -175.7585        0.6684157        59.93085         0.668416        59.93087        0.2813114       -175.7586
4.6126                 0.2873044       -176.8005        0.6695839        59.02643        0.6695841        59.02646        0.2873045       -176.8005
4.614                  0.2932495       -177.8351        0.6706442        58.11491        0.6706444        58.11493        0.2932496       -177.8352
4.6154                 0.2991445       -178.8629        0.6715934        57.19654        0.6715938        57.19656        0.2991446        -178.863
4.6168                 0.3049874       -179.8842         0.672429        56.27162        0.6724293        56.27164        0.3049875       -179.8843
4.6182                 0.3107762        179.1006        0.6731483        55.34041        0.6731487        55.34043        0.3107763        179.1005
4.6196                  0.316509        178.0911         0.673749         54.4032        0.6737492        54.40323        0.3165091         178.091
4.621                   0.322184         177.087        0.6742288        53.46028        0.6742291         53.4603        0.3221841        177.0869
4.6224                 0.3277992        176.0881        0.6745856        52.51192        0.6745859        52.51194        0.3277994         176.088
4.6238                  0.333353         175.094        0.6748176         51.5584        0.6748181        51.55842        0.3333531        175.0939
4.6252                 0.3388436        174.1045        0.6749234        50.60002        0.6749238        50.60004        0.3388437        174.1044
4.6266                 0.3442693        173.1194        0.6749014        49.63706        0.6749017        49.63708        0.3442695        173.1193
4.628                  0.3496285        172.1385        0.6747502         48.6698        0.6747506        48.66982        0.3496287        172.1384
4.6294                 0.3549196        171.1615        0.6744688        47.69854        0.6744693        47.69855        0.3549197        171.1615
4.6308                  0.360141        170.1884        0.6740565        46.72353        0.6740569        46.72355        0.3601411        170.1883
4.6322                 0.3652911        169.2188        0.6735125         45.7451        0.6735128        45.74511        0.3652912        169.2188
4.6336                 0.3703685        168.2527        0.6728361        44.76349        0.6728366         44.7635        0.3703687        168.2527
4.635                  0.3753718        167.2899        0.6720274          43.779        0.6720278        43.77901         0.375372        167.2899
4.6364                 0.3802995        166.3303        0.6710858        42.79191        0.6710862        42.79192        0.3802998        166.3303
4.6378                 0.3851503        165.3737        0.6700116         41.8025        0.6700121        41.80251        0.3851505        165.3737
4.6392                 0.3899228          164.42        0.6688051        40.81105        0.6688054        40.81106         0.389923          164.42
4.6406                 0.3946157        163.4692        0.6674663        39.81782        0.6674667        39.81784        0.3946159        163.4691
4.642                  0.3992276         162.521         0.665996        38.82311        0.6659965        38.82312        0.3992278        162.5209
4.6434                 0.4037574        161.5754        0.6643951        37.82718        0.6643954        37.82719        0.4037576        161.5753
4.6448                 0.4082038        160.6322         0.662664        36.83031        0.6626645        36.83031         0.408204        160.6322
4.6462                 0.4125654        159.6915        0.6608042        35.83276        0.6608046        35.83276        0.4125657        159.6915
4.6476                 0.4168413         158.753        0.6588167         34.8348        0.6588172         34.8348        0.4168416         158.753
4.649                  0.4210302        157.8168        0.6567029         33.8367        0.6567033         33.8367        0.4210305        157.8168
4.6504                  0.425131        156.8828        0.6544643        32.83872        0.6544648        32.83873        0.4251313        156.8827
4.6518                 0.4291426        155.9508        0.6521026        31.84115         0.652103        31.84115        0.4291428        155.9507
4.6532                 0.4330636        155.0208        0.6496194        30.84422        0.6496198        30.84422        0.4330639        155.0208
4.6546                 0.4368933        154.0928         0.647017        29.84821        0.6470174        29.84821        0.4368935        154.0927
4.656                  0.4406303        153.1666        0.6442972        28.85337        0.6442976        28.85336        0.4406306        153.1666
4.6574                 0.4442738        152.2423        0.6414624        27.85996        0.6414628        27.85995        0.4442741        152.2422
4.6588                 0.4478227        151.3197        0.6385147        26.86823        0.6385152        26.86822         0.447823        151.3197
4.6602                 0.4512758        150.3989        0.6354569        25.87844        0.6354573        25.87843        0.4512761        150.3988
4.6616                 0.4546322        149.4797        0.6322913        24.89083        0.6322918        24.89082        0.4546326        149.4797
4.663                  0.4578911        148.5622        0.6290208        23.90566        0.6290213        23.90565        0.4578914        148.5622
4.6644                 0.4610512        147.6463        0.6256482        22.92317        0.6256486        22.92316        0.4610515        147.6463
4.6658                 0.4641117         146.732        0.6221763        21.94361        0.6221767        21.94359        0.4641121         146.732
4.6672                 0.4670716        145.8192        0.6186082         20.9672        0.6186087        20.96719         0.467072        145.8192
4.6686                 0.4699302         144.908        0.6149471        19.99421        0.6149475        19.99419        0.4699305         144.908
4.67                   0.4726863        143.9983        0.6111961        19.02485        0.6111965        19.02483        0.4726866        143.9982
4.6714                  0.475339          143.09        0.6073586        18.05936        0.6073591        18.05934        0.4753393          143.09
4.6728                 0.4778877        142.1833         0.603438        17.09797        0.6034384        17.09795         0.477888        142.1832
4.6742                 0.4803314         141.278        0.5994378         16.1409        0.5994382        16.14088        0.4803317         141.278
4.6756                 0.4826693        140.3742        0.5953615        15.18838        0.5953619        15.18836        0.4826695        140.3741
4.677                  0.4849005        139.4719        0.5912127        14.24062        0.5912131         14.2406        0.4849007        139.4718
4.6784                 0.4870243         138.571        0.5869951        13.29783        0.5869955        13.29781        0.4870246         138.571
4.6798                 0.4890399        137.6716        0.5827126        12.36023         0.582713        12.36021        0.4890402        137.6716
4.6812                 0.4909467        136.7738        0.5783688        11.42802        0.5783692        11.42799         0.490947        136.7737
4.6826                  0.492744        135.8775        0.5739677        10.50138         0.573968        10.50135        0.4927442        135.8774
4.684                  0.4944309        134.9827        0.5695131        9.580514        0.5695133        9.580488        0.4944312        134.9827
4.6854                  0.496007        134.0895        0.5650088        8.665608        0.5650092        8.665581        0.4960074        134.0895
4.6868                 0.4974718        133.1979         0.560459        7.756836        0.5604593        7.756807        0.4974721        133.1979
4.6882                 0.4988246         132.308        0.5558676        6.854369        0.5558679        6.854339        0.4988248         132.308
4.6896                 0.5000647        131.4197        0.5512385        5.958368        0.5512387        5.958338        0.5000651        131.4197
4.691                   0.501192        130.5332        0.5465757        5.068987        0.5465761        5.068955        0.5011923        130.5332
4.6924                 0.5022059        129.6486        0.5418834         4.18637        0.5418836        4.186338        0.5022061        129.6485
4.6938                  0.503106        128.7657        0.5371655        3.310652        0.5371657        3.310619        0.5031063        128.7657
4.6952                  0.503892        127.8848        0.5324259        2.441955        0.5324261        2.441922        0.5038922        127.8848
4.6966                 0.5045636        127.0059        0.5276688        1.580394        0.5276689         1.58036        0.5045639        127.0059
4.698                  0.5051205         126.129        0.5228979       0.7260678         0.522898       0.7260331        0.5051209         126.129
4.6994                 0.5055628        125.2542        0.5181172      -0.1209352        0.5181174      -0.1209703         0.505563        125.2542
4.7008                   0.50589        124.3817        0.5133308      -0.9605396         0.513331      -0.9605752        0.5058903        124.3817
4.7022                 0.5061024        123.5115        0.5085423       -1.792686        0.5085425       -1.792722        0.5061026        123.5115
4.7036                 0.5061997        122.6436        0.5037557       -2.617328        0.5037558       -2.617365           0.5062        122.6437
4.705                  0.5061822        121.7783        0.4989746       -3.434446        0.4989748       -3.434473        0.5061825        121.7783
4.7064                   0.50605        120.9156        0.4942026       -4.244022        0.4942027       -4.244049        0.5060502        120.9156
4.7078                  0.505803        120.0555        0.4894435       -5.046021        0.4894436       -5.046047        0.5058033        120.0555
4.7092                 0.5054419        119.1983        0.4847006       -5.840504        0.4847007       -5.840532        0.5054422        119.1983
4.7106                 0.5049666         118.344        0.4799775       -6.627524        0.4799775       -6.627563        0.5049669         118.344
4.712                  0.5043779        117.4928        0.4752774       -7.407116        0.4752774       -7.407155        0.5043781        117.4928
4.7134                  0.503676        116.6448        0.4706035       -8.179368        0.4706035       -8.179407        0.5036763        116.6448
4.7148                 0.5028615           115.8         0.465959       -8.944377         0.465959       -8.944417        0.5028618           115.8
4.7162                 0.5019352        114.9588        0.4613467       -9.702269        0.4613467       -9.702307        0.5019354        114.9588
4.7176                 0.5008975        114.1211        0.4567696       -10.45319        0.4567696       -10.45322        0.5008977        114.1211
4.719                  0.4997493        113.2872        0.4522304       -11.19729        0.4522304       -11.19733        0.4997496        113.2872
4.7204                 0.4984915        112.4572        0.4477316       -11.93478        0.4477317       -11.93481        0.4984918        112.4572
4.7218                  0.497125        111.6313        0.4432757       -12.66585        0.4432757       -12.66589        0.4971253        111.6313
4.7232                 0.4956508        110.8096        0.4388649       -13.39075        0.4388649       -13.39079         0.495651        110.8096
4.7246                 0.4940699        109.9923        0.4345014       -14.10973        0.4345013       -14.10977        0.4940702        109.9923
4.726                  0.4923836        109.1796        0.4301869       -14.82308        0.4301869       -14.82311        0.4923839        109.1796
4.7274                 0.4905931        108.3717        0.4259234       -15.53109        0.4259233       -15.53112        0.4905933        108.3717
4.7288                 0.4886997        107.5687        0.4217123       -16.23409        0.4217123       -16.23412        0.4886999        107.5687
4.7302                 0.4867048        106.7709        0.4175552       -16.93243        0.4175551       -16.93246        0.4867051        106.7709
4.7316                 0.4846099        105.9785        0.4134531       -17.62647         0.413453       -17.62651        0.4846101        105.9785
4.733                  0.4824166        105.1916        0.4094072       -18.31663        0.4094071       -18.31666        0.4824168        105.1916
4.7344                 0.4801266        104.4104        0.4054183       -19.00329        0.4054182       -19.00332        0.4801268        104.4104
4.7358                 0.4777415        103.6353         0.401487       -19.68689        0.4014869       -19.68693        0.4777417        103.6353
4.7372                 0.4752632        102.8664        0.3976137       -20.36789        0.3976136       -20.36792        0.4752634        102.8664
4.7386                 0.4726935        102.1039        0.3937988       -21.04675        0.3937986       -21.04678        0.4726938         102.104
4.74                   0.4700347        101.3482        0.3900422       -21.72394        0.3900421       -21.72397        0.4700349        101.3482
4.7414                 0.4672885        100.5994         0.386344       -22.39997        0.3863439           -22.4        0.4672887        100.5994
4.7428                 0.4644572        99.85771        0.3827037       -23.07535        0.3827036       -23.07537        0.4644574        99.85774
4.7442                  0.461543         99.1235        0.3791209       -23.75059        0.3791208       -23.75061        0.4615432        99.12353
4.7456                 0.4585482        98.39702        0.3755949       -24.42622        0.3755947       -24.42625        0.4585485        98.39704
4.747                  0.4554753        97.67851        0.3721248       -25.10279        0.3721247       -25.10281        0.4554755        97.67854
4.7484                 0.4523266        96.96826        0.3687097       -25.78084        0.3687096       -25.78086        0.4523268        96.96829
4.7498                 0.4491047        96.26656        0.3653483        -26.4609        0.3653482       -26.46093        0.4491049        96.26659
4.7512                 0.4458123        95.57368        0.3620394       -27.14355        0.3620392       -27.14357        0.4458125        95.57371
4.7526                  0.442452        94.88994        0.3587813       -27.82933        0.3587812       -27.82935        0.4424522        94.88997
4.754                  0.4390266        94.21563        0.3555726       -28.51879        0.3555725       -28.51881        0.4390268        94.21565
4.7554                 0.4355389         93.5511        0.3524114       -29.21247        0.3524113       -29.21248        0.4355392        93.55112
4.7568                  0.431992        92.89661        0.3492958       -29.91092        0.3492957       -29.91094        0.4319922        92.89664
4.7582                 0.4283887        92.25249        0.3462239       -30.61468        0.3462238        -30.6147        0.4283889        92.25252
4.7596                 0.4247322        91.61912        0.3431936       -31.32428        0.3431935       -31.32429        0.4247324        91.61915
4.761                  0.4210255        90.99679        0.3402026       -32.04022        0.3402025       -32.04024        0.4210258        90.99681
4.7624                  0.417272        90.38586        0.3372487       -32.76303        0.3372486       -32.76304        0.4172722        90.38591
4.7638                 0.4134748        89.78665        0.3343297        -33.4932        0.3343296       -33.49322         0.413475         89.7867
4.7652                 0.4096374        89.19958         0.331443       -34.23122        0.3314429       -34.23123        0.4096376        89.19961
4.7666                 0.4057631        88.62493        0.3285862       -34.97754        0.3285861       -34.97755        0.4057633        88.62496
4.768                  0.4018554         88.0631        0.3257569       -35.73264        0.3257569       -35.73264        0.4018556        88.06313
4.7694                 0.3979179        87.51443        0.3229526       -36.49693        0.3229525       -36.49694        0.3979181        87.51445
4.7708                 0.3939541         86.9793        0.3201708       -37.27086        0.3201707       -37.27087        0.3939543        86.97933
4.7722                 0.3899677        86.45805        0.3174089       -38.05482        0.3174088       -38.05483        0.3899679        86.45811
4.7736                 0.3859624        85.95111        0.3146644       -38.84921        0.3146644       -38.84921        0.3859625        85.95113
4.775                  0.3819419        85.45879         0.311935       -39.65438        0.3119349       -39.65438        0.3819421        85.45882
4.7764                   0.37791        84.98147         0.309218        -40.4707        0.3092179       -40.47071        0.3779103        84.98152
4.7778                 0.3738707        84.51955        0.3065112       -41.29852        0.3065111       -41.29852        0.3738709        84.51961
