! TOUCHSTONE file generated by CST MICROWAVE STUDIO
! Date and time: Sun Dec  1 17:16:58 2024
! Project name: test_tuning.cst
! Parameters = {airCoaxOuterDiameter=3; chamferAngle=45; chamferWidth=24; connectorLength=10; drillingHoleDiameter=4.1; feedLength=60; flareDiameter=130; flareLength=70; gratingDistance=0; gratingGap=1.90274; outletLength=30; polarizerLength=72; probe1Diameter=1.3; probe1Distance=14; probe1Length=12; probe2Diameter=1.3; probe2Distance=0; probe2Length=12; probeLength=12; smaInnerDiameter=1.3; smaOuterDiameter=4.1; transitionCoefficient=1.33; waveguideFeedLength=30; waveguideSide=50; waveguideThickness=3; wireCount=25; wireDiameter=1.17699}
! Header version: 2024
! Port assignment regex: !\s*Touchstone port\s*([0-9]+)\s*=\s*(CST MWS port|CST DES external port|CST DES block port)\s*(.+)\s* \(\"(.*)\"\)(\s*mode\s*([0-9]+))?.*
! Touchstone port assignment:
! Touchstone port 1 = CST MWS port 1 ("Input1")
! Touchstone port 2 = CST MWS port 2 ("Input2")
# GHz S MA R 50
4.6                    0.2005515        -161.294        0.6413085        63.91372        0.6413085        63.91371        0.2005519       -161.2941
4.6014                 0.2067446       -162.3377        0.6434305        63.03159        0.6434305        63.03159         0.206745       -162.3377
4.6028                 0.2129458        -163.374        0.6454508        62.13994        0.6454508        62.13993        0.2129462        -163.374
4.6042                 0.2191518       -164.4038        0.6473655        61.23909        0.6473655        61.23908        0.2191522       -164.4039
4.6056                 0.2253594       -165.4281        0.6491708        60.32939        0.6491708        60.32937        0.2253598       -165.4281
4.607                  0.2315652       -166.4476        0.6508633         59.4112        0.6508634        59.41117        0.2315656       -166.4476
4.6084                 0.2377659       -167.4629        0.6524398        58.48486        0.6524399        58.48483        0.2377664        -167.463
4.6098                 0.2439581       -168.4747        0.6538972        57.55073        0.6538972        57.55072        0.2439586       -168.4748
4.6112                 0.2501385       -169.4835        0.6552328        56.60917        0.6552327        56.60915         0.250139       -169.4836
4.6126                 0.2563036       -170.4897        0.6564438        55.66053        0.6564439         55.6605        0.2563041       -170.4897
4.614                    0.26245       -171.4937        0.6575283        54.70514        0.6575284        54.70511        0.2624505       -171.4937
4.6154                 0.2685744       -172.4958        0.6584841        53.74336         0.658484        53.74334        0.2685749       -172.4958
4.6168                 0.2746732       -173.4963        0.6593092        52.77553        0.6593091        52.77551        0.2746737       -173.4964
4.6182                 0.2807432       -174.4956         0.660002          51.802         0.660002        51.80198        0.2807437       -174.4956
4.6196                 0.2867807       -175.4937        0.6605613         50.8231        0.6605613        50.82307        0.2867812       -175.4938
4.621                  0.2927824        -176.491        0.6609858        49.83915        0.6609858        49.83913         0.292783       -176.4911
4.6224                 0.2987449       -177.4875        0.6612747         48.8505        0.6612747        48.85047        0.2987454       -177.4876
4.6238                 0.3046649       -178.4834        0.6614271        47.85746        0.6614271        47.85744        0.3046654       -178.4835
4.6252                 0.3105388       -179.4788        0.6614426        46.86035        0.6614426        46.86034        0.3105393       -179.4789
4.6266                 0.3163633        179.5262        0.6613208         45.8595        0.6613208        45.85949        0.3163639        179.5261
4.628                  0.3221352        178.5315        0.6610618        44.85521        0.6610617        44.85519        0.3221357        178.5315
4.6294                  0.327851        177.5372        0.6606653        43.84778        0.6606654        43.84776        0.3278515        177.5371
4.6308                 0.3335074         176.543        0.6601321        42.83752        0.6601321        42.83749         0.333508         176.543
4.6322                 0.3391012        175.5491        0.6594623        41.82472        0.6594623         41.8247        0.3391018        175.5491
4.6336                 0.3446293        174.5554        0.6586568        40.80966        0.6586568        40.80965        0.3446298        174.5554
4.635                  0.3500883        173.5619        0.6577163        39.79265        0.6577163        39.79263        0.3500888        173.5619
4.6364                  0.355475        172.5686        0.6566419        38.77394        0.6566419        38.77392        0.3554756        172.5686
4.6378                 0.3607865        171.5755        0.6554348        37.75381        0.6554348         37.7538        0.3607871        171.5755
4.6392                 0.3660196        170.5827        0.6540963        36.73254        0.6540963        36.73253        0.3660202        170.5827
4.6406                 0.3711713        169.5902         0.652628        35.71038         0.652628        35.71037        0.3711719        169.5902
4.642                  0.3762387         168.598        0.6510314        34.68759        0.6510314        34.68758        0.3762393         168.598
4.6434                 0.3812187        167.6062        0.6493086        33.66442        0.6493086        33.66441        0.3812193        167.6062
4.6448                 0.3861086        166.6148        0.6474612        32.64112        0.6474612         32.6411        0.3861092        166.6148
4.6462                 0.3909055         165.624        0.6454916        31.61792        0.6454916         31.6179        0.3909061        165.6239
4.6476                 0.3956067        164.6337        0.6434019        30.59505        0.6434017        30.59503        0.3956073        164.6336
4.649                  0.4002095         163.644        0.6411942        29.57274        0.6411942        29.57272        0.4002101        163.6439
4.6504                 0.4047113         162.655        0.6388713        28.55121        0.6388713         28.5512        0.4047119         162.655
4.6518                 0.4091095        161.6669        0.6364357        27.53068        0.6364356        27.53067        0.4091101        161.6668
4.6532                 0.4134017        160.6796        0.6338899        26.51136        0.6338898        26.51134        0.4134023        160.6796
4.6546                 0.4175854        159.6933        0.6312368        25.49344        0.6312368        25.49342         0.417586        159.6933
4.656                  0.4216583        158.7081        0.6284793        24.47712        0.6284792        24.47711        0.4216589         158.708
4.6574                 0.4256182         157.724        0.6256201         23.4626        0.6256201        23.46259        0.4256188         157.724
4.6588                 0.4294628        156.7412        0.6226625        22.45006        0.6226625        22.45004        0.4294634        156.7412
4.6602                 0.4331902        155.7598        0.6196095        21.43967        0.6196094        21.43965        0.4331907        155.7598
4.6616                 0.4367982          154.78        0.6164643         20.4316        0.6164642        20.43158        0.4367988        154.7799
4.663                   0.440285        153.8017          0.61323        19.42601        0.6132299        19.42599        0.4402856        153.8016
4.6644                 0.4436487        152.8251        0.6099099        18.42307        0.6099099        18.42305        0.4436493        152.8251
4.6658                 0.4468876        151.8505        0.6065075        17.42291        0.6065074        17.42289        0.4468883        151.8504
4.6672                 0.4500002        150.8778        0.6030261        16.42569         0.603026        16.42567        0.4500007        150.8778
4.6686                 0.4529847        149.9072         0.599469        15.43153         0.599469        15.43151        0.4529852        149.9072
4.67                   0.4558398        148.9389        0.5958397        14.44056        0.5958396        14.44054        0.4558404        148.9389
4.6714                 0.4585642         147.973        0.5921417         13.4529        0.5921417        13.45288        0.4585647         147.973
4.6728                 0.4611566        147.0097        0.5883785        12.46865        0.5883784        12.46863        0.4611571        147.0097
4.6742                 0.4636158         146.049        0.5845536        11.48793        0.5845535        11.48791        0.4636164         146.049
4.6756                  0.465941        145.0912        0.5806704        10.51081        0.5806703        10.51079        0.4659415        145.0912
4.677                  0.4681311        144.1364        0.5767324        9.537392        0.5767324        9.537374        0.4681316        144.1364
4.6784                 0.4701854        143.1848        0.5727433         8.56774        0.5727432        8.567723        0.4701858        143.1847
4.6798                 0.4721032        142.2365        0.5687064        7.601922        0.5687063        7.601906        0.4721037        142.2364
4.6812                  0.473884        141.2917        0.5646252        6.639991        0.5646251        6.639974        0.4738844        141.2916
4.6826                 0.4755272        140.3505        0.5605031        5.681992         0.560503        5.681976        0.4755278        140.3505
4.684                  0.4770327        139.4132        0.5563435        4.727959        0.5563435        4.727943        0.4770332        139.4132
4.6854                 0.4784002          138.48        0.5521499        3.777917        0.5521498        3.777901        0.4784007          138.48
4.6868                 0.4796296         137.551        0.5479256        2.831876        0.5479255         2.83186        0.4796302         137.551
4.6882                 0.4807211        136.6263        0.5436737        1.889838        0.5436736        1.889823        0.4807216        136.6263
4.6896                 0.4816747        135.7063        0.5393977       0.9517936        0.5393976       0.9517782        0.4816753        135.7063
4.691                   0.482491        134.7911        0.5351005      0.01771948        0.5351003      0.01770436        0.4824915        134.7911
4.6924                 0.4831701        133.8809        0.5307853      -0.9124178        0.5307852      -0.9124327        0.4831706        133.8809
4.6938                 0.4837128        132.9759        0.5264552       -1.838666        0.5264551       -1.838681        0.4837133        132.9759
4.6952                 0.4841197        132.0763         0.522113       -2.761084        0.5221129       -2.761098        0.4841203        132.0763
4.6966                 0.4843918        131.1824        0.5177618       -3.679743        0.5177616       -3.679757        0.4843923        131.1824
4.698                    0.48453        130.2943         0.513404       -4.594729        0.5134039       -4.594742        0.4845305        130.2943
4.6994                 0.4845355        129.4123        0.5090427        -5.50614        0.5090426       -5.506152         0.484536        129.4123
4.7008                 0.4844094        128.5366        0.5046803       -6.414085        0.5046801       -6.414097        0.4844099        128.5366
4.7022                 0.4841531        127.6675        0.5003192       -7.318699        0.5003191         -7.3187        0.4841536        127.6675
4.7036                 0.4837683        126.8051        0.4959618       -8.220094        0.4959617       -8.220122        0.4837688        126.8051
4.705                  0.4832564        125.9498        0.4916106       -9.118446        0.4916104       -9.118446        0.4832569        125.9498
4.7064                 0.4826194        125.1017        0.4872674       -10.01392        0.4872673       -10.01392        0.4826199        125.1017
4.7078                 0.4818592        124.2611        0.4829345       -10.90669        0.4829343       -10.90669        0.4818597        124.2612
4.7092                 0.4809778        123.4283        0.4786137       -11.79694        0.4786136       -11.79694        0.4809783        123.4284
4.7106                 0.4799774        122.6036        0.4743068       -12.68486        0.4743066       -12.68487        0.4799779        122.6036
4.712                  0.4788604        121.7871        0.4700154       -13.57071        0.4700153       -13.57072        0.4788608        121.7871
4.7134                 0.4776291        120.9791        0.4657411       -14.45468         0.465741       -14.45469        0.4776296        120.9791
4.7148                 0.4762862        120.1799        0.4614853       -15.33704        0.4614852       -15.33705        0.4762867        120.1799
4.7162                 0.4748344        119.3898        0.4572493       -16.21803        0.4572492       -16.21803        0.4748349        119.3898
4.7176                 0.4732765         118.609        0.4530342       -17.09791         0.453034       -17.09792         0.473277         118.609
4.719                  0.4716155        117.8379        0.4488409       -17.97697        0.4488408       -17.97698         0.471616        117.8379
4.7204                 0.4698544        117.0766        0.4446705       -18.85549        0.4446703       -18.85549        0.4698549        117.0766
4.7218                 0.4679965        116.3254        0.4405234       -19.73377        0.4405233       -19.73377         0.467997        116.3255
4.7232                  0.466045        115.5847        0.4364005       -20.61212        0.4364004       -20.61212        0.4660456        115.5847
4.7246                 0.4640035        114.8547        0.4323022       -21.49085        0.4323021       -21.49085         0.464004        114.8547
4.726                  0.4618754        114.1357        0.4282287       -22.37028        0.4282286       -22.37029        0.4618759        114.1357
4.7274                 0.4596643        113.4279        0.4241804       -23.25075        0.4241803       -23.25076        0.4596648        113.4279
4.7288                  0.457374        112.7316        0.4201573        -24.1326        0.4201572        -24.1326        0.4573745        112.7317
4.7302                 0.4550084        112.0472        0.4161595       -25.01617        0.4161594       -25.01617        0.4550089        112.0472
4.7316                 0.4525713        111.3748        0.4121867        -25.9018        0.4121866        -25.9018        0.4525718        111.3748
4.733                  0.4500669        110.7147        0.4082387       -26.78986        0.4082386       -26.78986        0.4500673        110.7147
4.7344                 0.4474991        110.0672        0.4043152       -27.68069        0.4043151       -27.68069        0.4474996        110.0672
4.7358                 0.4448722        109.4325        0.4004157       -28.57467        0.4004156       -28.57467        0.4448727        109.4326
4.7372                 0.4421905         108.811        0.3965397       -29.47215        0.3965396       -29.47215         0.442191         108.811
4.7386                 0.4394583        108.2028        0.3926864        -30.3735        0.3926863        -30.3735        0.4394587        108.2028
4.74                   0.4366799        107.6081        0.3888553       -31.27908        0.3888552       -31.27907        0.4366804        107.6081
4.7414                 0.4338598        107.0273        0.3850455       -32.18925        0.3850454       -32.18924        0.4338603        107.0273
4.7428                 0.4310026        106.4604        0.3812561       -33.10437         0.381256       -33.10437         0.431003        106.4604
4.7442                 0.4281127        105.9078        0.3774863       -34.02483        0.3774862       -34.02482        0.4281132        105.9078
4.7456                 0.4251947        105.3695        0.3737349       -34.95096        0.3737348       -34.95095        0.4251952        105.3695
4.747                  0.4222533        104.8458         0.370001       -35.88312         0.370001       -35.88312        0.4222537        104.8459
4.7484                  0.419293        104.3369        0.3662836       -36.82168        0.3662835       -36.82168        0.4192934        104.3369
4.7498                 0.4163184        103.8428        0.3625814       -37.76698        0.3625814       -37.76698        0.4163188        103.8429
4.7512                 0.4133342        103.3638        0.3588935       -38.71938        0.3588934       -38.71937        0.4133347        103.3638
4.7526                 0.4103451        102.8998        0.3552185       -39.67919        0.3552184       -39.67919        0.4103456        102.8998
4.754                  0.4073556         102.451        0.3515555       -40.64677        0.3515554       -40.64677        0.4073561         102.451
4.7554                 0.4043703        102.0174         0.347903       -41.62245         0.347903       -41.62245        0.4043707        102.0174
4.7568                 0.4013938        101.5991        0.3442602       -42.60656        0.3442601       -42.60655        0.4013942        101.5991
4.7582                 0.3984305         101.196        0.3406257       -43.59941        0.3406257        -43.5994        0.3984309         101.196
4.7596                 0.3954848        100.8082        0.3369986       -44.60133        0.3369986       -44.60132        0.3954852        100.8082
4.761                  0.3925612        100.4355        0.3333776       -45.61261        0.3333776        -45.6126        0.3925616        100.4355
4.7624                 0.3896639        100.0779        0.3297617       -46.63358        0.3297617       -46.63357        0.3896643         100.078
4.7638                 0.3867971        99.73528        0.3261499       -47.66453        0.3261499       -47.66452        0.3867976        99.73533
4.7652                 0.3839649        99.40744        0.3225412       -48.70576        0.3225412       -48.70575        0.3839653        99.40747
4.7666                 0.3811713        99.09424        0.3189346       -49.75755        0.3189346       -49.75755        0.3811717        99.09426
4.768                  0.3784201        98.79541        0.3153293        -50.8202        0.3153293       -50.82019        0.3784206        98.79543
4.7694                 0.3757151        98.51066        0.3117245         -51.894        0.3117245       -51.89398        0.3757155        98.51069
4.7708                 0.3730596         98.2397        0.3081194       -52.97921        0.3081194        -52.9792        0.3730601        98.23975
4.7722                 0.3704573        97.98224        0.3045134       -54.07613        0.3045134       -54.07612        0.3704577        97.98226
4.7736                 0.3679112        97.73783        0.3009058       -55.18503        0.3009058       -55.18501        0.3679116        97.73785
4.775                  0.3654244        97.50607        0.2972961       -56.30619        0.2972961       -56.30617        0.3654248         97.5061
4.7764                 0.3629998         97.2865        0.2936839       -57.43987         0.293684       -57.43985        0.3630002        97.28653
4.7778                 0.3606399        97.07863        0.2900689       -58.58636        0.2900689       -58.58635        0.3606403        97.07865
