! TOUCHSTONE file generated by CST MICROWAVE STUDIO
! Date and time: Sun Dec  1 17:17:03 2024
! Project name: test_tuning.cst
! Parameters = {airCoaxOuterDiameter=3; chamferAngle=45; chamferWidth=24; connectorLength=10; drillingHoleDiameter=4.1; feedLength=60; flareDiameter=130; flareLength=70; gratingDistance=0; gratingGap=1.90274; outletLength=30; polarizerLength=100; probe1Diameter=1.3; probe1Distance=14; probe1Length=12; probe2Diameter=1.3; probe2Distance=0; probe2Length=12; probeLength=12; smaInnerDiameter=1.3; smaOuterDiameter=4.1; transitionCoefficient=1.33; waveguideFeedLength=30; waveguideSide=50; waveguideThickness=3; wireCount=25; wireDiameter=1.17699}
! Header version: 2024
! Port assignment regex: !\s*Touchstone port\s*([0-9]+)\s*=\s*(CST MWS port|CST DES external port|CST DES block port)\s*(.+)\s* \(\"(.*)\"\)(\s*mode\s*([0-9]+))?.*
! Touchstone port assignment:
! Touchstone port 1 = CST MWS port 1 ("Input1")
! Touchstone port 2 = CST MWS port 2 ("Input2")
# GHz S MA R 50
4.6                    0.2133972       -165.0415        0.6757182        68.11784        0.6757184        68.11778        0.2133974       -165.0416
4.6014                 0.2203934       -166.0224        0.6769709        67.16815        0.6769712        67.16811        0.2203936       -166.0225
4.6028                 0.2273912       -167.0068        0.6781348         66.2145        0.6781349        66.21446        0.2273914       -167.0069
4.6042                 0.2343843       -167.9948        0.6792097        65.25695        0.6792098        65.25689        0.2343845       -167.9949
4.6056                 0.2413659       -168.9866        0.6801962        64.29551        0.6801963        64.29545        0.2413661       -168.9867
4.607                  0.2483292       -169.9822        0.6810946         63.3302        0.6810946        63.33014        0.2483294       -169.9823
4.6084                 0.2552673       -170.9815        0.6819052        62.36096        0.6819051        62.36094        0.2552676       -170.9816
4.6098                 0.2621734       -171.9842        0.6826279        61.38781        0.6826278        61.38777        0.2621737       -171.9843
4.6112                 0.2690407       -172.9899        0.6832627        60.41065        0.6832628        60.41061         0.269041         -172.99
4.6126                 0.2758628       -173.9983        0.6838095         59.4294        0.6838093        59.42937         0.275863       -173.9984
4.614                  0.2826332       -175.0088        0.6842672        58.44398        0.6842672        58.44394        0.2826335       -175.0088
4.6154                 0.2893464       -176.0209        0.6846355        57.45429        0.6846353        57.45426        0.2893467       -176.0209
4.6168                 0.2959968       -177.0339        0.6849129        56.46023        0.6849126        56.46018         0.295997        -177.034
4.6182                 0.3025795       -178.0475        0.6850978         55.4617        0.6850976        55.46166        0.3025797       -178.0475
4.6196                   0.30909       -179.0609        0.6851887        54.45859        0.6851884        54.45856        0.3090902        -179.061
4.621                  0.3155244        179.9263        0.6851834        53.45084        0.6851832        53.45081        0.3155247        179.9263
4.6224                 0.3218794        178.9147        0.6850797        52.43838        0.6850794        52.43836        0.3218797        178.9147
4.6238                 0.3281523        177.9047         0.684875        51.42116        0.6848747        51.42113        0.3281525        177.9047
4.6252                 0.3343405        176.8968        0.6845666        50.39915        0.6845663        50.39912        0.3343408        176.8968
4.6266                 0.3404425        175.8914        0.6841518        49.37234        0.6841516        49.37232        0.3404427        175.8913
4.628                  0.3464567        174.8886        0.6836277        48.34078        0.6836274        48.34076         0.346457        174.8886
4.6294                 0.3523822        173.8888        0.6829913        47.30452        0.6829909        47.30451        0.3523825        173.8888
4.6308                 0.3582183        172.8922        0.6822399        46.26364        0.6822396        46.26362        0.3582187        172.8922
4.6322                 0.3639646        171.8987        0.6813706        45.21825        0.6813704        45.21824         0.363965        171.8987
4.6336                 0.3696208        170.9085        0.6803812        44.16851        0.6803808        44.16851        0.3696212        170.9085
4.635                  0.3751867        169.9215        0.6792691         43.1146        0.6792688        43.11459        0.3751871        169.9215
4.6364                  0.380662        168.9376        0.6780324        42.05668        0.6780323        42.05667        0.3806625        168.9376
4.6378                 0.3860465        167.9567        0.6766695        40.99499        0.6766693        40.99499         0.386047        167.9567
4.6392                 0.3913398        166.9785        0.6751792        39.92976         0.675179        39.92976        0.3913403        166.9785
4.6406                  0.396541        166.0028        0.6735605        38.86123        0.6735602        38.86123        0.3965416        166.0028
4.642                  0.4016493        165.0294        0.6718129        37.78968        0.6718128        37.78968        0.4016499        165.0294
4.6434                 0.4066631         164.058        0.6699367        36.71533        0.6699365        36.71534        0.4066638         164.058
4.6448                 0.4115808        163.0884        0.6679322        35.63848        0.6679321        35.63848        0.4115814        163.0884
4.6462                 0.4163999        162.1202        0.6658004        34.55935        0.6658002        34.55935        0.4164006        162.1202
4.6476                 0.4211179        161.1532        0.6635425        33.47819        0.6635425        33.47819        0.4211186        161.1532
4.649                  0.4257316        160.1872        0.6611605        32.39521        0.6611604        32.39522        0.4257323        160.1872
4.6504                 0.4302374         159.222        0.6586565        31.31062        0.6586563        31.31063         0.430238         159.222
4.6518                 0.4346311        158.2576        0.6560327        30.22458        0.6560326         30.2246        0.4346318        158.2576
4.6532                 0.4389086        157.2938        0.6532921        29.13724         0.653292        29.13725        0.4389093        157.2938
4.6546                  0.443065        156.3306        0.6504372        28.04869        0.6504372         28.0487        0.4430658        156.3306
4.656                  0.4470954        155.3681        0.6474716        26.95899        0.6474715          26.959        0.4470962        155.3681
4.6574                 0.4509947        154.4065        0.6443977        25.86817        0.6443977        25.86818        0.4509954        154.4065
4.6588                 0.4547577         153.446         0.641219        24.77622         0.641219        24.77623        0.4547584         153.446
4.6602                 0.4583792        152.4869        0.6379383        23.68307        0.6379382        23.68308          0.45838        152.4868
4.6616                 0.4618544        151.5295        0.6345583        22.58861        0.6345583        22.58862         0.461855        151.5294
4.663                  0.4651782        150.5744        0.6310816         21.4927        0.6310816        21.49271        0.4651789        150.5743
4.6644                 0.4683466         149.622        0.6275103        20.39517        0.6275103        20.39518        0.4683473         149.622
4.6658                 0.4713554        148.6731        0.6238462        19.29579        0.6238463         19.2958        0.4713561        148.6731
4.6672                 0.4742013        147.7282        0.6200908        18.19432        0.6200908        18.19433         0.474202        147.7282
4.6686                 0.4768818        146.7882        0.6162449        17.09049        0.6162449        17.09049        0.4768824        146.7882
4.67                   0.4793949        145.8538        0.6123088          15.984        0.6123088        15.98401        0.4793954        145.8538
4.6714                 0.4817394        144.9259        0.6082823        14.87455        0.6082823        14.87456        0.4817399        144.9259
4.6728                 0.4839155        144.0053        0.6041648        13.76184        0.6041649        13.76185         0.483916        144.0053
4.6742                  0.485924        143.0929        0.5999549        12.64556        0.5999549        12.64557        0.4859245        143.0928
4.6756                 0.4877668        142.1896        0.5956507        11.52541        0.5956507        11.52542        0.4877673        142.1895
4.677                   0.489447        141.2963        0.5912498        10.40113        0.5912499        10.40113        0.4894475        141.2963
4.6784                 0.4909688        140.4138        0.5867495        9.272452        0.5867495        9.272459        0.4909693        140.4138
4.6798                 0.4923375        139.5431        0.5821463         8.13918        0.5821463        8.139186        0.4923379        139.5431
4.6812                 0.4935593         138.685        0.5774366        7.001144        0.5774367        7.001149        0.4935597         138.685
4.6826                 0.4946417        137.8401        0.5726164        5.858228        0.5726165        5.858234        0.4946421        137.8401
4.684                  0.4955931        137.0093        0.5676816        4.710378        0.5676816        4.710384        0.4955935        137.0093
4.6854                 0.4964229        136.1929        0.5626277        3.557605        0.5626277        3.557611        0.4964233        136.1929
4.6868                 0.4971412        135.3917        0.5574503        2.399994        0.5574504             2.4        0.4971416        135.3917
4.6882                  0.497759        134.6059        0.5521452        1.237707        0.5521452        1.237712        0.4977595         134.606
4.6896                 0.4982879         133.836        0.5467081      0.07098877        0.5467081      0.07099415        0.4982884         133.836
4.691                    0.49874        133.0819        0.5411349       -1.099829         0.541135       -1.099824        0.4987405        133.0819
4.6924                 0.4991278        132.3438        0.5354223       -2.274324        0.5354224       -2.274319        0.4991282        132.3438
4.6938                 0.4994638        131.6215        0.5295669       -3.451982         0.529567       -3.451978        0.4994643        131.6215
4.6952                 0.4997609        130.9148        0.5235662       -4.632199        0.5235663       -4.632194        0.4997614        130.9149
4.6966                 0.5000316        130.2233        0.5174182        -5.81427        0.5174183       -5.814266         0.500032        130.2233
4.698                  0.5002883        129.5464        0.5111216       -6.997402        0.5111217       -6.997398        0.5002888        129.5465
4.6994                 0.5005428        128.8835         0.504676       -8.180681        0.5046761       -8.180682        0.5005434        128.8835
4.7008                 0.5008066        128.2336        0.4980816       -9.363198        0.4980817       -9.363198        0.5008072        128.2336
4.7022                 0.5010902        127.5959        0.4913397       -10.54383        0.4913398       -10.54383        0.5010908        127.5959
4.7036                 0.5014032        126.9692        0.4844525       -11.72141        0.4844526       -11.72141        0.5014039        126.9693
4.705                  0.5017544        126.3524        0.4774232       -12.89472        0.4774233        -12.8947         0.501755        126.3524
4.7064                 0.5021512        125.7442        0.4702559       -14.06243         0.470256       -14.06243        0.5021518        125.7442
4.7078                    0.5026        125.1431        0.4629559       -15.22314         0.462956       -15.22314        0.5026007        125.1432
4.7092                 0.5031059        124.5479        0.4555292        -16.3754        0.4555293        -16.3754        0.5031065        124.5479
4.7106                 0.5036724         123.957        0.4479831       -17.51772        0.4479832       -17.51772        0.5036731         123.957
4.712                  0.5043019        123.3689        0.4403257       -18.64845        0.4403258       -18.64845        0.5043026        123.3689
4.7134                 0.5049953        122.7821        0.4325661       -19.76598        0.4325662       -19.76598         0.504996        122.7822
4.7148                 0.5057521        122.1953        0.4247144       -20.86862        0.4247145       -20.86862        0.5057528        122.1953
4.7162                 0.5065705        121.6069        0.4167813       -21.95466        0.4167814       -21.95466        0.5065712        121.6069
4.7176                 0.5074474        121.0155        0.4087784       -23.02235        0.4087785       -23.02235         0.507448        121.0156
4.719                  0.5083782          120.42        0.4007181       -24.06992        0.4007182       -24.06992        0.5083789        120.4199
4.7204                 0.5093577        119.8189        0.3926133        -25.0956        0.3926134        -25.0956        0.5093584        119.8189
4.7218                 0.5103792        119.2112        0.3844775        -26.0976        0.3844776        -26.0976        0.5103799        119.2112
4.7232                 0.5114353        118.5959        0.3763245       -27.07418        0.3763246       -27.07418        0.5114359        118.5959
4.7246                 0.5125176        117.9721        0.3681688       -28.02359        0.3681689       -28.02359        0.5125182        117.9721
4.726                  0.5136171        117.3389        0.3600247       -28.94415        0.3600247       -28.94414        0.5136177        117.3389
4.7274                 0.5147243        116.6958        0.3519069        -29.8342         0.351907       -29.83419        0.5147249        116.6958
4.7288                 0.5158291        116.0421        0.3438301       -30.69217        0.3438302       -30.69217        0.5158297        116.0421
4.7302                 0.5169213        115.3775        0.3358089       -31.51659         0.335809       -31.51659        0.5169218        115.3775
4.7316                 0.5179903        114.7016        0.3278577       -32.30607        0.3278577       -32.30606        0.5179908        114.7016
4.733                  0.5190255        114.0144        0.3199903       -33.05933        0.3199904       -33.05933        0.5190261        114.0144
4.7344                 0.5200164        113.3157        0.3122204       -33.77527        0.3122205       -33.77527         0.520017        113.3157
4.7358                 0.5209526        112.6056        0.3045611        -34.4529        0.3045612        -34.4529        0.5209531        112.6057
4.7372                  0.521824        111.8843        0.2970246       -35.09144        0.2970247       -35.09143        0.5218245        111.8843
4.7386                 0.5226207        111.1521        0.2896225       -35.69027        0.2896226       -35.69026        0.5226212        111.1521
4.74                   0.5233335        110.4092        0.2823656       -36.24898        0.2823657       -36.24898        0.5233339        110.4092
4.7414                 0.5239534        109.6562        0.2752634        -36.7674        0.2752635        -36.7674        0.5239539        109.6562
4.7428                 0.5244722        108.8934        0.2683245       -37.24555        0.2683247       -37.24555        0.5244727        108.8934
4.7442                 0.5248822        108.1216        0.2615566       -37.68373        0.2615568       -37.68372        0.5248827        108.1216
4.7456                 0.5251766        107.3414        0.2549658       -38.08242         0.254966       -38.08242        0.5251771        107.3414
4.747                  0.5253491        106.5533        0.2485573       -38.44238        0.2485575       -38.44238        0.5253495        106.5533
4.7484                 0.5253942        105.7583        0.2423347       -38.76459        0.2423349        -38.7646        0.5253946        105.7583
4.7498                 0.5253071        104.9569        0.2363006       -39.05025        0.2363008       -39.05026        0.5253076        104.9569
4.7512                 0.5250843        104.1501        0.2304562       -39.30074        0.2304564       -39.30075        0.5250848          104.15
4.7526                 0.5247225        103.3385        0.2248013       -39.51764        0.2248015       -39.51766         0.524723        103.3385
4.754                  0.5242197        102.5232        0.2193348       -39.70269        0.2193351        -39.7027        0.5242201        102.5232
4.7554                 0.5235744        101.7048        0.2140543       -39.85772        0.2140545       -39.85775        0.5235748        101.7048
4.7568                 0.5227861        100.8842        0.2089562       -39.98469        0.2089564       -39.98472        0.5227865        100.8842
4.7582                 0.5218551        100.0622        0.2040361       -40.08557        0.2040363       -40.08561        0.5218555        100.0623
4.7596                 0.5207824        99.23977        0.1992887       -40.16236        0.1992889        -40.1624        0.5207828        99.23977
4.761                  0.5195699         98.4175         0.194708       -40.21703        0.1947081       -40.21709        0.5195703        98.41755
4.7624                   0.51822        97.59631        0.1902873       -40.25149        0.1902874       -40.25155        0.5182204        97.59631
4.7638                 0.5167361        96.77682        0.1860195       -40.26752        0.1860196       -40.26758        0.5167364        96.77682
4.7652                  0.515122         95.9598        0.1818972       -40.26679        0.1818973       -40.26686        0.5151223        95.95979
4.7666                  0.513382        95.14588        0.1779128        -40.2508        0.1779129       -40.25087        0.5133823        95.14588
4.768                  0.5115213        94.33569        0.1740585       -40.22086        0.1740586       -40.22094        0.5115216        94.33569
4.7694                 0.5095451        93.52979        0.1703268       -40.17808        0.1703269       -40.17816        0.5095453        93.52981
4.7708                 0.5074594        92.72871        0.1667103       -40.12335        0.1667103       -40.12344        0.5074596        92.72871
4.7722                 0.5052702        91.93285        0.1632017       -40.05735        0.1632018       -40.05743        0.5052704        91.93285
4.7736                  0.502984        91.14264        0.1597944       -39.98053        0.1597944       -39.98061        0.5029842        91.14264
4.775                  0.5006073        90.35835         0.156482       -39.89313         0.156482       -39.89321        0.5006075         90.3584
4.7764                 0.4981469        89.58027        0.1532586        -39.7952        0.1532586       -39.79528         0.498147        89.58029
4.7778                 0.4956093        88.80861         0.150119       -39.68659         0.150119       -39.68667        0.4956095        88.80861
