! TOUCHSTONE file generated by CST MICROWAVE STUDIO
! Date and time: Sun Dec  1 17:16:57 2024
! Project name: test_tuning.cst
! Parameters = {airCoaxOuterDiameter=3; chamferAngle=45; chamferWidth=24; connectorLength=10; drillingHoleDiameter=4.1; feedLength=60; flareDiameter=130; flareLength=70; gratingDistance=0; gratingGap=1.90274; outletLength=30; polarizerLength=70; probe1Diameter=1.3; probe1Distance=14; probe1Length=12; probe2Diameter=1.3; probe2Distance=0; probe2Length=12; probeLength=12; smaInnerDiameter=1.3; smaOuterDiameter=4.1; transitionCoefficient=1.33; waveguideFeedLength=30; waveguideSide=50; waveguideThickness=3; wireCount=25; wireDiameter=1.17699}
! Header version: 2024
! Port assignment regex: !\s*Touchstone port\s*([0-9]+)\s*=\s*(CST MWS port|CST DES external port|CST DES block port)\s*(.+)\s* \(\"(.*)\"\)(\s*mode\s*([0-9]+))?.*
! Touchstone port assignment:
! Touchstone port 1 = CST MWS port 1 ("Input1")
! Touchstone port 2 = CST MWS port 2 ("Input2")
# GHz S MA R 50
4.6                    0.2042229       -163.5721        0.6500116         64.3799        0.6500118        64.37992        0.2042233       -163.5722
4.6014                 0.2103892       -164.6047        0.6520541        63.50415        0.6520543        63.50418        0.2103896       -164.6048
4.6028                 0.2165571       -165.6298        0.6539978        62.61925         0.653998        62.61928        0.2165575       -165.6299
4.6042                 0.2227235       -166.6483        0.6558386        61.72553        0.6558388        61.72556         0.222724       -166.6484
4.6056                 0.2288857        -167.661         0.657573        60.82332        0.6575732        60.82335         0.228886       -167.6611
4.607                  0.2350402       -168.6688        0.6591976        59.91294        0.6591978        59.91297        0.2350406       -168.6689
4.6084                 0.2411843       -169.6722        0.6607092        58.99472        0.6607095        58.99474        0.2411847       -169.6722
4.6098                 0.2473146       -170.6717        0.6621048          58.069        0.6621051        58.06902        0.2473151       -170.6718
4.6112                 0.2534282        -171.668        0.6633818         57.1361         0.663382        57.13612        0.2534287       -171.6681
4.6126                  0.259522       -172.6614        0.6645375        56.19635        0.6645376        56.19637        0.2595224       -172.6615
4.614                  0.2655927       -173.6524        0.6655696        55.25008        0.6655698        55.25011        0.2655931       -173.6525
4.6154                 0.2716372       -174.6412        0.6664761        54.29762        0.6664762        54.29764        0.2716377       -174.6413
4.6168                 0.2776526       -175.6282         0.667255         53.3393        0.6672553        53.33932         0.277653       -175.6283
4.6182                 0.2836355       -176.6137        0.6679047        52.37544        0.6679051        52.37545        0.2836359       -176.6137
4.6196                 0.2895829       -177.5978         0.668424        51.40634        0.6684243        51.40636        0.2895834       -177.5978
4.621                  0.2954917       -178.5807        0.6688114        50.43234        0.6688117        50.43236        0.2954921       -178.5807
4.6224                 0.3013587       -179.5626         0.669066        49.45376        0.6690662        49.45377        0.3013592       -179.5627
4.6238                  0.307181        179.4562        0.6691868        48.47089        0.6691871         48.4709        0.3071815        179.4562
4.6252                 0.3129554        178.4758        0.6691735        47.48404        0.6691738        47.48406        0.3129559        178.4758
4.6266                 0.3186788         177.496        0.6690256        46.49352        0.6690258        46.49353        0.3186792         177.496
4.628                  0.3243482        176.5167        0.6687427        45.49962        0.6687429        45.49964        0.3243487        176.5167
4.6294                 0.3299606        175.5378        0.6683249        44.50265        0.6683251        44.50266         0.329961        175.5378
4.6308                  0.335513        174.5594        0.6677725        43.50289        0.6677726         43.5029        0.3355135        174.5594
4.6322                 0.3410024        173.5813        0.6670857        42.50061        0.6670859        42.50062         0.341003        173.5813
4.6336                  0.346426        172.6035         0.666265        41.49613        0.6662651        41.49614        0.3464265        172.6035
4.635                  0.3517808         171.626        0.6653112        40.48969        0.6653115        40.48969        0.3517813         171.626
4.6364                 0.3570639        170.6488        0.6642252        39.48157        0.6642254        39.48158        0.3570645        170.6487
4.6378                 0.3622726        169.6719         0.663008        38.47205        0.6630082        38.47205        0.3622731        169.6718
4.6392                  0.367404        168.6952        0.6616608        37.46139         0.661661        37.46138        0.3674045        168.6952
4.6406                 0.3724554        167.7189        0.6601849        36.44982        0.6601851        36.44982        0.3724559        167.7189
4.642                   0.377424        166.7429        0.6585819        35.43764        0.6585821        35.43764        0.3774246        166.7428
4.6434                 0.3823074        165.7672        0.6568533        34.42507        0.6568536        34.42506        0.3823079        165.7672
4.6448                 0.3871027        164.7919        0.6550012        33.41235        0.6550014        33.41234        0.3871033        164.7919
4.6462                 0.3918075        163.8171        0.6530272        32.39973        0.6530274        32.39972         0.391808        163.8171
4.6476                 0.3964193        162.8428        0.6509336        31.38743        0.6509338        31.38742        0.3964198        162.8427
4.649                  0.4009355        161.8689        0.6487225         30.3757        0.6487226        30.37569        0.4009361        161.8689
4.6504                 0.4053538        160.8957        0.6463961        29.36474        0.6463962        29.36473        0.4053543        160.8957
4.6518                 0.4096718        159.9231        0.6439568        28.35478         0.643957        28.35477        0.4096724         159.923
4.6532                 0.4138874        158.9512        0.6414073        27.34603        0.6414074        27.34602        0.4138879        158.9512
4.6546                 0.4179982          157.98        0.6387501         26.3387        0.6387501        26.33869        0.4179987          157.98
4.656                   0.422002        157.0098        0.6359879        25.33299         0.635988        25.33298        0.4220026        157.0097
4.6574                 0.4258969        156.0404        0.6331235         24.3291        0.6331236         24.3291        0.4258974        156.0404
4.6588                 0.4296806        155.0721          0.63016        23.32723          0.63016        23.32721        0.4296812        155.0721
4.6602                 0.4333514        154.1049           0.6271        22.32754        0.6271001        22.32753         0.433352        154.1048
4.6616                 0.4369073        153.1388        0.6239469        21.33024        0.6239469        21.33022        0.4369079        153.1388
4.663                  0.4403465         152.174        0.6207036        20.33548        0.6207036        20.33546        0.4403471         152.174
4.6644                 0.4436673        151.2107        0.6173733        19.34344        0.6173733        19.34342        0.4436679        151.2107
4.6658                  0.446868        150.2488        0.6139593        18.35428        0.6139594        18.35426        0.4468686        150.2488
4.6672                  0.449947        149.2884        0.6104649        17.36816        0.6104649        17.36814        0.4499476        149.2884
4.6686                 0.4529029        148.3298        0.6068934        16.38522        0.6068934         16.3852        0.4529035        148.3298
4.67                   0.4557342         147.373        0.6032482        15.40561        0.6032481        15.40559        0.4557348         147.373
4.6714                 0.4584396        146.4181        0.5995326        14.42946        0.5995326        14.42944        0.4584402        146.4181
4.6728                 0.4610179        145.4652        0.5957502         13.4569        0.5957501        13.45689        0.4610185        145.4652
4.6742                 0.4634678        144.5146        0.5919044        12.48806        0.5919043        12.48804        0.4634686        144.5145
4.6756                 0.4657886        143.5662        0.5879986        11.52304        0.5879984        11.52302        0.4657892        143.5662
4.677                  0.4679791        142.6202        0.5840363        10.56195        0.5840362        10.56193        0.4679797        142.6202
4.6784                 0.4700383        141.6768        0.5800212        9.604882         0.580021        9.604865        0.4700389        141.6768
4.6798                 0.4719657        140.7361        0.5759565        8.651931        0.5759563        8.651915        0.4719663        140.7361
4.6812                 0.4737605        139.7983        0.5718459        7.703174        0.5718457        7.703158        0.4737612        139.7983
4.6826                 0.4754223        138.8634        0.5676927        6.758681        0.5676926        6.758664        0.4754229        138.8634
4.684                  0.4769504        137.9317        0.5635006        5.818512        0.5635004        5.818495         0.476951        137.9317
4.6854                 0.4783446        137.0033        0.5592728        4.882718        0.5592726        4.882702        0.4783453        137.0033
4.6868                 0.4796047        136.0784        0.5550128        3.951339        0.5550126        3.951324        0.4796054        136.0784
4.6882                 0.4807306        135.1571         0.550724        3.024405        0.5507239        3.024391        0.4807312        135.1571
4.6896                 0.4817222        134.2396        0.5464097        2.101937        0.5464095        2.101923        0.4817228        134.2396
4.691                  0.4825795         133.326        0.5420733         1.18394         0.542073        1.183927        0.4825802         133.326
4.6924                 0.4833029        132.4166        0.5377178       0.2704127        0.5377176          0.2704        0.4833035        132.4166
4.6938                 0.4838925        131.5116        0.5333464      -0.6386615        0.5333462      -0.6386732        0.4838932        131.5116
4.6952                  0.484349         130.611        0.5289624        -1.54331        0.5289621       -1.543321        0.4843496         130.611
4.6966                 0.4846727        129.7152        0.5245687       -2.443572        0.5245684       -2.443582        0.4846733        129.7152
4.698                  0.4848644        128.8242        0.5201681       -3.339502        0.5201679        -3.33951        0.4848651        128.8242
4.6994                  0.484925        127.9384        0.5157638       -4.231164        0.5157636       -4.231172        0.4849257        127.9384
4.7008                 0.4848551        127.0578        0.5113584       -5.118637        0.5113582       -5.118644        0.4848558        127.0578
4.7022                 0.4846562        126.1828        0.5069547       -6.002024        0.5069544       -6.002024        0.4846567        126.1828
4.7036                 0.4843289        125.3134        0.5025552        -6.88142        0.5025549        -6.88142        0.4843295        125.3135
4.705                  0.4838748        124.4501        0.4981623       -7.756922        0.4981621        -7.75695        0.4838754        124.4501
4.7064                 0.4832952        123.5928        0.4937787       -8.628696        0.4937784       -8.628723        0.4832959        123.5928
4.7078                 0.4825917         122.742        0.4894064        -9.49691        0.4894061        -9.49691        0.4825923         122.742
4.7092                 0.4817657        121.8977        0.4850476       -10.36165        0.4850473       -10.36165        0.4817664        121.8977
4.7106                 0.4808192        121.0603        0.4807045       -11.22317        0.4807042       -11.22317        0.4808198        121.0603
4.712                   0.479754          120.23        0.4763789       -12.08163        0.4763786       -12.08162        0.4797546          120.23
4.7134                 0.4785719         119.407        0.4720726       -12.93722        0.4720723       -12.93722        0.4785725         119.407
4.7148                 0.4772753        118.5916        0.4677874       -13.79017        0.4677871       -13.79016        0.4772758        118.5916
4.7162                 0.4758661         117.784        0.4635247       -14.64071        0.4635243        -14.6407        0.4758667         117.784
4.7176                 0.4743469        116.9844        0.4592859       -15.48908        0.4592856       -15.48907        0.4743475        116.9844
4.719                    0.47272        116.1932        0.4550723       -16.33554         0.455072       -16.33553        0.4727206        116.1932
4.7204                  0.470988        115.4106        0.4508851       -17.18035        0.4508848       -17.18034        0.4709886        115.4106
4.7218                 0.4691536        114.6369        0.4467252        -18.0238        0.4467249       -18.02379        0.4691541        114.6369
4.7232                 0.4672195        113.8722        0.4425936       -18.86618        0.4425933       -18.86617        0.4672201        113.8722
4.7246                 0.4651887         113.117        0.4384909       -19.70779        0.4384905       -19.70778        0.4651892         113.117
4.726                   0.463064        112.3714        0.4344177       -20.54894        0.4344174       -20.54893        0.4630646        112.3714
4.7274                 0.4608488        111.6358        0.4303744       -21.38996        0.4303742       -21.38994        0.4608493        111.6357
4.7288                  0.458546        110.9103        0.4263615       -22.23118        0.4263612       -22.23116        0.4585466        110.9103
4.7302                 0.4561591        110.1954         0.422379       -23.07293        0.4223788       -23.07291        0.4561596        110.1954
4.7316                 0.4536914        109.4913        0.4184271       -23.91556        0.4184268       -23.91554         0.453692        109.4913
4.733                  0.4511464        108.7982        0.4145057       -24.75943        0.4145054       -24.75941         0.451147        108.7982
4.7344                 0.4485277        108.1165        0.4106146        -25.6049        0.4106143       -25.60488        0.4485283        108.1165
4.7358                 0.4458391        107.4464        0.4067534       -26.45233        0.4067531        -26.4523        0.4458396        107.4464
4.7372                 0.4430841        106.7882        0.4029218       -27.30209        0.4029215       -27.30206        0.4430846        106.7883
4.7386                 0.4402666        106.1423        0.3991192       -28.15454         0.399119       -28.15451        0.4402671        106.1423
4.74                   0.4373906        105.5088        0.3953451       -29.01007        0.3953448       -29.01004        0.4373911        105.5088
4.7414                   0.43446         104.888        0.3915986       -29.86904        0.3915983       -29.86901        0.4344605         104.888
4.7428                 0.4314789        104.2803        0.3878789       -30.73184        0.3878786       -30.73181        0.4314794        104.2803
4.7442                 0.4284513        103.6858        0.3841852       -31.59884         0.384185        -31.5988        0.4284518        103.6858
4.7456                 0.4253815        103.1049        0.3805164       -32.47041        0.3805162       -32.47037         0.425382        103.1049
4.747                  0.4222737        102.5378        0.3768717       -33.34692        0.3768714       -33.34689        0.4222742        102.5378
4.7484                 0.4191321        101.9848        0.3732496       -34.22876        0.3732495       -34.22872        0.4191326        101.9848
4.7498                 0.4159611         101.446        0.3696493       -35.11628        0.3696491       -35.11624        0.4159615         101.446
4.7512                 0.4127649        100.9218        0.3660692       -36.00984        0.3660691        -36.0098        0.4127654        100.9218
4.7526                  0.409548        100.4123        0.3625084       -36.90981        0.3625083       -36.90977        0.4095485        100.4123
4.754                  0.4063148        99.91773        0.3589655       -37.81653        0.3589653        -37.8165        0.4063153        99.91775
4.7554                 0.4030697        99.43833         0.355439       -38.73037        0.3554389       -38.73033        0.4030701        99.43832
4.7568                 0.3998171        98.97422        0.3519278       -39.65165        0.3519276       -39.65161        0.3998176        98.97422
4.7582                 0.3965615        98.52558        0.3484304       -40.58073        0.3484303       -40.58069        0.3965619        98.52558
4.7596                 0.3933072        98.09259        0.3449454       -41.51792        0.3449454       -41.51787        0.3933076        98.09258
4.761                  0.3900586        97.67526        0.3414717       -42.46355        0.3414716       -42.46351        0.3900591        97.67528
4.7624                 0.3868203        97.27378        0.3380078       -43.41793        0.3380077       -43.41789        0.3868207        97.27377
4.7638                 0.3835965        96.88818        0.3345523       -44.38139        0.3345522       -44.38135        0.3835968        96.88818
4.7652                 0.3803915        96.51851        0.3311041       -45.35421        0.3311041       -45.35417        0.3803918         96.5185
4.7666                 0.3772095        96.16478        0.3276619       -46.33671        0.3276617       -46.33668        0.3772099        96.16478
4.768                  0.3740549        95.82698        0.3242243       -47.32917        0.3242243       -47.32913        0.3740553        95.82698
4.7694                 0.3709317        95.50507        0.3207904       -48.33187        0.3207903       -48.33183        0.3709321        95.50507
4.7708                  0.367844        95.19896        0.3173589        -49.3451        0.3173589       -49.34505        0.3678443        95.19896
4.7722                 0.3647957        94.90852        0.3139288       -50.36912        0.3139288       -50.36908         0.364796        94.90852
4.7736                 0.3617907        94.63364        0.3104991        -51.4042        0.3104991       -51.40416         0.361791        94.63364
4.775                  0.3588326        94.37409        0.3070689       -52.45061        0.3070689       -52.45057        0.3588329        94.37409
4.7764                 0.3559253        94.12966        0.3036372       -53.50862        0.3036372       -53.50858        0.3559256        94.12966
4.7778                  0.353072        93.90005        0.3002034       -54.57845        0.3002034       -54.57842        0.3530723        93.90008
