! TOUCHSTONE file generated by CST MICROWAVE STUDIO
! Date and time: Sun Dec  1 17:16:57 2024
! Project name: test_tuning.cst
! Parameters = {airCoaxOuterDiameter=3; chamferAngle=45; chamferWidth=24; connectorLength=10; drillingHoleDiameter=4.1; feedLength=60; flareDiameter=130; flareLength=70; gratingDistance=0; gratingGap=1.90274; outletLength=30; polarizerLength=68; probe1Diameter=1.3; probe1Distance=14; probe1Length=12; probe2Diameter=1.3; probe2Distance=0; probe2Length=12; probeLength=12; smaInnerDiameter=1.3; smaOuterDiameter=4.1; transitionCoefficient=1.33; waveguideFeedLength=30; waveguideSide=50; waveguideThickness=3; wireCount=25; wireDiameter=1.17699}
! Header version: 2024
! Port assignment regex: !\s*Touchstone port\s*([0-9]+)\s*=\s*(CST MWS port|CST DES external port|CST DES block port)\s*(.+)\s* \(\"(.*)\"\)(\s*mode\s*([0-9]+))?.*
! Touchstone port assignment:
! Touchstone port 1 = CST MWS port 1 ("Input1")
! Touchstone port 2 = CST MWS port 2 ("Input2")
# GHz S MA R 50
4.6                    0.2152895       -165.9135        0.6500594        65.16447        0.6500593        65.16448        0.2152899       -165.9135
4.6014                 0.2213016       -166.9966        0.6521587        64.32456        0.6521585        64.32456        0.2213021       -166.9967
4.6028                  0.227296       -168.0663        0.6541809        63.47453        0.6541807        63.47453        0.2272965       -168.0664
4.6042                 0.2332704       -169.1237        0.6561213        62.61464        0.6561212        62.61464        0.2332709       -169.1238
4.6056                 0.2392228       -170.1699        0.6579751        61.74515         0.657975        61.74515        0.2392232         -170.17
4.607                   0.245151       -171.2059         0.659738        60.86631        0.6597378        60.86631        0.2451514        -171.206
4.6084                  0.251053       -172.2325        0.6614054        59.97839        0.6614052         59.9784        0.2510535       -172.2325
4.6098                 0.2569269       -173.2504        0.6629732        59.08168         0.662973        59.08168        0.2569273       -173.2505
4.6112                 0.2627705       -174.2604        0.6644375        58.17647        0.6644374        58.17647         0.262771       -174.2605
4.6126                  0.268582       -175.2632        0.6657947        57.26304        0.6657944        57.26305        0.2685825       -175.2633
4.614                  0.2743595       -176.2593        0.6670409        56.34171        0.6670407         56.3417        0.2743599       -176.2593
4.6154                 0.2801009       -177.2492        0.6681729        55.41276        0.6681727        55.41276        0.2801014       -177.2492
4.6168                 0.2858044       -178.2335        0.6691878         54.4765        0.6691875         54.4765        0.2858048       -178.2335
4.6182                  0.291468       -179.2125        0.6700822        53.53325        0.6700821        53.53326        0.2914685       -179.2126
4.6196                 0.2970899        179.8132        0.6708539        52.58332        0.6708537        52.58333        0.2970904        179.8132
4.621                  0.3026682        178.8434        0.6715001        51.62702           0.6715        51.62703        0.3026686        178.8434
4.6224                 0.3082009        177.8776        0.6720187        50.66467        0.6720186        50.66467        0.3082014        177.8776
4.6238                 0.3136863        176.9156        0.6724076        49.69658        0.6724075        49.69658        0.3136868        176.9156
4.6252                 0.3191225        175.9571        0.6726651        48.72307        0.6726649        48.72307         0.319123        175.9571
4.6266                 0.3245076        175.0017        0.6727893        47.74445        0.6727892        47.74445         0.324508        175.0017
4.628                  0.3298398        174.0493        0.6727791        46.76104         0.672779        46.76104        0.3298402        174.0493
4.6294                 0.3351172        173.0995        0.6726333        45.77315        0.6726331        45.77316        0.3351176        173.0995
4.6308                 0.3403379        172.1523        0.6723508        44.78112        0.6723507        44.78112        0.3403384        172.1522
4.6322                 0.3455002        171.2073        0.6719311        43.78522         0.671931        43.78523        0.3455006        171.2072
4.6336                 0.3506021        170.2644        0.6713736        42.78579        0.6713734         42.7858        0.3506026        170.2643
4.635                  0.3556419        169.3234        0.6706778        41.78315        0.6706777        41.78315        0.3556424        169.3233
4.6364                 0.3606177        168.3841        0.6698438        40.77758        0.6698437        40.77759        0.3606182        168.3841
4.6378                 0.3655276        167.4465        0.6688718         39.7694        0.6688716         39.7694        0.3655281        167.4464
4.6392                 0.3703698        166.5103        0.6677617        38.75892        0.6677616        38.75892        0.3703702        166.5103
4.6406                 0.3751424        165.5754        0.6665145        37.74642        0.6665144        37.74643        0.3751428        165.5754
4.642                  0.3798436        164.6418        0.6651307        36.73222        0.6651306        36.73222         0.379844        164.6418
4.6434                 0.3844715        163.7093        0.6636111         35.7166         0.663611         35.7166        0.3844719        163.7093
4.6448                 0.3890242        162.7778        0.6619569        34.69986        0.6619568        34.69986        0.3890247        162.7778
4.6462                    0.3935        161.8473        0.6601693         33.6823        0.6601692         33.6823        0.3935004        161.8473
4.6476                 0.3978969        160.9176        0.6582497         32.6642        0.6582496         32.6642        0.3978973        160.9176
4.649                   0.402213        159.9887        0.6561998        31.64583        0.6561998        31.64584        0.4022135        159.9886
4.6504                 0.4064466        159.0605        0.6540214         30.6275        0.6540214         30.6275         0.406447        159.0604
4.6518                 0.4105956        158.1329        0.6517165        29.60946        0.6517164        29.60946        0.4105961        158.1329
4.6532                 0.4146584         157.206         0.649287        28.59199        0.6492869          28.592        0.4146589        157.2059
4.6546                  0.418633        156.2796        0.6467353        27.57538        0.6467352        27.57538        0.4186335        156.2796
4.656                  0.4225177        155.3537        0.6440638        26.55987        0.6440637        26.55987        0.4225181        155.3537
4.6574                 0.4263104        154.4284        0.6412751        25.54574         0.641275        25.54574        0.4263108        154.4284
4.6588                 0.4300095        153.5035        0.6383718        24.53325        0.6383717        24.53325        0.4300099        153.5035
4.6602                  0.433613        152.5791        0.6353566        23.52264        0.6353566        23.52265        0.4336134        152.5791
4.6616                 0.4371192        151.6552        0.6322328        22.51417        0.6322326        22.51418        0.4371197        151.6552
4.663                  0.4405264        150.7318        0.6290031         21.5081        0.6290031         21.5081        0.4405269        150.7318
4.6644                 0.4438326        149.8088        0.6256709        20.50465        0.6256709        20.50465        0.4438331        149.8088
4.6658                 0.4470362        148.8863        0.6222395        19.50406        0.6222395        19.50406        0.4470367        148.8863
4.6672                 0.4501355        147.9644        0.6187122        18.50657        0.6187121        18.50658         0.450136        147.9644
4.6686                 0.4531288        147.0429        0.6150925        17.51241        0.6150924        17.51241        0.4531293        147.0429
4.67                   0.4560144        146.1221        0.6113839        16.52179        0.6113839        16.52178        0.4560148        146.1221
4.6714                 0.4587906        145.2019        0.6075902        15.53492        0.6075902        15.53492         0.458791        145.2019
4.6728                 0.4614558        144.2823        0.6037151        14.55202        0.6037151        14.55202        0.4614562        144.2823
4.6742                 0.4640086        143.3635        0.5997625        13.57329        0.5997624        13.57329         0.464009        143.3635
4.6756                 0.4664473        142.4455        0.5957359        12.59893        0.5957359        12.59893        0.4664478        142.4455
4.677                  0.4687707        141.5283        0.5916396        11.62912        0.5916395        11.62912        0.4687711        141.5283
4.6784                 0.4709771         140.612        0.5874774        10.66405        0.5874773        10.66405        0.4709776         140.612
4.6798                 0.4730654        139.6968        0.5832534        9.703879        0.5832534        9.703878        0.4730658        139.6968
4.6812                 0.4750341        138.7827        0.5789715         8.74878        0.5789715         8.74878        0.4750346        138.7827
4.6826                 0.4768821        137.8698         0.574636        7.798907        0.5746359        7.798907        0.4768825        137.8698
4.684                  0.4786082        136.9582        0.5702508        6.854406        0.5702508        6.854406        0.4786086        136.9582
4.6854                 0.4802114        136.0481        0.5658201        5.915413          0.56582        5.915413        0.4802118        136.0481
4.6868                 0.4816904        135.1394        0.5613479        4.982053        0.5613478        4.982053        0.4816909        135.1394
4.6882                 0.4830446        134.2325        0.5568384        4.054441        0.5568384        4.054441        0.4830451        134.2325
4.6896                 0.4842732        133.3273        0.5522957         3.13268        0.5522956        3.132681        0.4842736        133.3273
4.691                  0.4853751        132.4241        0.5477238        2.216861        0.5477237        2.216862        0.4853755        132.4241
4.6924                 0.4863497        131.5229        0.5431268        1.307062        0.5431268        1.307063        0.4863501         131.523
4.6938                 0.4871966         130.624        0.5385088       0.4033487        0.5385087       0.4033495        0.4871971         130.624
4.6952                 0.4879152        129.7275        0.5338736      -0.4942292        0.5338735      -0.4942284        0.4879156        129.7275
4.6966                 0.4885051        128.8335        0.5292252       -1.385635        0.5292251       -1.385634        0.4885056        128.8335
4.698                  0.4889661        127.9422        0.5245675       -2.270846        0.5245675       -2.270845        0.4889666        127.9423
4.6994                  0.489298        127.0539        0.5199043       -3.149859        0.5199043       -3.149858        0.4892984        127.0539
4.7008                 0.4895006        126.1686        0.5152392       -4.022683        0.5152392       -4.022682        0.4895011        126.1686
4.7022                 0.4895742        125.2866         0.510576       -4.889346         0.510576       -4.889344        0.4895746        125.2867
4.7036                 0.4895187        124.4081        0.5059182       -5.749881        0.5059181       -5.749881        0.4895192        124.4082
4.705                  0.4893345        123.5333        0.5012691       -6.604396        0.5012691       -6.604396         0.489335        123.5333
4.7064                 0.4890221        122.6624        0.4966323       -7.452924        0.4966323       -7.452924        0.4890225        122.6624
4.7078                 0.4885818        121.7956        0.4920108       -8.295585        0.4920107       -8.295585        0.4885823        121.7956
4.7092                 0.4880145        120.9331        0.4874078       -9.132491        0.4874078       -9.132492        0.4880149        120.9331
4.7106                 0.4873207        120.0752        0.4828264       -9.963766        0.4828263       -9.963764        0.4873211        120.0752
4.712                  0.4865015        119.2221        0.4782692       -10.78961        0.4782691       -10.78961        0.4865019        119.2221
4.7134                 0.4855578        118.3741         0.473739       -11.61018         0.473739       -11.61017        0.4855582        118.3741
4.7148                 0.4844908        117.5313        0.4692384       -12.42568        0.4692384       -12.42567        0.4844912        117.5313
4.7162                 0.4833017        116.6942        0.4647699       -13.23632        0.4647698       -13.23632        0.4833021        116.6942
4.7176                 0.4819921        115.8628        0.4603354       -14.04236        0.4603354       -14.04235        0.4819925        115.8628
4.719                  0.4805635        115.0376        0.4559373       -14.84404        0.4559372       -14.84404        0.4805639        115.0376
4.7204                 0.4790175        114.2187        0.4515773       -15.64165        0.4515772       -15.64165        0.4790178        114.2187
4.7218                 0.4773558        113.4066        0.4472572        -16.4355        0.4472572       -16.43549        0.4773562        113.4066
4.7232                 0.4755806        112.6013        0.4429785       -17.22589        0.4429785       -17.22589         0.475581        112.6013
4.7246                 0.4736938        111.8034        0.4387427       -18.01317        0.4387426       -18.01317        0.4736941        111.8034
4.726                  0.4716977        111.0129        0.4345507        -18.7977        0.4345507       -18.79769         0.471698        111.0129
4.7274                 0.4695946        110.2304        0.4304039       -19.57984        0.4304038       -19.57983        0.4695949        110.2304
4.7288                  0.467387        109.4561        0.4263026       -20.35999        0.4263027       -20.35998        0.4673873        109.4561
4.7302                 0.4650775        108.6902        0.4222479       -21.13855        0.4222479       -21.13854        0.4650778        108.6902
4.7316                 0.4626687        107.9332          0.41824       -21.91594        0.4182399       -21.91594        0.4626691        107.9332
4.733                  0.4601638        107.1854        0.4142791        -22.6926        0.4142791        -22.6926        0.4601641        107.1854
4.7344                 0.4575655        106.4471        0.4103654       -23.46897        0.4103654       -23.46897        0.4575658        106.4471
4.7358                 0.4548769        105.7186        0.4064987       -24.24551        0.4064987        -24.2455        0.4548772        105.7186
4.7372                 0.4521014        105.0003        0.4026787       -25.02268        0.4026787       -25.02268        0.4521018        105.0004
4.7386                 0.4492423        104.2926        0.3989051       -25.80096        0.3989051       -25.80095        0.4492426        104.2926
4.74                   0.4463031        103.5958        0.3951771       -26.58082        0.3951771       -26.58081        0.4463034        103.5958
4.7414                 0.4432873        102.9103        0.3914939       -27.36276        0.3914939       -27.36275        0.4432875        102.9103
4.7428                 0.4401987        102.2365        0.3878547       -28.14726        0.3878547       -28.14725         0.440199        102.2365
4.7442                 0.4370411        101.5746        0.3842583        -28.9348        0.3842583        -28.9348        0.4370413        101.5746
4.7456                 0.4338183        100.9251        0.3807035        -29.7259        0.3807035       -29.72589        0.4338186        100.9251
4.747                  0.4305346        100.2883        0.3771889       -30.52104         0.377189       -30.52103        0.4305348        100.2884
4.7484                 0.4271938        99.66469        0.3737131       -31.32069        0.3737132       -31.32068        0.4271941        99.66472
4.7498                 0.4238004        99.05458        0.3702745       -32.12536        0.3702746       -32.12535        0.4238006         99.0546
4.7512                 0.4203585        98.45828        0.3668714       -32.93551        0.3668715       -32.93551        0.4203587        98.45831
4.7526                 0.4168727        97.87621         0.363502       -33.75163         0.363502       -33.75163        0.4168729        97.87621
4.754                  0.4133472        97.30871        0.3601644       -34.57419        0.3601644       -34.57418        0.4133475        97.30874
4.7554                 0.4097869        96.75615        0.3568567       -35.40363        0.3568567       -35.40362        0.4097871        96.75615
4.7568                 0.4061962        96.21886        0.3535769        -36.2404        0.3535769        -36.2404        0.4061964        96.21888
4.7582                 0.4025798        95.69722        0.3503229       -37.08495        0.3503229       -37.08494          0.40258        95.69724
4.7596                 0.3989425        95.19152        0.3470927       -37.93769        0.3470927       -37.93769        0.3989427        95.19154
4.761                  0.3952891        94.70211        0.3438842       -38.79905        0.3438842       -38.79905        0.3952893        94.70213
4.7624                 0.3916244         94.2293        0.3406951       -39.66943        0.3406952       -39.66942        0.3916246        94.22933
4.7638                 0.3879533        93.77336        0.3375235        -40.5492        0.3375236       -40.54919        0.3879535        93.77341
4.7652                 0.3842807        93.33458        0.3343672       -41.43875        0.3343673       -41.43875        0.3842808        93.33461
4.7666                 0.3806114        92.91319        0.3312241       -42.33845        0.3312241       -42.33844        0.3806116        92.91322
4.768                  0.3769505        92.50941         0.328092       -43.24863        0.3280921       -43.24862        0.3769507        92.50947
4.7694                 0.3733029        92.12353         0.324969       -44.16963        0.3249691       -44.16962        0.3733029        92.12356
4.7708                 0.3696733        91.75563        0.3218531       -45.10177        0.3218531       -45.10177        0.3696734        91.75571
4.7722                 0.3660668        91.40592        0.3187422       -46.04536        0.3187423       -46.04536        0.3660669          91.406
4.7736                 0.3624882        91.07453        0.3156346        -47.0007        0.3156347       -47.00069        0.3624883        91.07456
4.775                  0.3589421        90.76148        0.3125284       -47.96805        0.3125285       -47.96805        0.3589423        90.76151
4.7764                 0.3554336        90.46685        0.3094219       -48.94771        0.3094219       -48.94771        0.3554337        90.46688
4.7778                  0.351967        90.19062        0.3063133       -49.93992        0.3063134       -49.93992        0.3519671        90.19065
