! TOUCHSTONE file generated by CST MICROWAVE STUDIO
! Date and time: Sun Dec  1 17:16:56 2024
! Project name: test_tuning.cst
! Parameters = {airCoaxOuterDiameter=3; chamferAngle=45; chamferWidth=24; connectorLength=10; drillingHoleDiameter=4.1; feedLength=60; flareDiameter=130; flareLength=70; gratingDistance=0; gratingGap=1.90274; outletLength=30; polarizerLength=144; probe1Diameter=1.3; probe1Distance=14; probe1Length=12; probe2Diameter=1.3; probe2Distance=0; probe2Length=12; probeLength=12; smaInnerDiameter=1.3; smaOuterDiameter=4.1; transitionCoefficient=1.33; waveguideFeedLength=30; waveguideSide=50; waveguideThickness=3; wireCount=25; wireDiameter=1.17699}
! Header version: 2024
! Port assignment regex: !\s*Touchstone port\s*([0-9]+)\s*=\s*(CST MWS port|CST DES external port|CST DES block port)\s*(.+)\s* \(\"(.*)\"\)(\s*mode\s*([0-9]+))?.*
! Touchstone port assignment:
! Touchstone port 1 = CST MWS port 1 ("Input1")
! Touchstone port 2 = CST MWS port 2 ("Input2")
# GHz S MA R 50
4.6                    0.1796109       -159.4468        0.6498616        65.85051        0.6498613        65.85042        0.1796114       -159.4466
4.6014                 0.1868331        -159.871        0.6505695        64.91416        0.6505693        64.91408        0.1868336       -159.8709
4.6028                 0.1943046       -160.3152        0.6511785        63.97425        0.6511784        63.97417        0.1943051        -160.315
4.6042                 0.2020346       -160.7873        0.6516848        63.03059        0.6516847         63.0305        0.2020352       -160.7872
4.6056                  0.210027       -161.2949        0.6520842        62.08301         0.652084        62.08294        0.2100276       -161.2948
4.607                  0.2182804       -161.8442        0.6523712         61.1315         0.652371        61.13142         0.218281       -161.8441
4.6084                 0.2267885       -162.4404        0.6525402        60.17609        0.6525399        60.17601        0.2267891       -162.4403
4.6098                 0.2355398       -163.0874         0.652585        59.21692        0.6525847        59.21687        0.2355404       -163.0873
4.6112                 0.2445185       -163.7881        0.6524995        58.25428        0.6524992        58.25421        0.2445192        -163.788
4.6126                 0.2537046       -164.5441        0.6522776        57.28851        0.6522774        57.28844        0.2537053       -164.5441
4.614                  0.2630746       -165.3562        0.6519138         56.3201        0.6519135        56.32004        0.2630753       -165.3562
4.6154                 0.2726018       -166.2241         0.651403        55.34965        0.6514028        55.34959        0.2726025        -166.224
4.6168                 0.2822573       -167.1466        0.6507411        54.37785        0.6507409         54.3778        0.2822579       -167.1465
4.6182                 0.2920099       -168.1219        0.6499249         53.4055        0.6499247        53.40544        0.2920106       -168.1219
4.6196                 0.3018276       -169.1476        0.6489527        52.43344        0.6489526        52.43339        0.3018282       -169.1476
4.621                  0.3116773        -170.221        0.6478241        51.46263         0.647824        51.46257         0.311678        -170.221
4.6224                 0.3215259       -171.3386        0.6465403        50.49401        0.6465402        50.49395        0.3215265       -171.3386
4.6238                 0.3313403        -172.497        0.6451039        49.52861        0.6451038        49.52856        0.3313409        -172.497
4.6252                 0.3410884       -173.6925        0.6435196        48.56743        0.6435195        48.56738        0.3410889       -173.6925
4.6266                  0.350739       -174.9212        0.6417934        47.61148        0.6417933        47.61142        0.3507395       -174.9212
4.628                  0.3602625       -176.1791        0.6399333         46.6617        0.6399332        46.66165         0.360263       -176.1792
4.6294                 0.3696311       -177.4625        0.6379488        45.71901        0.6379487        45.71896        0.3696316       -177.4625
4.6308                 0.3788192       -178.7675        0.6358507        44.78423        0.6358506        44.78417        0.3788196       -178.7675
4.6322                 0.3878032        179.9098        0.6336516        43.85806        0.6336514          43.858        0.3878036        179.9098
4.6336                 0.3965624         178.573         0.631365        42.94111        0.6313648        42.94105        0.3965628         178.573
4.635                  0.4050787        177.2256        0.6290052        42.03381        0.6290051        42.03374         0.405079        177.2256
4.6364                 0.4133367         175.871        0.6265877        41.13644        0.6265874        41.13638        0.4133369         175.871
4.6378                 0.4213237        174.5124         0.624128        40.24913        0.6241277        40.24907         0.421324        174.5124
4.6392                 0.4290303        173.1528        0.6216419        39.37178        0.6216416        39.37172        0.4290305        173.1528
4.6406                 0.4364496        171.7949        0.6191451        38.50412        0.6191448        38.50405        0.4364498        171.7949
4.642                  0.4435778        170.4414        0.6166528        37.64565        0.6166524        37.64559         0.443578        170.4414
4.6434                 0.4504136        169.0945        0.6141792        36.79571        0.6141788        36.79565        0.4504138        169.0945
4.6448                 0.4569585        167.7564        0.6117375         35.9534        0.6117371        35.95334        0.4569586        167.7564
4.6462                 0.4632161        166.4288        0.6093397        35.11767        0.6093393        35.11761        0.4632163        166.4289
4.6476                 0.4691926        165.1135        0.6069957        34.28727        0.6069952        34.28722        0.4691928        165.1136
4.649                  0.4748959        163.8117        0.6047137        33.46082        0.6047132        33.46077        0.4748961        163.8118
4.6504                 0.4803359        162.5245        0.6024997         32.6368        0.6024991        32.63675         0.480336        162.5246
4.6518                 0.4855236        161.2528        0.6003573         31.8136        0.6003567        31.81355        0.4855238        161.2528
4.6532                 0.4904714        159.9971        0.5982876        30.98954         0.598287        30.98949        0.4904716        159.9971
4.6546                 0.4951923        158.7576        0.5962895         30.1629        0.5962888        30.16286        0.4951926        158.7577
4.656                     0.4997        157.5346         0.594359        29.33199        0.5943583        29.33195        0.4997003        157.5347
4.6574                 0.5040081        156.3278          0.59249        28.49514        0.5924893        28.49511        0.5040085        156.3279
4.6588                 0.5081302        155.1369        0.5906738        27.65077        0.5906731        27.65074        0.5081306         155.137
4.6602                 0.5120792        153.9614        0.5888997         26.7974         0.588899        26.79737        0.5120798        153.9615
4.6616                 0.5158675        152.8004        0.5871549        25.93371        0.5871541        25.93369        0.5158681        152.8005
4.663                  0.5195061        151.6531        0.5854249        25.05854        0.5854242        25.05852        0.5195068        151.6532
4.6644                 0.5230051        150.5186         0.583694        24.17092        0.5836933        24.17091        0.5230058        150.5186
4.6658                 0.5263726        149.3956        0.5819453        23.27013        0.5819445        23.27012        0.5263733        149.3957
4.6672                 0.5296153        148.2831        0.5801611        22.35564        0.5801604        22.35564        0.5296162        148.2832
4.6686                 0.5327384        147.1798        0.5783234        21.42718        0.5783227        21.42718        0.5327394        147.1799
4.67                    0.535745        146.0846        0.5764141        20.48472        0.5764134        20.48473         0.535746        146.0847
4.6714                 0.5386364        144.9963        0.5744157        19.52848        0.5744151         19.5285        0.5386375        144.9964
4.6728                 0.5414123        143.9138        0.5723113        18.55892        0.5723107        18.55894        0.5414135        143.9139
4.6742                 0.5440707        142.8361        0.5700849        17.57671        0.5700843        17.57673        0.5440718        142.8361
4.6756                 0.5466078        141.7622         0.567722        16.58275        0.5677214        16.58278         0.546609        141.7623
4.677                  0.5490189        140.6914        0.5652097        15.57814        0.5652091        15.57818        0.5490202        140.6915
4.6784                  0.551298        139.6231        0.5625368        14.56418        0.5625363        14.56421        0.5512992        139.6231
4.6798                 0.5534379        138.5568        0.5596944        13.54228        0.5596939        13.54232        0.5534393        138.5568
4.6812                 0.5554315        137.4921        0.5566756        12.51405        0.5566753        12.51409        0.5554328        137.4921
4.6826                 0.5572707         136.429        0.5534762        11.48115        0.5534759        11.48119         0.557272         136.429
4.684                  0.5589475        135.3674         0.550094        10.44536        0.5500938        10.44541        0.5589489        135.3675
4.6854                 0.5604545        134.3077        0.5465297        9.408523        0.5465294         9.40857        0.5604558        134.3077
4.6868                 0.5617843          133.25         0.542786        8.372491        0.5427858        8.372539        0.5617856          133.25
4.6882                 0.5629306        132.1951        0.5388684        7.339127        0.5388682        7.339175        0.5629318         132.195
4.6896                 0.5638879        131.1433        0.5347846        6.310265        0.5347845        6.310313        0.5638892        131.1433
4.691                  0.5646524        130.0957        0.5305446        5.287682        0.5305445        5.287728        0.5646535        130.0956
4.6924                 0.5652211        129.0529        0.5261602        4.273062        0.5261602        4.273108        0.5652222        129.0529
4.6938                  0.565593        128.0159        0.5216454        3.267977        0.5216454        3.268021        0.5655942        128.0159
4.6952                 0.5657687        126.9858        0.5170154        2.273849        0.5170155        2.273893        0.5657697        126.9857
4.6966                 0.5657506        125.9634         0.512287         1.29193         0.512287        1.291972        0.5657515        125.9633
4.698                  0.5655427        124.9498        0.5074779       0.3232691         0.507478       0.3233081        0.5655436        124.9497
4.6994                 0.5651511        123.9459        0.5026066      -0.6313083        0.5026067      -0.6312715        0.5651518        123.9459
4.7008                 0.5645834        122.9527        0.4976919       -1.571221         0.497692       -1.571187         0.564584        122.9527
4.7022                 0.5638489         121.971        0.4927526       -2.496152        0.4927528       -2.496121        0.5638495         121.971
4.7036                 0.5629583        121.0016        0.4878072       -3.406059        0.4878074        -3.40603        0.5629587        121.0015
4.705                  0.5619236         120.045        0.4828736       -4.301189        0.4828738       -4.301162        0.5619241        120.0449
4.7064                 0.5607581        119.1016        0.4779685       -5.182041        0.4779686       -5.182014        0.5607584        119.1016
4.7078                 0.5594754        118.1718        0.4731071        -6.04947        0.4731073       -6.049443        0.5594756        118.1718
4.7092                 0.5580898        117.2557        0.4683033       -6.904529        0.4683034       -6.904502        0.5580902        117.2557
4.7106                 0.5566162        116.3532        0.4635686       -7.748536        0.4635688        -7.74852        0.5566164        116.3532
4.712                  0.5550687        115.4639        0.4589128       -8.583055         0.458913       -8.583042        0.5550689        115.4639
4.7134                 0.5534613        114.5873         0.454343       -9.409826        0.4543432       -9.409816        0.5534615        114.5873
4.7148                 0.5518071        113.7229        0.4498639       -10.23075        0.4498641       -10.23074        0.5518072        113.7229
4.7162                  0.550118        112.8696        0.4454778       -11.04782         0.445478       -11.04781        0.5501181        112.8696
4.7176                 0.5484045        112.0264        0.4411844        -11.8631        0.4411846       -11.86309        0.5484047        112.0264
4.719                  0.5466756        111.1921        0.4369809       -12.67867         0.436981       -12.67866        0.5466759        111.1921
4.7204                 0.5449383        110.3653        0.4328622       -13.49654        0.4328623       -13.49654        0.5449386        110.3654
4.7218                 0.5431974        109.5447        0.4288211       -14.31867        0.4288212       -14.31867        0.5431977        109.5447
4.7232                 0.5414555        108.7285        0.4248485       -15.14684        0.4248486       -15.14684        0.5414559        108.7286
4.7246                 0.5397131        107.9154        0.4209337       -15.98266        0.4209338       -15.98266        0.5397136        107.9155
4.726                  0.5379682        107.1037        0.4170648       -16.82751        0.4170649       -16.82751        0.5379688        107.1038
4.7274                 0.5362168         106.292        0.4132286       -17.68252        0.4132288       -17.68252        0.5362175        106.2921
4.7288                 0.5344526        105.4788        0.4094119       -18.54853         0.409412       -18.54853        0.5344534        105.4789
4.7302                 0.5326674        104.6629        0.4056008        -19.4261        0.4056009       -19.42609        0.5326682         104.663
4.7316                 0.5308513        103.8431        0.4017818       -20.31544        0.4017819       -20.31543        0.5308522        103.8431
4.733                  0.5289929        103.0184        0.3979418       -21.21647        0.3979419       -21.21647        0.5289939        103.0184
4.7344                 0.5270798         102.188        0.3940688       -22.12882        0.3940689       -22.12882        0.5270808        102.1881
4.7358                 0.5250984        101.3515        0.3901517       -23.05178        0.3901518       -23.05178        0.5250995        101.3515
4.7372                 0.5230351        100.5084        0.3861809       -23.98438         0.386181       -23.98438        0.5230363        100.5085
4.7386                 0.5208761        99.65887        0.3821485        -24.9254        0.3821487        -24.9254        0.5208773        99.65889
4.74                   0.5186076        98.80294        0.3780487       -25.87338        0.3780488       -25.87338        0.5186088        98.80293
4.7414                 0.5162165         97.9411        0.3738773       -26.82666        0.3738775       -26.82666        0.5162178         97.9411
4.7428                 0.5136911        97.07405        0.3696326       -27.78341        0.3696327       -27.78341        0.5136925        97.07405
4.7442                 0.5110205        96.20266        0.3653149       -28.74171        0.3653151       -28.74172        0.5110219        96.20263
4.7456                 0.5081955        95.32805        0.3609268       -29.69954         0.360927       -29.69954        0.5081969        95.32805
4.747                  0.5052091        94.45158         0.356473       -30.65484        0.3564732       -30.65485        0.5052104        94.45155
4.7484                 0.5020557        93.57463        0.3519604       -31.60558        0.3519606        -31.6056        0.5020571        93.57457
4.7498                 0.4987326        92.69886        0.3473978       -32.54981        0.3473979       -32.54983        0.4987339         92.6988
4.7512                  0.495239        91.82592        0.3427956       -33.48568        0.3427958       -33.48569        0.4952402        91.82583
4.7526                 0.4915767        90.95759        0.3381662        -34.4115        0.3381664       -34.41153        0.4915778         90.9575
4.754                  0.4877498        90.09566         0.333523       -35.32584        0.3335232       -35.32587        0.4877508        90.09555
4.7554                 0.4837648        89.24192        0.3288805       -36.22752        0.3288807       -36.22755        0.4837657         89.2418
4.7568                 0.4796306        88.39811        0.3242541        -37.1157        0.3242544       -37.11573        0.4796314        88.39799
4.7582                 0.4753579        87.56587        0.3196595        -37.9899        0.3196596       -37.98994        0.4753587        87.56573
4.7596                 0.4709597        86.74674        0.3151121       -38.85008        0.3151123       -38.85012        0.4709602        86.74657
4.761                  0.4664502        85.94208        0.3106276       -39.69662        0.3106278       -39.69665        0.4664507        85.94191
4.7624                 0.4618453        85.15298        0.3062205        -40.5304        0.3062206       -40.53044        0.4618456        85.15285
4.7638                 0.4571616         84.3804        0.3019044       -41.35276        0.3019045       -41.35281        0.4571617        84.38026
4.7652                 0.4524163        83.62498        0.2976913       -42.16557        0.2976914       -42.16562        0.4524162        83.62482
4.7666                 0.4476268        82.88704        0.2935917       -42.97115        0.2935918       -42.97121        0.4476267        82.88687
4.768                  0.4428104         82.1666        0.2896141       -43.77229        0.2896141       -43.77235        0.4428101        82.16644
4.7694                 0.4379834        81.46332        0.2857644       -44.57219        0.2857644       -44.57226        0.4379829        81.46315
4.7708                 0.4331611        80.77656        0.2820463       -45.37441        0.2820463       -45.37447        0.4331604         80.7764
4.7722                 0.4283571        80.10531        0.2784611       -46.18279        0.2784611       -46.18285        0.4283564        80.10518
4.7736                 0.4235832        79.44826        0.2750072       -47.00138        0.2750072       -47.00145        0.4235823        79.44816
4.775                  0.4188487        78.80385        0.2716807       -47.83439        0.2716806       -47.83445        0.4188478        78.80375
4.7764                 0.4141605        78.17015        0.2684751       -48.68601         0.268475       -48.68608        0.4141594        78.17007
4.7778                 0.4095224        77.54514        0.2653818       -49.56042        0.2653816       -49.56049        0.4095213        77.54503
