! TOUCHSTONE file generated by CST MICROWAVE STUDIO
! Date and time: Sun Dec  1 17:16:55 2024
! Project name: test_tuning.cst
! Parameters = {airCoaxOuterDiameter=3; chamferAngle=45; chamferWidth=24; connectorLength=10; drillingHoleDiameter=4.1; feedLength=60; flareDiameter=130; flareLength=70; gratingDistance=0; gratingGap=1.90274; outletLength=30; polarizerLength=136; probe1Diameter=1.3; probe1Distance=14; probe1Length=12; probe2Diameter=1.3; probe2Distance=0; probe2Length=12; probeLength=12; smaInnerDiameter=1.3; smaOuterDiameter=4.1; transitionCoefficient=1.33; waveguideFeedLength=30; waveguideSide=50; waveguideThickness=3; wireCount=25; wireDiameter=1.17699}
! Header version: 2024
! Port assignment regex: !\s*Touchstone port\s*([0-9]+)\s*=\s*(CST MWS port|CST DES external port|CST DES block port)\s*(.+)\s* \(\"(.*)\"\)(\s*mode\s*([0-9]+))?.*
! Touchstone port assignment:
! Touchstone port 1 = CST MWS port 1 ("Input1")
! Touchstone port 2 = CST MWS port 2 ("Input2")
# GHz S MA R 50
4.6                    0.2178035       -163.1832        0.6153123        67.51411        0.6153123        67.51407        0.2178037       -163.1833
4.6014                 0.2239636        -163.813         0.616957        66.62775        0.6169568        66.62772        0.2239639       -163.8131
4.6028                 0.2301952       -164.4267        0.6185486        65.73086        0.6185484        65.73083        0.2301955       -164.4268
4.6042                 0.2365165        -165.027        0.6200789         64.8228        0.6200787        64.82277        0.2365169       -165.0271
4.6056                 0.2429449       -165.6173        0.6215379        63.90297        0.6215377        63.90294        0.2429452       -165.6173
4.607                  0.2494967       -166.2012        0.6229139        62.97092        0.6229137        62.97089         0.249497       -166.2012
4.6084                 0.2561864       -166.7826        0.6241944        62.02631        0.6241941        62.02629        0.2561868       -166.7827
4.6098                 0.2630268       -167.3658        0.6253653        61.06896         0.625365        61.06894        0.2630273       -167.3658
4.6112                 0.2700281       -167.9547         0.626412        60.09887        0.6264117        60.09885        0.2700285       -167.9548
4.6126                 0.2771977       -168.5535        0.6273194        59.11617        0.6273191        59.11616        0.2771982       -168.5536
4.614                  0.2845403       -169.1662        0.6280721        58.12122        0.6280719        58.12121        0.2845408       -169.1663
4.6154                 0.2920574       -169.7965        0.6286552        57.11454        0.6286548        57.11453         0.292058       -169.7965
4.6168                 0.2997476       -170.4476        0.6290536        56.09682        0.6290533        56.09682        0.2997482       -170.4477
4.6182                  0.307606       -171.1227        0.6292536        55.06895        0.6292533        55.06894        0.3076066       -171.1228
4.6196                  0.315625       -171.8243        0.6292422        54.03196         0.629242        54.03196        0.3156257       -171.8244
4.621                  0.3237942       -172.5544        0.6290081        52.98705        0.6290078        52.98705        0.3237948       -172.5545
4.6224                 0.3321002       -173.3148        0.6285413        51.93557         0.628541        51.93559        0.3321009       -173.3149
4.6238                 0.3405277       -174.1066        0.6278338        50.87901        0.6278336        50.87901        0.3405284       -174.1067
4.6252                 0.3490589       -174.9304        0.6268797        49.81891        0.6268794        49.81892        0.3490596       -174.9305
4.6266                 0.3576744       -175.7865        0.6256753        48.75696        0.6256751        48.75698        0.3576752       -175.7866
4.628                  0.3663536       -176.6747        0.6242193        47.69489        0.6242191         47.6949        0.3663543       -176.6748
4.6294                 0.3750745       -177.5945        0.6225129        46.63446        0.6225127        46.63449        0.3750752       -177.5946
4.6308                 0.3838146       -178.5449        0.6205597         45.5775        0.6205594        45.57752        0.3838154        -178.545
4.6322                  0.392551       -179.5249        0.6183656        44.52578        0.6183655        44.52581        0.3925517        -179.525
4.6336                 0.4012605        179.4671        0.6159396        43.48108        0.6159395        43.48111        0.4012612         179.467
4.635                  0.4099206        178.4326        0.6132923        42.44511        0.6132922        42.44514        0.4099213        178.4325
4.6364                  0.418509        177.3735        0.6104372        41.41951        0.6104371        41.41954        0.4185097        177.3735
4.6378                 0.4270044        176.2918        0.6073895         40.4058        0.6073894        40.40583        0.4270051        176.2917
4.6392                 0.4353863        175.1894        0.6041662        39.40539        0.6041662        39.40542        0.4353869        175.1893
4.6406                 0.4436356        174.0684        0.6007864        38.41952        0.6007865        38.41955        0.4436363        174.0683
4.642                  0.4517347        172.9309        0.5972702        37.44925        0.5972703        37.44928        0.4517353        172.9308
4.6434                 0.4596672         171.779         0.593639        36.49545         0.593639        36.49548        0.4596678        171.7789
4.6448                 0.4674187        170.6149        0.5899145        35.55877        0.5899146         35.5588        0.4674193        170.6148
4.6462                 0.4749762        169.4405        0.5861193        34.63963        0.5861194        34.63966        0.4749768        169.4404
4.6476                 0.4823289        168.2579        0.5822756        33.73818        0.5822757        33.73821        0.4823295        168.2578
4.649                  0.4894674        167.0689        0.5784055        32.85431        0.5784057        32.85434        0.4894678        167.0688
4.6504                 0.4963841        165.8753        0.5745302        31.98767        0.5745305        31.98769        0.4963846        165.8752
4.6518                 0.5030734        164.6787        0.5706701        31.13761        0.5706704        31.13763        0.5030739        164.6787
4.6532                 0.5095313        163.4809        0.5668437        30.30325        0.5668439        30.30327        0.5095317        163.4808
4.6546                 0.5157552        162.2831         0.563068        29.48343        0.5630682        29.48346        0.5157556         162.283
4.656                  0.5217443        161.0867        0.5593576         28.6768        0.5593578        28.67682        0.5217446        161.0866
4.6574                 0.5274988        159.8929        0.5557251        27.88176        0.5557253        27.88177        0.5274992        159.8928
4.6588                 0.5330205        158.7027        0.5521803        27.09656        0.5521805        27.09657        0.5330208        158.7026
4.6602                 0.5383118         157.517        0.5487303        26.31929        0.5487306         26.3193        0.5383122        157.5169
4.6616                 0.5433765        156.3365        0.5453795        25.54795        0.5453796        25.54796        0.5433769        156.3365
4.663                  0.5482189         155.162         0.542129        24.78049        0.5421293        24.78049        0.5482191        155.1619
4.6644                 0.5528436        153.9938        0.5389776        24.01481        0.5389778        24.01481        0.5528438        153.9937
4.6658                 0.5572558        152.8323        0.5359208        23.24887        0.5359211        23.24886        0.5572561        152.8322
4.6672                  0.561461        151.6778         0.532952        22.48069        0.5329523        22.48068        0.5614613        151.6778
4.6686                 0.5654645        150.5305        0.5300619        21.70842        0.5300621        21.70841        0.5654648        150.5305
4.67                   0.5692717        149.3904         0.527239        20.93036        0.5272392        20.93035        0.5692719        149.3904
4.6714                 0.5728874        148.2575          0.52447        20.14501        0.5244702        20.14499        0.5728876        148.2575
4.6728                 0.5763165        147.1318        0.5217404        19.35108        0.5217406        19.35107        0.5763166        147.1317
4.6742                  0.579563        146.0129        0.5190342        18.54756        0.5190343        18.54754        0.5795632        146.0129
4.6756                 0.5826306        144.9009        0.5163348        17.73366        0.5163349        17.73365        0.5826308        144.9009
4.677                  0.5855223        143.7954        0.5136254        16.90892        0.5136254         16.9089        0.5855225        143.7954
4.6784                 0.5882406        142.6963         0.510889        16.07311        0.5108891        16.07309         0.588241        142.6963
4.6798                 0.5907873        141.6034        0.5081092        15.22631        0.5081093        15.22629        0.5907876        141.6034
4.6812                 0.5931636        140.5163        0.5052704        14.36887        0.5052704        14.36886        0.5931638        140.5163
4.6826                 0.5953699        139.4351        0.5023579         13.5014        0.5023579        13.50139        0.5953704        139.4351
4.684                  0.5974068        138.3594        0.4993587        12.62475        0.4993587        12.62474        0.5974071        138.3594
4.6854                 0.5992736        137.2893        0.4962613           11.74        0.4962613        11.73998        0.5992739        137.2892
4.6868                 0.6009699        136.2246        0.4930561        10.84841         0.493056        10.84839        0.6009704        136.2245
4.6882                 0.6024951        135.1654        0.4897355        9.951423        0.4897355         9.95141        0.6024954        135.1653
4.6896                 0.6038481        134.1117        0.4862943        9.050629        0.4862942        9.050619        0.6038485        134.1117
4.691                  0.6050283        133.0637        0.4827295        8.147719        0.4827293        8.147711        0.6050287        133.0637
4.6924                 0.6060351        132.0217        0.4790402        7.244462        0.4790401        7.244455        0.6060355        132.0217
4.6938                 0.6068681        130.9857        0.4752282         6.34267         0.475228        6.342666        0.6068687        130.9857
4.6952                  0.607528        129.9563        0.4712971        5.444164        0.4712969        5.444163        0.6075284        129.9563
4.6966                 0.6080152        128.9337        0.4672531         4.55074         0.467253         4.55074        0.6080156        128.9337
4.698                  0.6083313        127.9183        0.4631041        3.664132         0.463104        3.664135        0.6083317        127.9183
4.6994                 0.6084787        126.9106        0.4588601         2.78598        0.4588599        2.785984        0.6084791        126.9106
4.7008                 0.6084604        125.9111        0.4545325        1.917794        0.4545324        1.917801        0.6084608        125.9111
4.7022                 0.6082806        124.9203        0.4501341        1.060928         0.450134        1.060937         0.608281        124.9203
4.7036                 0.6079441        123.9385        0.4456791       0.2165423         0.445679       0.2165532        0.6079447        123.9385
4.705                  0.6074572        122.9664        0.4411822      -0.6144191        0.4411821      -0.6144062        0.6074576        122.9663
4.7064                 0.6068265        122.0042        0.4366586       -1.431247        0.4366585       -1.431219         0.606827        122.0042
4.7078                   0.60606        121.0525        0.4321239       -2.233535        0.4321238       -2.233507        0.6060605        121.0525
4.7092                 0.6051661        120.1115        0.4275933       -3.021051        0.4275933       -3.021051        0.6051665        120.1114
4.7106                 0.6041542        119.1814        0.4230818       -3.793977        0.4230817       -3.793959        0.6041547        119.1814
4.712                  0.6030342        118.2625        0.4186032       -4.552702        0.4186032       -4.552683        0.6030348        118.2625
4.7134                 0.6018167        117.3549        0.4141705       -5.297927        0.4141704       -5.297908        0.6018171        117.3549
4.7148                 0.6005121        116.4584         0.409795       -6.030621         0.409795       -6.030602        0.6005125        116.4584
4.7162                 0.5991312         115.573        0.4054866       -6.752015        0.4054867       -6.751993        0.5991317         115.573
4.7176                 0.5976848        114.6984        0.4012533       -7.463557        0.4012533       -7.463538        0.5976852        114.6984
4.719                  0.5961832        113.8342        0.3971009       -8.166902        0.3971008       -8.166884        0.5961837        113.8342
4.7204                 0.5946364        112.9799         0.393033       -8.863853        0.3930331       -8.863834        0.5946369        112.9799
4.7218                 0.5930537        112.1348        0.3890515       -9.556318        0.3890516       -9.556303         0.593054        112.1348
4.7232                 0.5914433        111.2984        0.3851556       -10.24628        0.3851556       -10.24626        0.5914437        111.2984
4.7246                 0.5898127        110.4696        0.3813426        -10.9357        0.3813426       -10.93569        0.5898131        110.4696
4.726                  0.5881679        109.6476        0.3776077       -11.62653        0.3776077       -11.62652        0.5881683        109.6476
4.7274                 0.5865139        108.8315        0.3739444       -12.32059        0.3739444       -12.32058        0.5865143        108.8315
4.7288                 0.5848538        108.0201        0.3703444       -13.01957        0.3703445       -13.01956        0.5848542        108.0201
4.7302                 0.5831896        107.2123        0.3667983       -13.72497        0.3667984       -13.72497          0.58319        107.2123
4.7316                 0.5815217        106.4071        0.3632954       -14.43805        0.3632955       -14.43805        0.5815221        106.4071
4.733                  0.5798487        105.6034        0.3598244       -15.15981        0.3598245       -15.15981        0.5798491        105.6034
4.7344                  0.578168        104.8002        0.3563736       -15.89096        0.3563737       -15.89095        0.5781683        104.8002
4.7358                 0.5764754        103.9963         0.352931        -16.6319         0.352931        -16.6319        0.5764757        103.9963
4.7372                 0.5747654         103.191        0.3494851       -17.38272        0.3494851       -17.38272        0.5747657         103.191
4.7386                 0.5730314        102.3832        0.3460248        -18.1432        0.3460248        -18.1432        0.5730317        102.3832
4.74                   0.5712656        101.5724        0.3425399       -18.91279          0.34254        -18.9128        0.5712659        101.5724
4.7414                 0.5694597        100.7579        0.3390213       -19.69067        0.3390214       -19.69068        0.5694601        100.7579
4.7428                 0.5676046        99.93924        0.3354614       -20.47572        0.3354615       -20.47573        0.5676048         99.9393
4.7442                 0.5656906        99.11616         0.331854       -21.26659        0.3318541        -21.2666        0.5656909        99.11619
4.7456                 0.5637084        98.28842        0.3281946       -22.06171        0.3281947       -22.06172        0.5637086        98.28842
4.747                  0.5616482        97.45608        0.3244806       -22.85931        0.3244806       -22.85933        0.5616485        97.45608
4.7484                 0.5595013        96.61925        0.3207113       -23.65752        0.3207113       -23.65753        0.5595015        96.61925
4.7498                 0.5572587        95.77822        0.3168879       -24.45433        0.3168879       -24.45434        0.5572589        95.77825
4.7512                 0.5549128        94.93345        0.3130135       -25.24771        0.3130135       -25.24772         0.554913        94.93345
4.7526                 0.5524568         94.0855        0.3090931       -26.03562        0.3090931       -26.03563         0.552457        94.08553
4.754                   0.549885        93.23508        0.3051334       -26.81608        0.3051334        -26.8161        0.5498853        93.23511
4.7554                 0.5471933        92.38296        0.3011428       -27.58722        0.3011428       -27.58723        0.5471935        92.38299
4.7568                 0.5443786        91.53002        0.2971311       -28.34733         0.297131       -28.34734        0.5443789        91.53005
4.7582                 0.5414397        90.67722         0.293109       -29.09489         0.293109       -29.09491          0.54144        90.67722
4.7596                 0.5383768         89.8255        0.2890887        -29.8287        0.2890887        -29.8287         0.538377        89.82553
4.761                  0.5351917        88.97587        0.2850825       -30.54782        0.2850825       -30.54783         0.535192        88.97587
4.7624                 0.5318879        88.12933        0.2811035       -31.25172        0.2811035       -31.25173        0.5318882        88.12936
4.7638                 0.5284704        87.28682        0.2771646       -31.94024        0.2771645       -31.94026        0.5284706        87.28682
4.7652                 0.5249454        86.44922        0.2732783       -32.61369        0.2732782       -32.61371        0.5249456        86.44922
4.7666                 0.5213206         85.6174        0.2694567       -33.27282        0.2694567       -33.27283        0.5213208         85.6174
4.768                  0.5176049        84.79201        0.2657109       -33.91884        0.2657108       -33.91885        0.5176052        84.79203
4.7694                 0.5138081        83.97372        0.2620506       -34.55346        0.2620506       -34.55347        0.5138083        83.97375
4.7708                 0.5099405        83.16289        0.2584842        -35.1788        0.2584841       -35.17881        0.5099407        83.16292
4.7722                 0.5060131        82.35983        0.2550179       -35.79745        0.2550178       -35.79745        0.5060133        82.35988
4.7736                  0.502037        81.56464        0.2516563       -36.41234        0.2516562       -36.41235        0.5020373        81.56464
4.775                  0.4980235        80.77718        0.2484016       -37.02673        0.2484015       -37.02674        0.4980237         80.7772
4.7764                 0.4939831        79.99713         0.245254       -37.64414        0.2452539       -37.64414        0.4939833        79.99716
4.7778                 0.4899261         79.2241        0.2422112       -38.26821        0.2422111       -38.26822        0.4899263         79.2241
