! TOUCHSTONE file generated by CST MICROWAVE STUDIO
! Date and time: Sun Dec  1 17:17:04 2024
! Project name: test_tuning.cst
! Parameters = {airCoaxOuterDiameter=3; chamferAngle=45; chamferWidth=24; connectorLength=10; drillingHoleDiameter=4.1; feedLength=60; flareDiameter=130; flareLength=70; gratingDistance=0; gratingGap=1.90274; outletLength=30; polarizerLength=108; probe1Diameter=1.3; probe1Distance=14; probe1Length=12; probe2Diameter=1.3; probe2Distance=0; probe2Length=12; probeLength=12; smaInnerDiameter=1.3; smaOuterDiameter=4.1; transitionCoefficient=1.33; waveguideFeedLength=30; waveguideSide=50; waveguideThickness=3; wireCount=25; wireDiameter=1.17699}
! Header version: 2024
! Port assignment regex: !\s*Touchstone port\s*([0-9]+)\s*=\s*(CST MWS port|CST DES external port|CST DES block port)\s*(.+)\s* \(\"(.*)\"\)(\s*mode\s*([0-9]+))?.*
! Touchstone port assignment:
! Touchstone port 1 = CST MWS port 1 ("Input1")
! Touchstone port 2 = CST MWS port 2 ("Input2")
# GHz S MA R 50
4.6                    0.1882915       -160.9571         0.684577        63.81475        0.6845786        63.81465          0.18829       -160.9569
4.6014                 0.1947433       -162.0539        0.6854009        62.89818        0.6854023        62.89808        0.1947418       -162.0536
4.6028                 0.2011975        -163.144        0.6861831        61.97841        0.6861845         61.9783         0.201196       -163.1437
4.6042                 0.2076455       -164.2282        0.6869259        61.05485        0.6869272        61.05474        0.2076442       -164.2279
4.6056                 0.2140792        -165.307        0.6876303        60.12686        0.6876316        60.12676        0.2140779       -165.3067
4.607                  0.2204905       -166.3806        0.6882957        59.19379        0.6882968        59.19368        0.2204894       -166.3803
4.6084                  0.226872       -167.4489        0.6889197        58.25499        0.6889208        58.25488        0.2268711       -167.4486
4.6098                 0.2332172       -168.5117        0.6894985        57.30985        0.6894995        57.30974        0.2332166       -168.5113
4.6112                 0.2395203       -169.5683        0.6900269         56.3578        0.6900278        56.35769        0.2395199        -169.568
4.6126                 0.2457765       -170.6185        0.6904983        55.39836        0.6904992        55.39826        0.2457763       -170.6181
4.614                  0.2519821       -171.6616        0.6909054        54.43117        0.6909062        54.43106        0.2519821       -171.6613
4.6154                 0.2581344       -172.6972        0.6912398        53.45593        0.6912404        53.45583        0.2581345        -172.697
4.6168                 0.2642316        -173.725        0.6914927         52.4725        0.6914932         52.4724        0.2642319       -173.7248
4.6182                  0.270273       -174.7446        0.6916556        51.48083         0.691656        51.48073        0.2702734       -174.7444
4.6196                 0.2762588        -175.756        0.6917194        50.48101        0.6917199        50.48092        0.2762593       -175.7558
4.621                  0.2821895        -176.759        0.6916762        49.47322        0.6916766        49.47314        0.2821902       -176.7589
4.6224                 0.2880667       -177.7538        0.6915182        48.45777        0.6915186        48.45768        0.2880674       -177.7538
4.6238                 0.2938918       -178.7409         0.691239        47.43501        0.6912391        47.43493        0.2938925       -178.7408
4.6252                 0.2996665       -179.7205        0.6908327        46.40539        0.6908329        46.40531        0.2996671       -179.7205
4.6266                 0.3053923        179.3066        0.6902951         45.3694        0.6902953        45.36933        0.3053929        179.3066
4.628                  0.3110707        178.3399        0.6896233        44.32754        0.6896235        44.32748        0.3110712        178.3398
4.6294                 0.3167024        177.3785        0.6888154        43.28035        0.6888155         43.2803        0.3167028        177.3784
4.6308                 0.3222876        176.4216        0.6878709        42.22833         0.687871        42.22828        0.3222878        176.4215
4.6322                 0.3278256        175.4684        0.6867905        41.17194        0.6867906         41.1719        0.3278257        175.4683
4.6336                 0.3333152         174.518        0.6855759        40.11159         0.685576        40.11155        0.3333151        174.5179
4.635                  0.3387537        173.5696        0.6842298        39.04763        0.6842299         39.0476        0.3387534        173.5695
4.6364                  0.344138        172.6225        0.6827553        37.98032        0.6827556        37.98029        0.3441376        172.6224
4.6378                 0.3494639        171.6761        0.6811562        36.90983        0.6811564        36.90981        0.3494633         171.676
4.6392                 0.3547262        170.7298        0.6794362        35.83625        0.6794366        35.83623        0.3547255        170.7297
4.6406                 0.3599193        169.7833        0.6775993        34.75954        0.6775997        34.75953        0.3599185        169.7833
4.642                  0.3650367        168.8364        0.6756487        33.67961        0.6756492         33.6796        0.3650358        168.8364
4.6434                 0.3700717         167.889        0.6735874        32.59628        0.6735881        32.59626        0.3700708         167.889
4.6448                 0.3750174        166.9412        0.6714178        31.50923        0.6714184        31.50922        0.3750164        166.9412
4.6462                 0.3798665        165.9933        0.6691411        30.41817        0.6691418        30.41815        0.3798656        165.9933
4.6476                 0.3846123        165.0456        0.6667575         29.3227        0.6667583        29.32268        0.3846115        165.0457
4.649                  0.3892485        164.0988        0.6642663        28.22243        0.6642672         28.2224        0.3892476        164.0989
4.6504                 0.3937689        163.1535        0.6616656        27.11692        0.6616665        27.11689        0.3937681        163.1536
4.6518                 0.3981685        162.2105        0.6589522        26.00579        0.6589532        26.00575        0.3981678        162.2106
4.6532                 0.4024432        161.2707        0.6561221        24.88864         0.656123        24.88859        0.4024425        161.2708
4.6546                 0.4065896        160.3349        0.6531699        23.76515        0.6531709        23.76509        0.4065891         160.335
4.656                   0.410606        159.4041          0.65009        22.63505        0.6500909        22.63497        0.4106056        159.4042
4.6574                 0.4144915        158.4793        0.6468754        21.49814        0.6468763        21.49807        0.4144913        158.4794
4.6588                 0.4182468        157.5615        0.6435191        20.35434        0.6435199        20.35426        0.4182466        157.5616
4.6602                 0.4218737        156.6515        0.6400134        19.20365        0.6400142        19.20355        0.4218736        156.6515
4.6616                 0.4253754        155.7501         0.636351        18.04616        0.6363516        18.04605        0.4253753        155.7502
4.663                  0.4287563        154.8582        0.6325241         16.8821        0.6325247        16.88198        0.4287562        154.8582
4.6644                 0.4320219        153.9763        0.6285256        15.71179        0.6285261        15.71168        0.4320219        153.9764
4.6658                 0.4351788        153.1051         0.624349        14.53569        0.6243494        14.53557        0.4351788        153.1051
4.6672                 0.4382345        152.2449         0.619988        13.35433        0.6199883         13.3542        0.4382345        152.2449
4.6686                 0.4411974        151.3959        0.6154376        12.16836        0.6154378        12.16822        0.4411972         151.396
4.67                    0.444076        150.5584        0.6106935        10.97851        0.6106935        10.97838        0.4440759        150.5584
4.6714                   0.44688        149.7322        0.6057524        9.785626        0.6057522        9.785496        0.4468798        149.7322
4.6728                 0.4496186        148.9172        0.6006123        8.590596         0.600612         8.59047        0.4496184        148.9172
4.6742                 0.4523013         148.113        0.5952721        7.394394        0.5952717         7.39427         0.452301         148.113
4.6756                 0.4549378        147.3191        0.5897321        6.198042        0.5897316        6.197927        0.4549375        147.3191
4.677                  0.4575371        146.5349        0.5839937        5.002624        0.5839931        5.002515        0.4575369        146.5349
4.6784                 0.4601079        145.7596        0.5780595        3.809254        0.5780588        3.809154        0.4601076        145.7597
4.6798                 0.4626583        144.9923        0.5719329         2.61909        0.5719321           2.619         0.462658        144.9924
4.6812                 0.4651955        144.2321        0.5656186        1.433316        0.5656178        1.433238        0.4651953        144.2322
4.6826                 0.4677261        143.4779        0.5591224       0.2531434        0.5591216       0.2530769         0.467726         143.478
4.684                  0.4702555        142.7285        0.5524508      -0.9201932        0.5524498      -0.9202473        0.4702556        142.7286
4.6854                 0.4727883        141.9827        0.5456112       -2.085438        0.5456102       -2.085479        0.4727883        141.9828
4.6868                 0.4753276        141.2393        0.5386117       -3.241316        0.5386108       -3.241343        0.4753278        141.2394
4.6882                 0.4778757         140.497        0.5314616       -4.386526        0.5314606       -4.386542         0.477876        140.4971
4.6896                 0.4804333        139.7545        0.5241704        -5.51975        0.5241695       -5.519752        0.4804339        139.7547
4.691                  0.4830005        139.0107        0.5167485       -6.639644        0.5167476       -6.639636        0.4830012        139.0108
4.6924                 0.4855754        138.2641        0.5092069       -7.744845         0.509206       -7.744824        0.4855764        138.2643
4.6938                 0.4881555        137.5138        0.5015573       -8.833957        0.5015566       -8.833926        0.4881567        137.5139
4.6952                 0.4907368        136.7584         0.493812       -9.905572        0.4938114       -9.905532        0.4907382        136.7586
4.6966                 0.4933141        135.9971        0.4859841       -10.95824        0.4859835       -10.95821        0.4933158        135.9972
4.698                  0.4958814        135.2287        0.4780869       -11.99057        0.4780864       -11.99052        0.4958832        135.2288
4.6994                 0.4984313        134.4524        0.4701347       -13.00104        0.4701343       -13.00098        0.4984332        134.4525
4.7008                 0.5009555        133.6675        0.4621424       -13.98824         0.462142       -13.98816        0.5009576        133.6676
4.7022                  0.503445        132.8732        0.4541253       -14.95075         0.454125       -14.95069        0.5034471        132.8733
4.7036                 0.5058899         132.069        0.4460994       -15.88713        0.4460992       -15.88705         0.505892         132.069
4.705                  0.5082794        131.2545        0.4380812       -16.79605        0.4380811       -16.79599        0.5082816        131.2545
4.7064                 0.5106024        130.4293        0.4300875       -17.67628        0.4300875       -17.67622        0.5106046        130.4293
4.7078                 0.5128474        129.5934        0.4221358       -18.52671        0.4221358        -18.5266        0.5128496        129.5933
4.7092                 0.5150025        128.7466        0.4142431        -19.3462        0.4142432       -19.34615        0.5150045        128.7466
4.7106                 0.5170554        127.8892        0.4064271       -20.13402        0.4064272       -20.13396        0.5170574        127.8892
4.712                  0.5189945        127.0214         0.398705       -20.88951        0.3987052       -20.88946        0.5189963        127.0213
4.7134                 0.5208077        126.1436        0.3910938       -21.61227         0.391094       -21.61222        0.5208094        126.1434
4.7148                 0.5224836        125.2562        0.3836097       -22.30219          0.38361       -22.30214        0.5224852        125.2561
4.7162                 0.5240113          124.36        0.3762682       -22.95944        0.3762685       -22.95939        0.5240127        124.3598
4.7176                 0.5253804        123.4557        0.3690836        -23.5845        0.3690839       -23.58447        0.5253817        123.4555
4.719                  0.5265815        122.5441        0.3620688       -24.17824        0.3620691       -24.17822        0.5265826         122.544
4.7204                 0.5276061        121.6264         0.355235       -24.74183        0.3552353       -24.74181        0.5276071        121.6262
4.7218                 0.5284469        120.7034        0.3485917       -25.27679         0.348592       -25.27677        0.5284477        120.7033
4.7232                 0.5290978        119.7764        0.3421462       -25.78497        0.3421465       -25.78496        0.5290984        119.7763
4.7246                 0.5295539        118.8466        0.3359035       -26.26853        0.3359038       -26.26853        0.5295544        118.8465
4.726                   0.529812        117.9151        0.3298664       -26.72988        0.3298667       -26.72988        0.5298123         117.915
4.7274                 0.5298701        116.9833        0.3240352       -27.17164        0.3240355       -27.17165        0.5298704        116.9832
4.7288                  0.529728        116.0525        0.3184077       -27.59659        0.3184079       -27.59661        0.5297281        116.0524
4.7302                 0.5293867        115.1238        0.3129795       -28.00757        0.3129798       -28.00759        0.5293869        115.1237
4.7316                 0.5288491        114.1986         0.307744       -28.40743        0.3077443       -28.40746        0.5288492        114.1986
4.733                  0.5281192        113.2781        0.3026927       -28.79897        0.3026929         -28.799        0.5281192         113.278
4.7344                 0.5272025        112.3634        0.2978154        -29.1848        0.2978155       -29.18484        0.5272026        112.3634
4.7358                 0.5261059        111.4556        0.2931003       -29.56737        0.2931005       -29.56741        0.5261059        111.4556
4.7372                 0.5248371        110.5557        0.2885349        -29.9488        0.2885352       -29.94884        0.5248372        110.5557
4.7386                 0.5234052        109.6646        0.2841061       -30.33091        0.2841063       -30.33096        0.5234053        109.6646
4.74                   0.5218198        108.7831        0.2798004       -30.71517        0.2798005       -30.71521        0.5218199         108.783
4.7414                 0.5200912        107.9117        0.2756044       -31.10261        0.2756044       -31.10266        0.5200913        107.9117
4.7428                 0.5182302        107.0511        0.2715053       -31.49394        0.2715053       -31.49399        0.5182303        107.0511
4.7442                 0.5162478        106.2016        0.2674911       -31.88944        0.2674911       -31.88949        0.5162479        106.2016
4.7456                 0.5141549        105.3635        0.2635511       -32.28905         0.263551        -32.2891        0.5141551        105.3635
4.747                  0.5119624         104.537        0.2596756       -32.69237        0.2596754       -32.69242        0.5119625         104.537
4.7484                 0.5096806         103.722        0.2558565       -33.09876        0.2558563        -33.0988        0.5096808         103.722
4.7498                 0.5073195        102.9184        0.2520874       -33.50732        0.2520872       -33.50736        0.5073196        102.9184
4.7512                 0.5048883         102.126        0.2483635       -33.91702        0.2483633       -33.91705        0.5048884        102.1259
4.7526                 0.5023952        101.3444        0.2446815       -34.32674        0.2446813       -34.32677        0.5023954        101.3444
4.754                   0.499848        100.5733        0.2410395       -34.73533        0.2410393       -34.73534        0.4998482        100.5733
4.7554                  0.497253        99.81228        0.2374372       -35.14169         0.237437       -35.14169        0.4972532        99.81225
4.7568                 0.4946159        99.06079        0.2338753       -35.54482        0.2338751       -35.54482         0.494616        99.06076
4.7582                 0.4919411        98.31831        0.2303554        -35.9439        0.2303552       -35.94388        0.4919413        98.31826
4.7596                 0.4892324        97.58432        0.2268798       -36.33831        0.2268796       -36.33828        0.4892325        97.58429
4.761                  0.4864924        96.85833        0.2234512       -36.72768         0.223451       -36.72764        0.4864926        96.85833
4.7624                 0.4837232        96.13986        0.2200725       -37.11192        0.2200723       -37.11186        0.4837234        96.13986
4.7638                 0.4809259        95.42846        0.2167464        -37.4912        0.2167462       -37.49115        0.4809262        95.42845
4.7652                 0.4781015        94.72382        0.2134752       -37.86601         0.213475       -37.86594        0.4781018        94.72381
4.7666                 0.4752502        94.02552        0.2102606       -38.23708        0.2102605         -38.237        0.4752506        94.02552
4.768                  0.4723722         93.3334        0.2071036       -38.60534        0.2071035       -38.60527        0.4723725         93.3334
4.7694                 0.4694673        92.64722        0.2040044       -38.97197        0.2040044       -38.97189        0.4694677        92.64722
4.7708                 0.4665356        91.96686         0.200962       -39.33825         0.200962       -39.33817        0.4665361        91.96685
4.7722                 0.4635773        91.29234        0.1979746       -39.70552        0.1979747       -39.70544        0.4635779        91.29234
4.7736                 0.4605927        90.62357        0.1950394       -40.07516        0.1950395       -40.07508        0.4605933        90.62357
4.775                  0.4575825        89.96066        0.1921528       -40.44845        0.1921529       -40.44837        0.4575831        89.96063
4.7764                 0.4545476        89.30363        0.1893103       -40.82658        0.1893105       -40.82651        0.4545483        89.30357
4.7778                 0.4514897         88.6526        0.1865071       -41.21055        0.1865073       -41.21049        0.4514904        88.65257
