! TOUCHSTONE file generated by CST MICROWAVE STUDIO
! Date and time: Sun Dec  1 17:16:55 2024
! Project name: test_tuning.cst
! Parameters = {airCoaxOuterDiameter=3; chamferAngle=45; chamferWidth=24; connectorLength=10; drillingHoleDiameter=4.1; feedLength=60; flareDiameter=130; flareLength=70; gratingDistance=0; gratingGap=1.90274; outletLength=30; polarizerLength=138; probe1Diameter=1.3; probe1Distance=14; probe1Length=12; probe2Diameter=1.3; probe2Distance=0; probe2Length=12; probeLength=12; smaInnerDiameter=1.3; smaOuterDiameter=4.1; transitionCoefficient=1.33; waveguideFeedLength=30; waveguideSide=50; waveguideThickness=3; wireCount=25; wireDiameter=1.17699}
! Header version: 2024
! Port assignment regex: !\s*Touchstone port\s*([0-9]+)\s*=\s*(CST MWS port|CST DES external port|CST DES block port)\s*(.+)\s* \(\"(.*)\"\)(\s*mode\s*([0-9]+))?.*
! Touchstone port assignment:
! Touchstone port 1 = CST MWS port 1 ("Input1")
! Touchstone port 2 = CST MWS port 2 ("Input2")
# GHz S MA R 50
4.6                    0.2083855       -163.7604        0.6267602        67.49421        0.6267609        67.49412        0.2083858       -163.7603
4.6014                  0.214609       -164.3184        0.6282689        66.57875        0.6282695        66.57867        0.2146094       -164.3184
4.6028                 0.2209278       -164.8603        0.6296946         65.6542        0.6296951        65.65412        0.2209283       -164.8602
4.6042                 0.2273637       -165.3898        0.6310301         64.7202        0.6310306        64.72012        0.2273642       -165.3898
4.6056                 0.2339368       -165.9116        0.6322666        63.77646        0.6322669        63.77639        0.2339373       -165.9116
4.607                  0.2406656       -166.4303        0.6333942         62.8228        0.6333946        62.82272        0.2406662       -166.4304
4.6084                 0.2475662       -166.9512        0.6344026        61.85911        0.6344028        61.85904        0.2475667       -166.9513
4.6098                 0.2546517       -167.4794        0.6352803        60.88549        0.6352804        60.88541        0.2546522       -167.4794
4.6112                  0.261932       -168.0199        0.6360156        59.90208        0.6360156        59.90203        0.2619325         -168.02
4.6126                 0.2694133       -168.5777        0.6365964        58.90925        0.6365964         58.9092        0.2694137       -168.5778
4.614                  0.2770982       -169.1573        0.6370112        57.90745         0.637011        57.90741        0.2770986       -169.1574
4.6154                 0.2849854        -169.763        0.6372481        56.89733         0.637248        56.89727        0.2849857       -169.7631
4.6168                 0.2930696       -170.3983        0.6372966        55.87963        0.6372965        55.87959        0.2930699       -170.3984
4.6182                 0.3013422       -171.0663        0.6371466         54.8553        0.6371465        54.85526        0.3013424       -171.0664
4.6196                 0.3097907       -171.7695        0.6367893        53.82538        0.6367892        53.82534        0.3097909       -171.7697
4.621                  0.3183996       -172.5098        0.6362175        52.79103        0.6362173          52.791        0.3183997       -172.5099
4.6224                 0.3271503       -173.2883        0.6354251        51.75353        0.6354249        51.75351        0.3271504       -173.2885
4.6238                 0.3360221       -174.1057        0.6344085        50.71425        0.6344082        50.71424         0.336022       -174.1058
4.6252                 0.3449916       -174.9621        0.6331654        49.67465        0.6331652        49.67463        0.3449915       -174.9622
4.6266                 0.3540343        -175.857        0.6316961         48.6362        0.6316958         48.6362        0.3540342        -175.857
4.628                  0.3631242       -176.7894        0.6300026        47.60048        0.6300024        47.60048        0.3631241       -176.7895
4.6294                 0.3722347       -177.7581        0.6280895        46.56901        0.6280894        46.56901        0.3722345       -177.7582
4.6308                 0.3813387       -178.7614        0.6259635        45.54333        0.6259633        45.54333        0.3813385       -178.7614
4.6322                 0.3904091       -179.7973        0.6236332        44.52497        0.6236331        44.52497        0.3904089       -179.7974
4.6336                 0.3994194        179.1363        0.6211097        43.51536        0.6211096        43.51536        0.3994193        179.1362
4.635                  0.4083436        178.0418        0.6184057        42.51588        0.6184056        42.51589        0.4083436        178.0417
4.6364                 0.4171572        176.9217         0.615536         41.5278         0.615536        41.52781        0.4171572        176.9216
4.6378                 0.4258365        175.7786        0.6125169        40.55225        0.6125168        40.55226        0.4258366        175.7786
4.6392                 0.4343599        174.6152         0.609366        39.59022        0.6093661        39.59023        0.4343599        174.6151
4.6406                 0.4427071         173.434        0.6061024        38.64253        0.6061024        38.64255        0.4427073         173.434
4.642                  0.4508602        172.2377        0.6027455        37.70981        0.6027454        37.70982        0.4508605        172.2377
4.6434                 0.4588032         171.029        0.5993156        36.79247        0.5993157        36.79247        0.4588036        171.0289
4.6448                 0.4665223        169.8102        0.5958331         35.8907        0.5958332         35.8907        0.4665227        169.8101
4.6462                 0.4740058        168.5837        0.5923184        35.00446        0.5923185        35.00446        0.4740063        168.5837
4.6476                 0.4812445         167.352        0.5887912        34.13346        0.5887912        34.13347        0.4812451         167.352
4.649                  0.4882313        166.1171        0.5852703         33.2772        0.5852703        33.27721        0.4882319        166.1171
4.6504                 0.4949613        164.8811        0.5817736        32.43489        0.5817737         32.4349        0.4949619        164.8811
4.6518                 0.5014316        163.6458        0.5783174        31.60555        0.5783174        31.60555        0.5014324        163.6458
4.6532                 0.5076417        162.4129         0.574916        30.78795        0.5749159        30.78795        0.5076425        162.4128
4.6546                 0.5135924        161.1839        0.5715818        29.98068        0.5715817        29.98069        0.5135932        161.1839
4.656                  0.5192865        159.9603        0.5683248        29.18215        0.5683247        29.18216        0.5192873        159.9602
4.6574                 0.5247285        158.7431        0.5651525        28.39064        0.5651523        28.39065        0.5247294        158.7431
4.6588                 0.5299237        157.5334        0.5620698         27.6043        0.5620697        27.60431        0.5299248        157.5333
4.6602                 0.5348791        156.3319        0.5590789        26.82121        0.5590788        26.82122        0.5348801        156.3319
4.6616                 0.5396022        155.1394        0.5561794        26.03943        0.5561793        26.03945        0.5396031        155.1393
4.663                  0.5441008        153.9562        0.5533679        25.25703        0.5533678        25.25705        0.5441018        153.9562
4.6644                 0.5483838        152.7827        0.5506387        24.47213        0.5506386        24.47215        0.5483849        152.7827
4.6658                 0.5524599        151.6191        0.5479837        23.68293        0.5479835        23.68295        0.5524608         151.619
4.6672                 0.5563374        150.4652        0.5453923        22.88778        0.5453921         22.8878        0.5563385        150.4652
4.6686                 0.5600251        149.3211        0.5428523        22.08518        0.5428523        22.08521        0.5600261         149.321
4.67                   0.5635306        148.1864          0.54035        21.27385        0.5403498        21.27388        0.5635316        148.1863
4.6714                 0.5668612        147.0609        0.5378698        20.45271        0.5378697        20.45274        0.5668622        147.0608
4.6728                 0.5700233        145.9441        0.5353959        19.62092        0.5353958        19.62096        0.5700243         145.944
4.6742                 0.5730226        144.8355        0.5329113        18.77791        0.5329113        18.77795        0.5730235        144.8355
4.6756                 0.5758634        143.7347        0.5303995        17.92337        0.5303994        17.92342        0.5758644        143.7347
4.677                  0.5785496        142.6412        0.5278435        17.05725        0.5278434         17.0573        0.5785505        142.6411
4.6784                 0.5810832        141.5543        0.5252272        16.17976        0.5252273        16.17981         0.581084        141.5542
4.6798                 0.5834659        140.4737        0.5225355        15.29138        0.5225356        15.29143        0.5834666        140.4736
4.6812                 0.5856979        139.3987        0.5197543         14.3928        0.5197543        14.39286        0.5856987        139.3986
4.6826                 0.5877789        138.3291        0.5168709        13.48497         0.516871        13.48502        0.5877797         138.329
4.684                  0.5897077        137.2644        0.5138745          12.569        0.5138747        12.56906        0.5897084        137.2643
4.6854                  0.591482        136.2043        0.5107561        11.64622        0.5107564        11.64628        0.5914827        136.2042
4.6868                 0.5930997        135.1487        0.5075089        10.71809        0.5075092        10.71815        0.5931003        135.1486
4.6882                 0.5945576        134.0975        0.5041282        9.786189        0.5041286        9.786244        0.5945583        134.0974
4.6896                  0.595853        133.0506        0.5006117        8.852208         0.500612        8.852262        0.5958537        133.0505
4.691                  0.5969829        132.0082        0.4969591        7.917892        0.4969595        7.917944        0.5969836        132.0081
4.6924                 0.5979445        130.9704        0.4931727        6.985022        0.4931731        6.985071        0.5979452        130.9703
4.6938                 0.5987354        129.9375        0.4892568         6.05538        0.4892573        6.055426        0.5987361        129.9374
4.6952                  0.599354        128.9099        0.4852181        5.130714        0.4852187        5.130756        0.5993545        128.9098
4.6966                  0.599799         127.888        0.4810651        4.212709        0.4810657        4.212747        0.5997996        127.8879
4.698                  0.6000706        126.8723        0.4768081        3.302958        0.4768087         3.30299        0.6000711        126.8722
4.6994                 0.6001693        125.8634         0.472459        2.402922        0.4724597        2.402949          0.60017        125.8634
4.7008                 0.6000974        124.8619        0.4680312        1.513911        0.4680318        1.513932         0.600098        124.8619
4.7022                  0.599858        123.8685         0.463539       0.6370471        0.4635397       0.6370609        0.5998586        123.8684
4.7036                 0.5994555        122.8836        0.4589977      -0.2267558        0.4589983      -0.2267489        0.5994559        122.8835
4.705                  0.5988956         121.908        0.4544228       -1.076816        0.4544235       -1.076816         0.598896        121.9079
4.7064                 0.5981849        120.9422        0.4498304       -1.912707        0.4498311       -1.912707        0.5981853        120.9421
4.7078                 0.5973317        119.9868         0.445236       -2.734226        0.4452366       -2.734281        0.5973321        119.9867
4.7092                  0.596345        119.0421        0.4406548       -3.541562        0.4406554       -3.541591        0.5963454         119.042
4.7106                 0.5952348        118.1086        0.4361012       -4.335037        0.4361018        -4.33507         0.595235        118.1085
4.712                  0.5940118        117.1866        0.4315885       -5.115321        0.4315891       -5.115361         0.594012        117.1864
4.7134                 0.5926876        116.2761        0.4271285       -5.883339        0.4271291       -5.883387        0.5926877        116.2759
4.7148                 0.5912737        115.3772        0.4227316        -6.64026        0.4227321       -6.640315        0.5912738        115.3771
4.7162                 0.5897822        114.4898         0.418406        -7.38747        0.4184065       -7.387532        0.5897822        114.4896
4.7176                 0.5882251        113.6136        0.4141581       -8.126546        0.4141586       -8.126613        0.5882249        113.6134
4.719                  0.5866135        112.7482        0.4099923       -8.859216        0.4099927       -8.859288        0.5866133         112.748
4.7204                 0.5849588         111.893        0.4059104       -9.587315        0.4059108       -9.587393        0.5849584        111.8929
4.7218                 0.5832708        111.0474        0.4019125       -10.31274        0.4019128       -10.31283        0.5832705        111.0473
4.7232                 0.5815589        110.2105        0.3979962       -11.03741        0.3979964        -11.0375        0.5815584        110.2104
4.7246                 0.5798308        109.3813        0.3941573       -11.76319        0.3941575       -11.76328        0.5798302        109.3812
4.726                  0.5780929        108.5589        0.3903896       -12.49188        0.3903897       -12.49197        0.5780923        108.5588
4.7274                 0.5763501         107.742        0.3866854       -13.22512        0.3866854       -13.22522        0.5763493        107.7419
4.7288                 0.5746055        106.9294        0.3830355        -13.9644        0.3830355       -13.96449        0.5746047        106.9293
4.7302                 0.5728605          106.12        0.3794296       -14.71098        0.3794295       -14.71107        0.5728595        106.1199
4.7316                 0.5711145        105.3125        0.3758567       -15.46588        0.3758566       -15.46597        0.5711135        105.3124
4.733                  0.5693654        104.5056        0.3723052       -16.22985        0.3723051       -16.22993        0.5693644        104.5055
4.7344                 0.5676091        103.6981        0.3687634       -17.00334        0.3687632       -17.00342         0.567608        103.6981
4.7358                 0.5658402         102.889        0.3652198       -17.78651        0.3652196       -17.78659         0.565839         102.889
4.7372                 0.5640514        102.0773        0.3616634       -18.57924        0.3616631        -18.5793        0.5640502        102.0773
4.7386                 0.5622344         101.262        0.3580839       -19.38107        0.3580835       -19.38114        0.5622333         101.262
4.74                   0.5603798        100.4424        0.3544721       -20.19131        0.3544718       -20.19136        0.5603786        100.4425
4.7414                 0.5584773        99.61794        0.3508202       -21.00896        0.3508198       -21.00901        0.5584761        99.61794
4.7428                 0.5565159        98.78815        0.3471217       -21.83281        0.3471213       -21.83285        0.5565147        98.78816
4.7442                 0.5544846        97.95278         0.343372       -22.66143        0.3433716       -22.66146        0.5544835        97.95281
4.7456                 0.5523722        97.11179         0.339568        -23.4932        0.3395676       -23.49323        0.5523712        97.11185
4.747                  0.5501679        96.26531        0.3357089       -24.32639        0.3357084        -24.3264        0.5501669        96.26536
4.7484                 0.5478613        95.41366        0.3317952       -25.15914        0.3317948       -25.15915        0.5478603        95.41377
4.7498                 0.5454428        94.55734        0.3278299       -25.98956        0.3278295       -25.98956         0.545442         94.5574
4.7512                 0.5429043         93.6969        0.3238174       -26.81574        0.3238171       -26.81574        0.5429036        93.69704
4.7526                 0.5402384        92.83326        0.3197642       -27.63583        0.3197638       -27.63582        0.5402378        92.83337
4.754                  0.5374396        91.96728        0.3156781       -28.44806        0.3156777       -28.44805        0.5374391        91.96739
4.7554                 0.5345041        91.09999        0.3115685        -29.2508        0.3115682       -29.25077        0.5345036        91.10013
4.7568                 0.5314292        90.23255        0.3074461       -30.04263        0.3074457        -30.0426        0.5314289        90.23269
4.7582                 0.5282149        89.36615        0.3033224       -30.82236        0.3033221       -30.82232        0.5282147        89.36628
4.7596                 0.5248627        88.50196        0.2992097       -31.58909        0.2992095       -31.58905        0.5248626         88.5021
4.761                  0.5213758        87.64123        0.2951209       -32.34228        0.2951207       -32.34223         0.521376        87.64137
4.7624                 0.5177597        86.78521        0.2910688       -33.08173        0.2910685       -33.08168        0.5177599        86.78532
4.7638                 0.5140211        85.93494        0.2870658       -33.80767        0.2870657       -33.80762        0.5140214         85.9351
4.7652                 0.5101687        85.09159        0.2831243       -34.52074        0.2831242       -34.52069        0.5101691        85.09175
4.7666                 0.5062123         84.2561        0.2792554       -35.22204        0.2792553       -35.22198        0.5062128        84.25621
4.768                  0.5021633         83.4292        0.2754692        -35.9131        0.2754691       -35.91304        0.5021639        83.42931
4.7694                 0.4980336         82.6116        0.2717742       -36.59588        0.2717742       -36.59582        0.4980342        82.61173
4.7708                  0.493836        81.80376        0.2681774       -37.27275        0.2681775        -37.2727        0.4938367        81.80387
4.7722                 0.4895836         81.0059        0.2646839       -37.94644        0.2646839       -37.94638        0.4895845        81.00601
4.7736                 0.4852897        80.21804        0.2612965       -38.61999        0.2612966       -38.61993        0.4852906        80.21812
4.775                   0.480967        79.43994        0.2580161       -39.29671        0.2580162       -39.29666        0.4809679        79.43999
4.7764                 0.4766277        78.67113        0.2548413       -39.98006        0.2548414       -39.98001        0.4766287        78.67121
4.7778                 0.4722832        77.91093        0.2517686       -40.67361        0.2517687       -40.67356        0.4722841        77.91095
