! TOUCHSTONE file generated by CST MICROWAVE STUDIO
! Date and time: Sun Dec  1 17:16:54 2024
! Project name: test_tuning.cst
! Parameters = {airCoaxOuterDiameter=3; chamferAngle=45; chamferWidth=24; connectorLength=10; drillingHoleDiameter=4.1; feedLength=60; flareDiameter=130; flareLength=70; gratingDistance=0; gratingGap=1.90274; outletLength=30; polarizerLength=130; probe1Diameter=1.3; probe1Distance=14; probe1Length=12; probe2Diameter=1.3; probe2Distance=0; probe2Length=12; probeLength=12; smaInnerDiameter=1.3; smaOuterDiameter=4.1; transitionCoefficient=1.33; waveguideFeedLength=30; waveguideSide=50; waveguideThickness=3; wireCount=25; wireDiameter=1.17699}
! Header version: 2024
! Port assignment regex: !\s*Touchstone port\s*([0-9]+)\s*=\s*(CST MWS port|CST DES external port|CST DES block port)\s*(.+)\s* \(\"(.*)\"\)(\s*mode\s*([0-9]+))?.*
! Touchstone port assignment:
! Touchstone port 1 = CST MWS port 1 ("Input1")
! Touchstone port 2 = CST MWS port 2 ("Input2")
# GHz S MA R 50
4.6                    0.2323256       -157.1148        0.5887593        66.12778        0.5887591        66.12778        0.2323258       -157.1149
4.6014                 0.2390839         -157.93        0.5911477         65.2944        0.5911475         65.2944         0.239084       -157.9302
4.6028                 0.2459219       -158.7548         0.593492        64.43799        0.5934918        64.43799         0.245922       -158.7549
4.6042                 0.2528326       -159.5897        0.5957681        63.55853        0.5957679        63.55853        0.2528327       -159.5898
4.6056                 0.2598085       -160.4352        0.5979522        62.65624         0.597952        62.65625        0.2598087       -160.4353
4.607                  0.2668419       -161.2914        0.6000205        61.73165        0.6000203        61.73165         0.266842       -161.2915
4.6084                 0.2739247       -162.1582        0.6019501        60.78545        0.6019499        60.78544        0.2739248       -162.1583
4.6098                 0.2810491       -163.0352         0.603719        59.81855        0.6037188        59.81855        0.2810493       -163.0353
4.6112                 0.2882073       -163.9221        0.6053064        58.83213        0.6053061        58.83213        0.2882075       -163.9222
4.6126                 0.2953919       -164.8182         0.606693        57.82746        0.6066928        57.82746        0.2953921       -164.8183
4.614                  0.3025958        -165.723        0.6078613        56.80603        0.6078612        56.80603        0.3025959       -165.7231
4.6154                 0.3098123       -166.6357        0.6087961        55.76938         0.608796        55.76938        0.3098124       -166.6357
4.6168                 0.3170355       -167.5555        0.6094838        54.71924        0.6094837        54.71924        0.3170357       -167.5556
4.6182                 0.3242603       -168.4817        0.6099133        53.65738        0.6099132        53.65738        0.3242605       -168.4818
4.6196                 0.3314818       -169.4136        0.6100758        52.58563        0.6100757        52.58564        0.3314821       -169.4137
4.621                  0.3386963       -170.3505         0.609965        51.50589        0.6099649        51.50589        0.3386965       -170.3505
4.6224                 0.3459004       -171.2916        0.6095768        50.42006        0.6095767        50.42007        0.3459007       -171.2917
4.6238                 0.3530919       -172.2366        0.6089099        49.33005        0.6089097        49.33005        0.3530921       -172.2366
4.6252                 0.3602687       -173.1848        0.6079647        48.23776        0.6079646        48.23776         0.360269       -173.1848
4.6266                 0.3674296       -174.1358        0.6067448        47.14503        0.6067447        47.14502        0.3674299       -174.1359
4.628                   0.374574       -175.0895        0.6052552        46.05368        0.6052551        46.05368        0.3745743       -175.0895
4.6294                 0.3817015       -176.0455        0.6035036        44.96545        0.6035036        44.96544        0.3817019       -176.0456
4.6308                 0.3888123       -177.0039        0.6014992        43.88201        0.6014991        43.88199        0.3888126       -177.0039
4.6322                 0.3959064       -177.9645        0.5992532        42.80488        0.5992531        42.80488        0.3959068       -177.9646
4.6336                 0.4029843       -178.9277        0.5967784        41.73555        0.5967783        41.73555        0.4029847       -178.9277
4.635                  0.4100462       -179.8934         0.594089        40.67533        0.5940889        40.67532        0.4100467       -179.8935
4.6364                 0.4170925        179.1378        0.5912002         39.6254        0.5912001        39.62538        0.4170929        179.1378
4.6378                 0.4241227        178.1657        0.5881282         38.5868        0.5881282        38.58679        0.4241232        178.1657
4.6392                 0.4311364        177.1898        0.5848902        37.56042        0.5848901         37.5604        0.4311369        177.1898
4.6406                 0.4381326        176.2096        0.5815034        36.54697        0.5815033        36.54695        0.4381331        176.2096
4.642                  0.4451095        175.2246        0.5779853        35.54701        0.5779852          35.547        0.4451101        175.2246
4.6434                 0.4520647        174.2342        0.5743536        34.56091        0.5743535         34.5609        0.4520652        174.2342
4.6448                 0.4589949        173.2379        0.5706255        33.58889        0.5706253        33.58888        0.4589955        173.2379
4.6462                 0.4658959        172.2351        0.5668176        32.63097        0.5668174        32.63096        0.4658965         172.235
4.6476                 0.4727629        171.2252        0.5629458        31.68703        0.5629458        31.68701        0.4727634        171.2251
4.649                  0.4795896        170.2077        0.5590254        30.75676        0.5590252        30.75674        0.4795902        170.2077
4.6504                 0.4863693        169.1822        0.5550698        29.83971        0.5550696         29.8397        0.4863698        169.1822
4.6518                 0.4930939        168.1482        0.5510918        28.93532        0.5510916         28.9353        0.4930945        168.1482
4.6532                 0.4997548        167.1055        0.5471023        28.04286        0.5471021        28.04285        0.4997554        167.1055
4.6546                 0.5063422        166.0537        0.5431109        27.16152        0.5431108        27.16151        0.5063428        166.0537
4.656                  0.5128457        164.9927        0.5391257         26.2904        0.5391255        26.29038        0.5128462        164.9927
4.6574                  0.519254        163.9224        0.5351527        25.42853        0.5351524        25.42852        0.5192546        163.9223
4.6588                 0.5255554        162.8428        0.5311966         24.5749        0.5311964        24.57489         0.525556        162.8427
4.6602                 0.5317377         161.754        0.5272603        23.72848        0.5272601        23.72847        0.5317383        161.7539
4.6616                 0.5377879        160.6562        0.5233454        22.88824        0.5233452        22.88823        0.5377886        160.6562
4.663                  0.5436935        159.5498        0.5194518        22.05318        0.5194516        22.05317        0.5436941        159.5498
4.6644                 0.5494412        158.4352        0.5155781        21.22235        0.5155779        21.22235        0.5494418        158.4351
4.6658                 0.5550181        157.3129        0.5117217        20.39487        0.5117214        20.39486        0.5550187        157.3128
4.6672                 0.5604115        156.1834         0.507879        19.56994        0.5078787        19.56993        0.5604121        156.1834
4.6686                 0.5656089        155.0476        0.5040455        18.74687        0.5040453        18.74686        0.5656095        155.0476
4.67                   0.5705984        153.9062        0.5002163        17.92508         0.500216        17.92507        0.5705989        153.9062
4.6714                 0.5753687        152.7601        0.4963854        17.10413        0.4963852        17.10413        0.5753692        152.7601
4.6728                 0.5799093        151.6102        0.4925475        16.28371        0.4925472        16.28371        0.5799098        151.6102
4.6742                 0.5842107        150.4576        0.4886964        15.46365        0.4886962        15.46365        0.5842112        150.4576
4.6756                 0.5882644        149.3033        0.4848265        14.64392        0.4848263        14.64392        0.5882649        149.3032
4.677                   0.592063        148.1483        0.4809325        13.82462        0.4809322        13.82462        0.5920635        148.1483
4.6784                 0.5956004         146.994        0.4770094          13.006        0.4770092          13.006        0.5956009         146.994
4.6798                 0.5988719        145.8414        0.4730532        12.18841         0.473053        12.18841        0.5988723        145.8413
4.6812                 0.6018744        144.6917        0.4690603        11.37234        0.4690601        11.37234        0.6018748        144.6917
4.6826                 0.6046058        143.5462        0.4650283        10.55836        0.4650281        10.55836        0.6046063        143.5462
4.684                  0.6070662         142.406        0.4609557        9.747128        0.4609555        9.747131        0.6070667         142.406
4.6854                 0.6092568        141.2724        0.4568419        8.939387        0.4568418         8.93939        0.6092573        141.2724
4.6868                 0.6111808        140.1466        0.4526876        8.135908        0.4526875        8.135909        0.6111811        140.1466
4.6882                 0.6128421        139.0296        0.4484945        7.337497        0.4484944        7.337498        0.6128426        139.0296
4.6896                 0.6142474        137.9226        0.4442654         6.54497        0.4442652        6.544971        0.6142477        137.9225
4.691                  0.6154038        136.8265        0.4400039        5.759127        0.4400038        5.759127        0.6154041        136.8265
4.6924                 0.6163203        135.7424        0.4357149        4.980732        0.4357148        4.980732        0.6163207        135.7424
4.6938                 0.6170074        134.6712        0.4314039        4.210495        0.4314038        4.210495        0.6170079        134.6712
4.6952                 0.6174764        133.6135        0.4270773        3.449046        0.4270772        3.449046        0.6174768        133.6135
4.6966                 0.6177401        132.5702        0.4227421        2.696919         0.422742        2.696917        0.6177405        132.5702
4.698                  0.6178117        131.5419        0.4184055         1.95453        0.4184054        1.954528        0.6178121        131.5419
4.6994                 0.6177056        130.5289        0.4140754        1.222167        0.4140753        1.222164         0.617706        130.5289
4.7008                  0.617437        129.5317        0.4097595       0.4999708        0.4097594       0.4999674        0.6174375        129.5317
4.7022                 0.6170211        128.5503        0.4054656      -0.2120723        0.4054655      -0.2120764        0.6170215        128.5503
4.7036                 0.6164734        127.5851        0.4012012      -0.9141402        0.4012011      -0.9141445        0.6164738        127.5851
4.705                  0.6158094        126.6357        0.3969734       -1.606575        0.3969732        -1.60658        0.6158099        126.6357
4.7064                 0.6150447        125.7021        0.3927887       -2.289878        0.3927886       -2.289906        0.6150452        125.7021
4.7078                  0.614194        124.7838        0.3886528       -2.964742        0.3886527       -2.964769        0.6141945        124.7838
4.7092                  0.613272        123.8805        0.3845706       -3.631964        0.3845705       -3.631964        0.6132724        123.8805
4.7106                  0.612292        122.9914        0.3805459         -4.2925        0.3805458       -4.292506        0.6122924        122.9914
4.712                  0.6112666        122.1158        0.3765814       -4.947432        0.3765813       -4.947439        0.6112671        122.1158
4.7134                 0.6102073         121.253        0.3726786       -5.597926        0.3726786       -5.597932        0.6102077         121.253
4.7148                 0.6091243        120.4018        0.3688379       -6.245221        0.3688378       -6.245227        0.6091247        120.4018
4.7162                  0.608026        119.5613        0.3650581       -6.890598         0.365058       -6.890604        0.6080264        119.5613
4.7176                 0.6069197        118.7304         0.361337       -7.535351        0.3613369       -7.535354        0.6069202        118.7304
4.719                  0.6058109        117.9079        0.3576712       -8.180747         0.357671       -8.180752        0.6058114        117.9079
4.7204                 0.6047036        117.0927        0.3540561       -8.828009         0.354056       -8.828012         0.604704        117.0927
4.7218                 0.6035998        116.2835        0.3504863       -9.478271        0.3504862       -9.478273        0.6036003        116.2835
4.7232                 0.6025004        115.4792        0.3469553       -10.13255        0.3469552       -10.13256        0.6025008        115.4792
4.7246                 0.6014042        114.6786        0.3434559       -10.79174        0.3434558       -10.79174        0.6014046        114.6786
4.726                  0.6003088        113.8806        0.3399806       -11.45655        0.3399805       -11.45655        0.6003092        113.8806
4.7274                 0.5992106        113.0842        0.3365213        -12.1275        0.3365212        -12.1275        0.5992109        113.0842
4.7288                 0.5981043        112.2885        0.3330697       -12.80494        0.3330696       -12.80494        0.5981046        112.2886
4.7302                 0.5969838        111.4927        0.3296178       -13.48896        0.3296177       -13.48896        0.5969841        111.4927
4.7316                 0.5958422        110.6959        0.3261577       -14.17947        0.3261575       -14.17947        0.5958425         110.696
4.733                  0.5946717        109.8977        0.3226817       -14.87613        0.3226816       -14.87613        0.5946721        109.8977
4.7344                 0.5934643        109.0976         0.319183       -15.57839        0.3191829       -15.57839        0.5934646        109.0975
4.7358                 0.5922112        108.2951        0.3156555       -16.28546        0.3156554       -16.28547        0.5922115        108.2951
4.7372                 0.5909041        107.4901        0.3120941       -16.99638         0.312094       -16.99638        0.5909044        107.4901
4.7386                 0.5895344        106.6826        0.3084944       -17.70997        0.3084943       -17.70997        0.5895347        106.6826
4.74                   0.5880942        105.8727        0.3048537       -18.42489        0.3048536       -18.42489        0.5880945        105.8727
4.7414                 0.5865756        105.0604        0.3011701       -19.13963          0.30117       -19.13963        0.5865759        105.0604
4.7428                 0.5849721        104.2462        0.2974432       -19.85258        0.2974431       -19.85258        0.5849724        104.2462
4.7442                 0.5832773        103.4304         0.293674       -20.56201        0.2936739       -20.56201        0.5832776        103.4304
4.7456                 0.5814864        102.6135        0.2898648       -21.26613        0.2898647       -21.26614        0.5814868        102.6136
4.747                  0.5795953        101.7963        0.2860192       -21.96313        0.2860191       -21.96314        0.5795956        101.7963
4.7484                 0.5776015        100.9792        0.2821422        -22.6512        0.2821422        -22.6512        0.5776018        100.9792
4.7498                 0.5755031         100.163          0.27824       -23.32854          0.27824       -23.32855        0.5755034         100.163
4.7512                 0.5733001        99.34846        0.2743199       -23.99348        0.2743198       -23.99349        0.5733003        99.34849
4.7526                 0.5709935        98.53632        0.2703901       -24.64445          0.27039       -24.64446        0.5709938        98.53632
4.754                  0.5685857        97.72731        0.2664597       -25.28005        0.2664597       -25.28006        0.5685861        97.72734
4.7554                 0.5660805        96.92216        0.2625387        -25.8991        0.2625386       -25.89911        0.5660808        96.92216
4.7568                 0.5634826         96.1215        0.2586373       -26.50065        0.2586372       -26.50066        0.5634828        96.12155
4.7582                 0.5607977        95.32606        0.2547661       -27.08408         0.254766        -27.0841         0.560798        95.32606
4.7596                  0.558033        94.53631        0.2509356       -27.64907        0.2509355       -27.64908        0.5580332        94.53634
4.761                   0.555196        93.75271        0.2471563       -28.19568        0.2471562       -28.19569        0.5551963        93.75274
4.7624                 0.5522952        92.97568        0.2434382       -28.72432        0.2434381       -28.72433        0.5522955        92.97571
4.7638                 0.5493395        92.20546        0.2397906       -29.23586        0.2397905       -29.23587        0.5493398        92.20546
4.7652                  0.546338         91.4421        0.2362219       -29.73154        0.2362218       -29.73156        0.5463383         91.4421
4.7666                 0.5433002        90.68558        0.2327393       -30.21303        0.2327392       -30.21305        0.5433005        90.68563
4.768                  0.5402353        89.93578        0.2293489       -30.68238        0.2293488        -30.6824        0.5402356        89.93584
4.7694                 0.5371523        89.19241         0.226055       -31.14203        0.2260549       -31.14205        0.5371527        89.19244
4.7708                 0.5340598          88.455        0.2228605       -31.59473        0.2228604       -31.59475        0.5340601        88.45503
4.7722                 0.5309656        87.72295        0.2197664       -32.04352        0.2197663       -32.04353        0.5309659        87.72295
4.7736                 0.5278767        86.99551        0.2167721       -32.49164        0.2167719       -32.49165         0.527877        86.99553
4.775                   0.524799        86.27189        0.2138748       -32.94248        0.2138747       -32.94249        0.5247994        86.27191
4.7764                 0.5217376         85.5511        0.2110704        -33.3995        0.2110702        -33.3995        0.5217379        85.55115
4.7778                 0.5186959        84.83209        0.2083527       -33.86613        0.2083526       -33.86613        0.5186962        84.83215
