! TOUCHSTONE file generated by CST MICROWAVE STUDIO
! Date and time: Sun Dec  1 17:17:03 2024
! Project name: test_tuning.cst
! Parameters = {airCoaxOuterDiameter=3; chamferAngle=45; chamferWidth=24; connectorLength=10; drillingHoleDiameter=4.1; feedLength=60; flareDiameter=130; flareLength=70; gratingDistance=0; gratingGap=1.90274; outletLength=30; polarizerLength=104; probe1Diameter=1.3; probe1Distance=14; probe1Length=12; probe2Diameter=1.3; probe2Distance=0; probe2Length=12; probeLength=12; smaInnerDiameter=1.3; smaOuterDiameter=4.1; transitionCoefficient=1.33; waveguideFeedLength=30; waveguideSide=50; waveguideThickness=3; wireCount=25; wireDiameter=1.17699}
! Header version: 2024
! Port assignment regex: !\s*Touchstone port\s*([0-9]+)\s*=\s*(CST MWS port|CST DES external port|CST DES block port)\s*(.+)\s* \(\"(.*)\"\)(\s*mode\s*([0-9]+))?.*
! Touchstone port assignment:
! Touchstone port 1 = CST MWS port 1 ("Input1")
! Touchstone port 2 = CST MWS port 2 ("Input2")
# GHz S MA R 50
4.6                     0.199809       -164.3788        0.6862283        66.14759        0.6862285        66.14765        0.1998096       -164.3791
4.6014                 0.2063732       -165.4272        0.6874426        65.20515        0.6874429         65.2052        0.2063737       -165.4275
4.6028                 0.2129175       -166.4645        0.6885676        64.25648        0.6885678        64.25654        0.2129179       -166.4648
4.6042                 0.2194412       -167.4916        0.6895987        63.30181         0.689599        63.30186        0.2194416       -167.4918
4.6056                 0.2259438       -168.5091        0.6905324        62.34138        0.6905328        62.34143        0.2259441       -168.5093
4.607                   0.232425       -169.5179        0.6913652        61.37548        0.6913657        61.37553        0.2324253       -169.5181
4.6084                 0.2388845       -170.5188        0.6920948        60.40438        0.6920953        60.40443        0.2388848       -170.5189
4.6098                 0.2453223       -171.5126        0.6927192        59.42841        0.6927199        59.42847        0.2453225       -171.5128
4.6112                 0.2517379       -172.5003        0.6932374        58.44787        0.6932381        58.44792        0.2517382       -172.5005
4.6126                 0.2581308       -173.4828        0.6936489        57.46304        0.6936496        57.46308        0.2581311       -173.4829
4.614                  0.2645002        -174.461        0.6939537        56.47417        0.6939544        56.47421        0.2645005       -174.4611
4.6154                 0.2708447       -175.4357        0.6941523        55.48153        0.6941531        55.48157         0.270845       -175.4358
4.6168                 0.2771625       -176.4079        0.6942461         54.4853        0.6942469        54.48534        0.2771629        -176.408
4.6182                 0.2834513       -177.3783        0.6942366        53.48563        0.6942374        53.48565        0.2834517       -177.3784
4.6196                 0.2897081       -178.3478        0.6941255        52.48261        0.6941263        52.48263        0.2897086       -178.3479
4.621                  0.2959295        -179.317        0.6939147        51.47631        0.6939155        51.47633          0.29593       -179.3171
4.6224                 0.3021114        179.7135        0.6936059        50.46673        0.6936067        50.46674        0.3021119        179.7134
4.6238                  0.308249        178.7431         0.693201        49.45381        0.6932019        49.45381        0.3082495        178.7431
4.6252                 0.3143374        177.7717        0.6927015        48.43746        0.6927023        48.43746        0.3143379        177.7716
4.6266                  0.320371        176.7987        0.6921085        47.41756        0.6921092        47.41754        0.3203715        176.7986
4.628                  0.3263439        175.8242        0.6914228         46.3939        0.6914235         46.3939        0.3263445        175.8241
4.6294                 0.3322502         174.848        0.6906445        45.36633        0.6906452        45.36632        0.3322508        174.8479
4.6308                 0.3380837        173.8702        0.6897733        44.33461        0.6897739        44.33459        0.3380843        173.8701
4.6322                 0.3438382         172.891        0.6888084        43.29852        0.6888088         43.2985        0.3438388        172.8909
4.6336                 0.3495077        171.9107        0.6877481        42.25783        0.6877486        42.25781        0.3495083        171.9106
4.635                  0.3550864        170.9295        0.6865903        41.21236        0.6865908        41.21233        0.3550869        170.9294
4.6364                 0.3605687         169.948        0.6853328        40.16188        0.6853331        40.16186        0.3605692        169.9479
4.6378                 0.3659495        168.9665        0.6839722        39.10626        0.6839724        39.10624        0.3659499        168.9664
4.6392                 0.3712242        167.9855        0.6825051        38.04536        0.6825053        38.04534        0.3712246        167.9854
4.6406                 0.3763885        167.0057        0.6809281         36.9791        0.6809281        36.97909        0.3763889        167.0056
4.642                  0.3814392        166.0274        0.6792369        35.90745        0.6792371        35.90743        0.3814394        166.0273
4.6434                 0.3863729        165.0513        0.6774282         34.8304        0.6774283        34.83038        0.3863731        165.0513
4.6448                 0.3911873        164.0779        0.6754979        33.74801         0.675498        33.74799        0.3911876        164.0778
4.6462                 0.3958806        163.1076        0.6734424        32.66039        0.6734424        32.66038        0.3958808        163.1076
4.6476                 0.4004513         162.141        0.6712584        31.56767        0.6712584        31.56767        0.4004515        162.1409
4.649                  0.4048985        161.1783        0.6689429        30.47006        0.6689429        30.47005        0.4048987        161.1783
4.6504                 0.4092217        160.2201        0.6664935        29.36775        0.6664935        29.36775        0.4092219          160.22
4.6518                 0.4134206        159.2665        0.6639082        28.26098        0.6639081        28.26099        0.4134208        159.2665
4.6532                 0.4174954         158.318        0.6611855        27.15004        0.6611856        27.15004        0.4174955         158.318
4.6546                 0.4214461        157.3748        0.6583247        26.03516        0.6583248        26.03516        0.4214463        157.3747
4.656                  0.4252731         156.437        0.6553256         24.9166        0.6553256        24.91661        0.4252734         156.437
4.6574                 0.4289768        155.5048        0.6521881        23.79464        0.6521883        23.79465        0.4289771        155.5048
4.6588                 0.4325575        154.5784        0.6489132        22.66948        0.6489134        22.66949        0.4325579        154.5784
4.6602                 0.4360157         153.658        0.6455021        21.54134        0.6455022        21.54135         0.436016         153.658
4.6616                 0.4393512        152.7437        0.6419558        20.41039         0.641956         20.4104        0.4393516        152.7437
4.663                  0.4425645        151.8356        0.6382764        19.27675        0.6382766        19.27676         0.442565        151.8356
4.6644                 0.4456557        150.9339        0.6344652        18.14052        0.6344654        18.14053        0.4456562        150.9339
4.6658                 0.4486249        150.0388        0.6305241        17.00172        0.6305244        17.00173        0.4486255        150.0389
4.6672                 0.4514722        149.1506        0.6264545        15.86038        0.6264547        15.86039        0.4514728        149.1507
4.6686                 0.4541979        148.2696        0.6222576        14.71645        0.6222577        14.71646        0.4541986        148.2696
4.67                   0.4568027        147.3959         0.617934        13.56985        0.6179343        13.56985        0.4568034        147.3959
4.6714                 0.4592873        146.5301        0.6134844        12.42049        0.6134846        12.42049        0.4592881        146.5301
4.6728                  0.461653        145.6725        0.6089082        11.26825        0.6089085        11.26825        0.4616538        145.6725
4.6742                 0.4639018        144.8236        0.6042049        10.11301        0.6042051          10.113        0.4639026        144.8236
4.6756                 0.4660361        143.9838        0.5993726        8.954655        0.5993729        8.954648        0.4660369        143.9838
4.677                  0.4680594        143.1536        0.5944095        7.793098        0.5944096        7.793091        0.4680601        143.1536
4.6784                 0.4699755        142.3336        0.5893128        6.628289        0.5893128        6.628281        0.4699762        142.3336
4.6798                 0.4717897        141.5242         0.584079        5.460233        0.5840791        5.460223        0.4717904        141.5242
4.6812                 0.4735082        140.7259        0.5787047        4.289003        0.5787047        4.288995        0.4735088        140.7258
4.6826                 0.4751378         139.939        0.5731856        3.114765        0.5731856        3.114757        0.4751384         139.939
4.684                  0.4766868        139.1641        0.5675175         1.93778        0.5675175        1.937773        0.4766873         139.164
4.6854                  0.478164        138.4012        0.5616964       0.7584294        0.5616963       0.7584239        0.4781646        138.4011
4.6868                 0.4795794        137.6505        0.5557179      -0.4227815        0.5557178      -0.4227848          0.47958        137.6505
4.6882                 0.4809437        136.9121        0.5495783       -1.605208        0.5495782       -1.605209        0.4809443        136.9121
4.6896                 0.4822681        136.1858        0.5432745       -2.788062        0.5432743       -2.788059        0.4822685        136.1858
4.691                   0.483564        135.4712        0.5368039         -3.9704        0.5368038       -3.970394        0.4835644        135.4712
4.6924                 0.4848432         134.768        0.5301651       -5.151129         0.530165        -5.15112        0.4848437         134.768
4.6938                 0.4861177        134.0753        0.5233577       -6.329002        0.5233576       -6.328988         0.486118        134.0753
4.6952                 0.4873985        133.3924        0.5163826       -7.502617        0.5163825       -7.502599        0.4873989        133.3924
4.6966                 0.4886966        132.7182        0.5092421        -8.67043         0.509242       -8.670409         0.488697        132.7182
4.698                  0.4900218        132.0515        0.5019402       -9.830754        0.5019401       -9.830754        0.4900222        132.0515
4.6994                 0.4913828        131.3908        0.4944823       -10.98179        0.4944823       -10.98176        0.4913832        131.3908
4.7008                  0.492787        130.7346        0.4868759       -12.12162        0.4868759       -12.12159        0.4927874        130.7346
4.7022                 0.4942399        130.0814          0.47913       -13.24821          0.47913       -13.24818        0.4942403        130.0814
4.7036                 0.4957454        129.4292        0.4712553       -14.35946        0.4712554       -14.35943        0.4957458        129.4292
4.705                  0.4973052        128.7764        0.4632645       -15.45326        0.4632646       -15.45323        0.4973057        128.7764
4.7064                 0.4989192        128.1211        0.4551717       -16.52739        0.4551718       -16.52734        0.4989197        128.1211
4.7078                 0.5005848        127.4615        0.4469925       -17.57966        0.4469926       -17.57963        0.5005854        127.4615
4.7092                 0.5022974        126.7958         0.438744       -18.60794        0.4387442       -18.60791        0.5022981        126.7959
4.7106                 0.5040503        126.1226        0.4304446        -19.6101        0.4304448       -19.61007        0.5040509        126.1226
4.712                  0.5058347        125.4401        0.4221133       -20.58412        0.4221135       -20.58409        0.5058353        125.4401
4.7134                   0.50764        124.7471        0.4137704       -21.52807        0.4137706       -21.52805        0.5076407        124.7472
4.7148                 0.5094542        124.0425        0.4054362       -22.44021        0.4054365       -22.44018        0.5094548        124.0425
4.7162                 0.5112634        123.3252        0.3971316       -23.31892        0.3971319        -23.3189         0.511264        123.3252
4.7176                  0.513053        122.5945        0.3888773       -24.16286        0.3888775       -24.16284        0.5130537        122.5945
4.719                  0.5148075          121.85        0.3806935       -24.97088        0.3806938       -24.97086        0.5148082          121.85
4.7204                 0.5165108        121.0913        0.3726003        -25.7421        0.3726006       -25.74209        0.5165114        121.0913
4.7218                 0.5181466        120.3184        0.3646162       -26.47597        0.3646165       -26.47596        0.5181472        120.3184
4.7232                 0.5196987        119.5316        0.3567591        -27.1722        0.3567594       -27.17219        0.5196993        119.5316
4.7246                 0.5211516        118.7312        0.3490452       -27.83085        0.3490454       -27.83086        0.5211522        118.7312
4.726                  0.5224901        117.9178         0.341489       -28.45231        0.3414892       -28.45232        0.5224906        117.9178
4.7274                 0.5237002        117.0923        0.3341033       -29.03728        0.3341035       -29.03729        0.5237007        117.0922
4.7288                 0.5247691        116.2555        0.3268989       -29.58676        0.3268991       -29.58678        0.5247696        116.2555
4.7302                 0.5256854        115.4087        0.3198844       -30.10209        0.3198846       -30.10212        0.5256859        115.4087
4.7316                 0.5264392        114.5529        0.3130664       -30.58483        0.3130665       -30.58485        0.5264396        114.5529
4.733                  0.5270224        113.6896         0.306449       -31.03679         0.306449       -31.03681        0.5270228        113.6895
4.7344                 0.5274284        112.8199        0.3000345       -31.45995        0.3000345       -31.45998        0.5274288        112.8199
4.7358                 0.5276529        111.9454         0.293823       -31.85647         0.293823       -31.85649        0.5276533        111.9454
4.7372                 0.5276932        111.0675        0.2878127       -32.22855        0.2878127       -32.22857        0.5276935        111.0675
4.7386                 0.5275482        110.1875        0.2820002       -32.57845        0.2820001       -32.57847        0.5275485        110.1875
4.74                   0.5272186        109.3067        0.2763803       -32.90838        0.2763802       -32.90841         0.527219        109.3067
4.7414                 0.5267072        108.4265        0.2709467       -33.22053        0.2709466       -33.22054        0.5267075        108.4265
4.7428                 0.5260177        107.5481        0.2656922       -33.51692        0.2656921       -33.51693         0.526018        107.5481
4.7442                 0.5251553        106.6727        0.2606086       -33.79945        0.2606085       -33.79945        0.5251556        106.6727
4.7456                 0.5241264        105.8012        0.2556873       -34.06979        0.2556872       -34.06979        0.5241268        105.8012
4.747                  0.5229385        104.9346        0.2509196       -34.32946        0.2509195       -34.32945        0.5229389        104.9346
4.7484                 0.5215996        104.0737        0.2462965       -34.57972        0.2462964        -34.5797        0.5216001        104.0737
4.7498                 0.5201186        103.2191        0.2418095        -34.8216        0.2418094       -34.82158         0.520119        103.2191
4.7512                 0.5185043        102.3713        0.2374504       -35.05596        0.2374503       -35.05594        0.5185048        102.3714
4.7526                 0.5167658        101.5309        0.2332114       -35.28343        0.2332113        -35.2834        0.5167663        101.5309
4.754                  0.5149123         100.698        0.2290854       -35.50447        0.2290854       -35.50443        0.5149129         100.698
4.7554                 0.5129527        99.87286        0.2250662        -35.7194        0.2250661       -35.71936        0.5129533        99.87289
4.7568                 0.5108952         99.0555        0.2211479       -35.92842        0.2211478       -35.92839        0.5108959        99.05552
4.7582                 0.5087479        98.24588        0.2173256       -36.13168        0.2173256       -36.13163        0.5087485        98.24591
4.7596                 0.5065181        97.44391         0.213595       -36.32923         0.213595       -36.32919        0.5065187        97.44393
4.761                  0.5042123        96.64938        0.2099524       -36.52117        0.2099524       -36.52112        0.5042129         96.6494
4.7624                 0.5018362        95.86205        0.2063947       -36.70756        0.2063947       -36.70752        0.5018369        95.86208
4.7638                 0.4993951        95.08172        0.2029189       -36.88857         0.202919       -36.88852        0.4993958        95.08171
4.7652                 0.4968931        94.30794        0.1995227       -37.06439        0.1995227       -37.06434        0.4968937        94.30796
4.7666                 0.4943339        93.54056        0.1962036       -37.23528        0.1962037       -37.23523        0.4943345        93.54056
4.768                  0.4917202        92.77927        0.1929595       -37.40161        0.1929596       -37.40156        0.4917208        92.77927
4.7694                 0.4890545        92.02377        0.1897881        -37.5638        0.1897882       -37.56375        0.4890551        92.02377
4.7708                 0.4863387        91.27385        0.1866872       -37.72237        0.1866872       -37.72233        0.4863392        91.27379
4.7722                 0.4835741        90.52926        0.1836541       -37.87789        0.1836542       -37.87783        0.4835746        90.52926
4.7736                  0.480762        89.78995        0.1806862       -38.03093        0.1806862       -38.03088        0.4807624        89.78995
4.775                  0.4779034         89.0558        0.1777804       -38.18211        0.1777806       -38.18207        0.4779038        89.05577
4.7764                 0.4749994        88.32672        0.1749338       -38.33204         0.174934       -38.33199        0.4749998        88.32672
4.7778                 0.4720511        87.60279        0.1721429       -38.48124         0.172143       -38.48121        0.4720514        87.60274
