! TOUCHSTONE file generated by CST MICROWAVE STUDIO
! Date and time: Sun Dec  1 17:16:53 2024
! Project name: test_tuning.cst
! Parameters = {airCoaxOuterDiameter=3; chamferAngle=45; chamferWidth=24; connectorLength=10; drillingHoleDiameter=4.1; feedLength=60; flareDiameter=130; flareLength=70; gratingDistance=0; gratingGap=1.90274; outletLength=30; polarizerLength=126; probe1Diameter=1.3; probe1Distance=14; probe1Length=12; probe2Diameter=1.3; probe2Distance=0; probe2Length=12; probeLength=12; smaInnerDiameter=1.3; smaOuterDiameter=4.1; transitionCoefficient=1.33; waveguideFeedLength=30; waveguideSide=50; waveguideThickness=3; wireCount=25; wireDiameter=1.17699}
! Header version: 2024
! Port assignment regex: !\s*Touchstone port\s*([0-9]+)\s*=\s*(CST MWS port|CST DES external port|CST DES block port)\s*(.+)\s* \(\"(.*)\"\)(\s*mode\s*([0-9]+))?.*
! Touchstone port assignment:
! Touchstone port 1 = CST MWS port 1 ("Input1")
! Touchstone port 2 = CST MWS port 2 ("Input2")
# GHz S MA R 50
4.6                     0.232074       -152.3141        0.5896972        63.51838        0.5896973        63.51835        0.2320743       -152.3143
4.6014                 0.2389635       -153.3829         0.591492        62.67912         0.591492        62.67911        0.2389638        -153.383
4.6028                 0.2458757       -154.4553        0.5932263        61.82207        0.5932263        61.82205        0.2458759       -154.4554
4.6042                 0.2527997       -155.5306        0.5948847         60.9474        0.5948847        60.94739        0.2527999       -155.5308
4.6056                 0.2597251        -156.608         0.596452        60.05547         0.596452        60.05546        0.2597253       -156.6081
4.607                  0.2666422       -157.6864        0.5979135         59.1467        0.5979134        59.14669        0.2666424       -157.6865
4.6084                 0.2735423       -158.7646         0.599255        58.22169        0.5992549        58.22167        0.2735425       -158.7647
4.6098                 0.2804174       -159.8415        0.6004632        57.28109        0.6004632        57.28108        0.2804176       -159.8416
4.6112                  0.287261       -160.9158        0.6015258        56.32569        0.6015259        56.32568        0.2872613       -160.9159
4.6126                 0.2940675       -161.9864        0.6024316        55.35634        0.6024315        55.35632        0.2940677       -161.9865
4.614                  0.3008327        -163.052        0.6031699        54.37394        0.6031698        54.37392        0.3008328       -163.0521
4.6154                 0.3075533       -164.1117        0.6037317        53.37948        0.6037316        53.37946        0.3075536       -164.1118
4.6168                 0.3142279       -165.1644        0.6041092        52.37396        0.6041091        52.37395        0.3142282       -165.1645
4.6182                  0.320856       -166.2093        0.6042954        51.35845        0.6042954        51.35844        0.3208562       -166.2094
4.6196                 0.3274383       -167.2456        0.6042851        50.33402        0.6042851        50.33399        0.3274385       -167.2457
4.621                  0.3339769       -168.2729        0.6040739        49.30172        0.6040738        49.30171        0.3339772       -168.2729
4.6224                 0.3404749       -169.2906        0.6036587        48.26267        0.6036586        48.26266        0.3404752       -169.2906
4.6238                 0.3469364       -170.2985        0.6030378        47.21794        0.6030376        47.21792        0.3469367       -170.2986
4.6252                 0.3533664       -171.2966        0.6022103        46.16857        0.6022103        46.16855        0.3533667       -171.2967
4.6266                 0.3597706       -172.2851        0.6011769         45.1156        0.6011768        45.11559        0.3597709       -172.2851
4.628                  0.3661551       -173.2642        0.5999388        44.06006        0.5999387        44.06004        0.3661555       -173.2642
4.6294                 0.3725267       -174.2343        0.5984985         43.0029        0.5984984        43.00288        0.3725271       -174.2344
4.6308                 0.3788921       -175.1963        0.5968594        41.94505        0.5968592        41.94504        0.3788926       -175.1964
4.6322                  0.385258       -176.1509        0.5950254        40.88742        0.5950252        40.88741        0.3852585        -176.151
4.6336                  0.391631       -177.0991        0.5930015        39.83082        0.5930013        39.83081        0.3916314       -177.0991
4.635                   0.398017        -178.042        0.5907932        38.77605        0.5907929        38.77604        0.3980175       -178.0421
4.6364                 0.4044215       -178.9809        0.5884063        37.72384        0.5884061        37.72383         0.404422       -178.9809
4.6378                 0.4108491        -179.917        0.5858474        36.67486        0.5858473        36.67485        0.4108496        -179.917
4.6392                 0.4173034        179.1483        0.5831235        35.62972        0.5831232        35.62971        0.4173039        179.1482
4.6406                 0.4237867        178.2134        0.5802413        34.58899        0.5802411        34.58899        0.4237873        178.2134
4.642                  0.4303003         177.277        0.5772084        33.55318        0.5772081        33.55318        0.4303009         177.277
4.6434                 0.4368438        176.3376        0.5740319        32.52273        0.5740317        32.52273        0.4368444        176.3376
4.6448                 0.4434153        175.3938        0.5707193        31.49804        0.5707191        31.49804         0.443416        175.3937
4.6462                 0.4500117        174.4442        0.5672778        30.47946        0.5672776        30.47946        0.4500123        174.4441
4.6476                 0.4566279        173.4875        0.5637148        29.46729        0.5637146        29.46729        0.4566286        173.4875
4.649                  0.4632575        172.5226        0.5600371        28.46178        0.5600369        28.46178        0.4632582        172.5226
4.6504                 0.4698925        171.5484        0.5562517        27.46314        0.5562516        27.46315        0.4698931        171.5483
4.6518                 0.4765231        170.5639        0.5523652        26.47158        0.5523649        26.47159        0.4765238        170.5638
4.6532                 0.4831388        169.5683        0.5483836        25.48723        0.5483833        25.48725        0.4831395        169.5683
4.6546                 0.4897271        168.5611        0.5443129        24.51025        0.5443127        24.51026        0.4897278         168.561
4.656                  0.4962749        167.5417        0.5401589        23.54072        0.5401588        23.54074        0.4962755        167.5417
4.6574                 0.5027677        166.5099         0.535927        22.57877        0.5359268        22.57879        0.5027684        166.5098
4.6588                 0.5091905        165.4654         0.531622        21.62447        0.5316217         21.6245        0.5091912        165.4653
4.6602                 0.5155275        164.4083        0.5272487        20.67794        0.5272485        20.67795        0.5155282        164.4082
4.6616                 0.5217624        163.3388        0.5228116        19.73925        0.5228114        19.73927         0.521763        163.3387
4.663                  0.5278787        162.2572         0.518315         18.8085        0.5183149        18.80853        0.5278794        162.2571
4.6644                   0.53386         161.164        0.5137628        17.88583        0.5137627        17.88585        0.5338606         161.164
4.6658                 0.5396897        160.0599         0.509159        16.97135         0.509159        16.97137        0.5396903        160.0598
4.6672                 0.5453517        158.9455        0.5045074         16.0652        0.5045074        16.06523        0.5453523        158.9454
4.6686                 0.5508304        157.8218        0.4998117        15.16757        0.4998116        15.16759         0.550831        157.8217
4.67                    0.556111        156.6896        0.4950754        14.27862        0.4950754        14.27864        0.5561116        156.6896
4.6714                 0.5611792        155.5502        0.4903025        13.39856        0.4903025        13.39859        0.5611798        155.5502
4.6728                 0.5660223        154.4046        0.4854966        12.52762        0.4854966        12.52765        0.5660229        154.4046
4.6742                 0.5706281        153.2541        0.4806617        11.66603        0.4806617        11.66606        0.5706286        153.2541
4.6756                 0.5749861           152.1        0.4758017        10.81405        0.4758018        10.81408        0.5749867        152.0999
4.677                  0.5790873        150.9435        0.4709209        9.971942         0.470921        9.971966        0.5790878        150.9435
4.6784                 0.5829238        149.7861        0.4660236        9.139966        0.4660237        9.139988        0.5829242        149.7861
4.6798                 0.5864896        148.6292        0.4611146        8.318386        0.4611147        8.318406        0.5864901        148.6291
4.6812                 0.5897805        147.4741        0.4561984        7.507457        0.4561986        7.507475        0.5897809         147.474
4.6826                 0.5927933        146.3222        0.4512802        6.707418        0.4512804        6.707434        0.5927939        146.3222
4.684                  0.5955276         145.175        0.4463653        5.918481        0.4463654        5.918496        0.5955281        145.1749
4.6854                  0.597984        144.0338        0.4414588        5.140826        0.4414589        5.140839        0.5979844        144.0338
4.6868                 0.6001649        142.8999        0.4365663        4.374593        0.4365665        4.374604        0.6001652        142.8998
4.6882                 0.6020745        141.7746        0.4316935        3.619866        0.4316937        3.619875        0.6020749        141.7745
4.6896                 0.6037189        140.6591        0.4268459        2.876673        0.4268461        2.876679        0.6037193        140.6591
4.691                  0.6051054        139.5546        0.4220292        2.144972        0.4220294        2.144975        0.6051059        139.5545
4.6924                 0.6062432        138.4621        0.4172489        1.424644         0.417249        1.424645        0.6062436         138.462
4.6938                 0.6071424        137.3826        0.4125102        0.715489        0.4125104       0.7154882        0.6071428        137.3826
4.6952                 0.6078149         136.317        0.4078184       0.0172176        0.4078186       0.0172146        0.6078153         136.317
4.6966                 0.6082733        135.2661        0.4031783      -0.6705514        0.4031784      -0.6705569        0.6082737         135.266
4.698                  0.6085315        134.2304        0.3985942       -1.348295        0.3985943       -1.348302        0.6085318        134.2304
4.6994                 0.6086038        133.2106        0.3940701       -2.016583        0.3940702       -2.016593        0.6086042        133.2105
4.7008                 0.6085054        132.2069        0.3896093       -2.676083        0.3896095       -2.676094        0.6085057        132.2069
4.7022                 0.6082518        131.2197        0.3852148       -3.327545        0.3852148       -3.327557        0.6082522        131.2197
4.7036                 0.6078588        130.2491        0.3808882       -3.971805        0.3808883       -3.971833        0.6078592        130.2491
4.705                  0.6073423         129.295        0.3766313       -4.609775        0.3766313       -4.609804        0.6073426        129.2949
4.7064                 0.6067173        128.3571        0.3724443        -5.24245        0.3724443       -5.242451        0.6067175        128.3571
4.7078                 0.6059991        127.4353         0.368327       -5.870771         0.368327       -5.870798        0.6059995        127.4353
4.7092                 0.6052022         126.529        0.3642783       -6.495917        0.3642784       -6.495917        0.6052027         126.529
4.7106                 0.6043403        125.6377        0.3602963       -7.118841        0.3602964       -7.118856        0.6043406        125.6377
4.712                  0.6034259        124.7606        0.3563784       -7.740684        0.3563784         -7.7407        0.6034263        124.7606
4.7134                 0.6024706        123.8969        0.3525209       -8.362478        0.3525208       -8.362494         0.602471        123.8969
4.7148                 0.6014845        123.0457        0.3487195       -8.985236        0.3487195        -8.98525        0.6014849        123.0457
4.7162                 0.6004764         122.206        0.3449695       -9.609909        0.3449695       -9.609921        0.6004768         122.206
4.7176                 0.5994536        121.3767        0.3412654       -10.23737        0.3412654       -10.23738        0.5994539        121.3767
4.719                  0.5984218        120.5568        0.3376012        -10.8684        0.3376012       -10.86841        0.5984221        120.5568
4.7204                 0.5973851         119.745        0.3339707       -11.50366        0.3339706       -11.50367        0.5973855         119.745
4.7218                 0.5963462        118.9403         0.330367        -12.1437         0.330367       -12.14371        0.5963466        118.9403
4.7232                 0.5953061        118.1415        0.3267837       -12.78891        0.3267837       -12.78892        0.5953064        118.1415
4.7246                 0.5942641        117.3477        0.3232138       -13.43955        0.3232138       -13.43956        0.5942645        117.3476
4.726                  0.5932186        116.5576        0.3196507        -14.0957        0.3196507       -14.09571        0.5932189        116.5576
4.7274                 0.5921662        115.7703        0.3160879       -14.75731        0.3160878       -14.75731        0.5921665        115.7703
4.7288                 0.5911027        114.9851        0.3125191       -15.42412        0.3125191       -15.42412         0.591103        114.9851
4.7302                 0.5900227         114.201        0.3089388       -16.09575        0.3089388       -16.09575         0.590023         114.201
4.7316                 0.5889201        113.4175        0.3053418       -16.77162        0.3053418       -16.77162        0.5889204        113.4175
4.733                  0.5877882        112.6339        0.3017235       -17.45102        0.3017235       -17.45101        0.5877885        112.6339
4.7344                 0.5866196        111.8499        0.2980803       -18.13307        0.2980803       -18.13307          0.58662        111.8499
4.7358                 0.5854071        111.0652        0.2944091       -18.81677        0.2944091       -18.81676        0.5854074        111.0652
4.7372                 0.5841432        110.2795        0.2907079       -19.50098        0.2907079       -19.50097        0.5841435        110.2795
4.7386                 0.5828205        109.4928        0.2869755       -20.18444        0.2869756       -20.18444        0.5828208        109.4928
4.74                   0.5814321        108.7054        0.2832118       -20.86582        0.2832119       -20.86582        0.5814323        108.7054
4.7414                 0.5799714        107.9172        0.2794175        -21.5437        0.2794175        -21.5437        0.5799717        107.9172
4.7428                 0.5784329        107.1286        0.2755942        -22.2166        0.2755943       -22.21659        0.5784331        107.1286
4.7442                 0.5768115        106.3402        0.2717449         -22.883         0.271745         -22.883        0.5768117        106.3402
4.7456                 0.5751032        105.5522         0.267873       -23.54139        0.2678731       -23.54139        0.5751034        105.5522
4.747                  0.5733051        104.7653        0.2639831       -24.19026        0.2639831       -24.19026        0.5733053        104.7653
4.7484                 0.5714155        103.9802        0.2600804       -24.82817        0.2600805       -24.82817        0.5714157        103.9802
4.7498                 0.5694337        103.1975        0.2561711       -25.45371        0.2561712       -25.45372        0.5694339        103.1975
4.7512                 0.5673603        102.4178        0.2522619       -26.06562        0.2522619       -26.06564        0.5673605        102.4178
4.7526                 0.5651972        101.6418        0.2483599       -26.66275          0.24836       -26.66276        0.5651973        101.6418
4.754                  0.5629473        100.8703        0.2444728       -27.24411        0.2444729       -27.24413        0.5629475        100.8704
4.7554                 0.5606149        100.1039        0.2406086       -27.80891        0.2406086       -27.80894        0.5606151        100.1039
4.7568                 0.5582052        99.34324        0.2367752       -28.35659        0.2367752       -28.35662        0.5582054        99.34324
4.7582                 0.5557246        98.58873        0.2329807       -28.88683        0.2329808       -28.88686        0.5557248        98.58873
4.7596                 0.5531801          97.841         0.229233       -29.39959         0.229233       -29.39962        0.5531803          97.841
4.761                  0.5505796        97.10026        0.2255396       -29.89511        0.2255396       -29.89514        0.5505797        97.10028
4.7624                 0.5479316        96.36692        0.2219075       -30.37395        0.2219075       -30.37399        0.5479317        96.36695
4.7638                 0.5452448        95.64109        0.2183431       -30.83699        0.2183431       -30.83703         0.545245        95.64109
4.7652                 0.5425286        94.92275        0.2148519       -31.28541        0.2148519       -31.28546        0.5425287        94.92275
4.7666                 0.5397918         94.2118        0.2114386       -31.72074        0.2114386       -31.72078         0.539792        94.21183
4.768                  0.5370437        93.50801        0.2081068       -32.14476        0.2081068        -32.1448        0.5370439        93.50803
4.7694                 0.5342929        92.81103        0.2048589       -32.55956        0.2048589        -32.5596         0.534293        92.81105
4.7708                 0.5315475        92.12026        0.2016962       -32.96745        0.2016961       -32.96749        0.5315476        92.12028
4.7722                 0.5288148        91.43506        0.1986185       -33.37095        0.1986184         -33.371        0.5288149        91.43509
4.7736                 0.5261016        90.75468        0.1956245       -33.77277        0.1956244       -33.77281        0.5261018         90.7547
4.775                  0.5234133        90.07816        0.1927114       -34.17565        0.1927113       -34.17569        0.5234135        90.07819
4.7764                 0.5207544        89.40448        0.1898755       -34.58242        0.1898754       -34.58246        0.5207545        89.40453
4.7778                 0.5181278        88.73263        0.1871116       -34.99589        0.1871115       -34.99593        0.5181281        88.73265
