! TOUCHSTONE file generated by CST MICROWAVE STUDIO
! Date and time: Sun Dec  1 17:16:59 2024
! Project name: test_tuning.cst
! Parameters = {airCoaxOuterDiameter=3; chamferAngle=45; chamferWidth=24; connectorLength=10; drillingHoleDiameter=4.1; feedLength=60; flareDiameter=130; flareLength=70; gratingDistance=0; gratingGap=1.90274; outletLength=30; polarizerLength=82; probe1Diameter=1.3; probe1Distance=14; probe1Length=12; probe2Diameter=1.3; probe2Distance=0; probe2Length=12; probeLength=12; smaInnerDiameter=1.3; smaOuterDiameter=4.1; transitionCoefficient=1.33; waveguideFeedLength=30; waveguideSide=50; waveguideThickness=3; wireCount=25; wireDiameter=1.17699}
! Header version: 2024
! Port assignment regex: !\s*Touchstone port\s*([0-9]+)\s*=\s*(CST MWS port|CST DES external port|CST DES block port)\s*(.+)\s* \(\"(.*)\"\)(\s*mode\s*([0-9]+))?.*
! Touchstone port assignment:
! Touchstone port 1 = CST MWS port 1 ("Input1")
! Touchstone port 2 = CST MWS port 2 ("Input2")
# GHz S MA R 50
4.6                    0.2188776       -154.3304        0.5913556         65.7508        0.5913548        65.75074        0.2188775       -154.3306
4.6014                 0.2256813       -155.3875        0.5934909         64.8739        0.5934902        64.87382        0.2256813       -155.3876
4.6028                 0.2325197       -156.4423         0.595555        63.98678        0.5955541        63.98673        0.2325199       -156.4423
4.6042                 0.2393889       -157.4953        0.5975426        63.08954        0.5975417        63.08947        0.2393891       -157.4953
4.6056                 0.2462846       -158.5473        0.5994486        62.18221        0.5994475        62.18214        0.2462849       -158.5473
4.607                  0.2532024       -159.5988        0.6012675        61.26493        0.6012664        61.26486        0.2532029       -159.5988
4.6084                 0.2601381       -160.6504        0.6029942        60.33784         0.602993        60.33777        0.2601388       -160.6503
4.6098                 0.2670873       -161.7025        0.6046234        59.40114         0.604622        59.40108        0.2670881       -161.7024
4.6112                 0.2740454       -162.7554        0.6061498        58.45504        0.6061483        58.45498        0.2740464       -162.7553
4.6126                 0.2810076       -163.8096        0.6075684        57.49981        0.6075669        57.49975        0.2810088       -163.8095
4.614                  0.2879694       -164.8654        0.6088745        56.53571        0.6088729        56.53565        0.2879707       -164.8653
4.6154                 0.2949256        -165.923        0.6100634        55.56306        0.6100617        55.56301        0.2949272       -165.9228
4.6168                 0.3018713       -166.9826        0.6111309        54.58219        0.6111292        54.58215        0.3018731       -166.9825
4.6182                 0.3088013       -168.0444         0.612073        53.59346        0.6120713        53.59343        0.3088032       -168.0443
4.6196                 0.3157102       -169.1087        0.6128861        52.59725        0.6128842        52.59722        0.3157123       -169.1086
4.621                  0.3225925       -170.1755        0.6135669        51.59395        0.6135649        51.59394        0.3225947       -170.1754
4.6224                 0.3294426       -171.2449        0.6141123        50.58396        0.6141104        50.58396         0.329445       -171.2448
4.6238                 0.3362547        -172.317        0.6145201        49.56771        0.6145182        49.56772        0.3362573        -172.317
4.6252                  0.343023       -173.3918        0.6147883        48.54561        0.6147862        48.54563        0.3430257       -173.3917
4.6266                 0.3497413       -174.4692        0.6149149        47.51809         0.614913        47.51811        0.3497441       -174.4692
4.628                  0.3564036       -175.5493         0.614899        46.48557        0.6148971         46.4856        0.3564065       -175.5494
4.6294                 0.3630037        -176.632        0.6147396        45.44848        0.6147377        45.44852        0.3630067       -176.6321
4.6308                 0.3695353       -177.7172        0.6144364        44.40723        0.6144345        44.40728        0.3695383       -177.7172
4.6322                 0.3759921       -178.8046        0.6139894        43.36224        0.6139875         43.3623        0.3759951       -178.8047
4.6336                 0.3823677       -179.8942         0.613399        42.31389         0.613397        42.31397        0.3823708       -179.8943
4.635                  0.3886559        179.0143        0.6126658        41.26258        0.6126639        41.26266         0.388659        179.0142
4.6364                 0.3948503        177.9211        0.6117907        40.20869        0.6117889        40.20878        0.3948533        177.9209
4.6378                 0.4009447        176.8264        0.6107754        39.15257        0.6107736        39.15266        0.4009477        176.8262
4.6392                  0.406933        175.7306        0.6096214        38.09453        0.6096197        38.09464         0.406936        175.7304
4.6406                 0.4128093        174.6339        0.6083305        37.03494        0.6083289        37.03505        0.4128121        174.6337
4.642                  0.4185676        173.5367         0.606905        35.97406        0.6069034        35.97419        0.4185704        173.5365
4.6434                 0.4242025        172.4394        0.6053469         34.9122        0.6053454        34.91233        0.4242052        172.4392
4.6448                 0.4297084        171.3424        0.6036589        33.84961        0.6036576        33.84974         0.429711        171.3421
4.6462                 0.4350803        170.2459        0.6018436        32.78653        0.6018423        32.78667        0.4350827        170.2457
4.6476                 0.4403134        169.1505        0.5999035         31.7232        0.5999024        31.72333        0.4403157        169.1503
4.649                  0.4454031        168.0566        0.5978417         30.6598        0.5978405        30.65994        0.4454052        168.0564
4.6504                 0.4503452        166.9646        0.5956606        29.59654        0.5956595        29.59668        0.4503472        166.9644
4.6518                  0.455136        165.8749        0.5933633        28.53358        0.5933623        28.53372        0.4551379        165.8747
4.6532                 0.4597722        164.7881        0.5909526        27.47108        0.5909518        27.47122        0.4597739        164.7878
4.6546                 0.4642507        163.7045        0.5884314        26.40918        0.5884307        26.40932        0.4642522        163.7042
4.656                  0.4685688        162.6245        0.5858026        25.34802        0.5858019        25.34816        0.4685703        162.6243
4.6574                 0.4727247        161.5487        0.5830688        24.28771        0.5830682        24.28785        0.4727259        161.5485
4.6588                 0.4767165        160.4776        0.5802329        23.22836        0.5802324         23.2285        0.4767177        160.4774
4.6602                 0.4805432        159.4114        0.5772976        22.17009        0.5772972        22.17023        0.4805442        159.4112
4.6616                 0.4842038        158.3506        0.5742656        21.11299        0.5742652        21.11312        0.4842047        158.3504
4.663                  0.4876982        157.2957        0.5711394        20.05715         0.571139        20.05728         0.487699        157.2955
4.6644                 0.4910265         156.247        0.5679217        19.00268        0.5679214        19.00281        0.4910272        156.2469
4.6658                 0.4941892        155.2049        0.5646151        17.94967        0.5646148        17.94979        0.4941899        155.2048
4.6672                 0.4971873        154.1698        0.5612219        16.89821        0.5612217        16.89833        0.4971879        154.1697
4.6686                 0.5000222        153.1419         0.557745         15.8484        0.5577448        15.84851        0.5000227        153.1418
4.67                   0.5026956        152.1216        0.5541864        14.80035        0.5541863        14.80046        0.5026961        152.1215
4.6714                 0.5052096        151.1091        0.5505491        13.75417        0.5505489        13.75428        0.5052101         151.109
4.6728                 0.5075666        150.1047        0.5468353        12.70996        0.5468352        12.71007        0.5075671        150.1046
4.6742                 0.5097692        149.1085        0.5430478        11.66785        0.5430477        11.66795        0.5097697        149.1085
4.6756                 0.5118203        148.1209        0.5391892        10.62796        0.5391891        10.62805        0.5118209        148.1208
4.677                  0.5137231        147.1418        0.5352622        9.590412        0.5352622        9.590505        0.5137236        147.1418
4.6784                 0.5154808        146.1715        0.5312697        8.555346        0.5312697        8.555434        0.5154814        146.1715
4.6798                 0.5170967          145.21        0.5272146        7.522895        0.5272145        7.522979        0.5170974          145.21
4.6812                 0.5185744        144.2574        0.5230998        6.493196        0.5230997        6.493278        0.5185752        144.2574
4.6826                 0.5199173        143.3137        0.5189286        5.466388        0.5189285        5.466467        0.5199183        143.3137
4.684                   0.521129        142.3789        0.5147042        4.442608        0.5147042        4.442684        0.5211301         142.379
4.6854                 0.5222129         141.453        0.5104301        3.421987          0.51043        3.422062        0.5222141        141.4531
4.6868                 0.5231724         140.536        0.5061097         2.40465        0.5061096        2.404724        0.5231736         140.536
4.6882                 0.5240107        139.6277        0.5017467        1.390715        0.5017467        1.390786         0.524012        139.6277
4.6896                 0.5247311        138.7281        0.4973451       0.3802827         0.497345       0.3803533        0.5247324        138.7281
4.691                  0.5253363         137.837        0.4929085      -0.6265582        0.4929085      -0.6264885        0.5253378         137.837
4.6924                 0.5258292        136.9544        0.4884412        -1.62974        0.4884412       -1.629671        0.5258308        136.9544
4.6938                 0.5262124        136.0801        0.4839472       -2.629219        0.4839472        -2.62915        0.5262141        136.0802
4.6952                 0.5264882         135.214        0.4794307       -3.624976        0.4794306       -3.624907        0.5264899         135.214
4.6966                 0.5266587         134.356        0.4748958       -4.617023        0.4748957       -4.616955        0.5266605         134.356
4.698                  0.5267256        133.5059        0.4703469       -5.605405        0.4703469       -5.605337        0.5267274        133.5059
4.6994                 0.5266906        132.6636        0.4657882       -6.590206        0.4657882       -6.590139        0.5266925        132.6636
4.7008                 0.5265551        131.8289        0.4612239       -7.571572        0.4612239       -7.571462         0.526557        131.8289
4.7022                 0.5263202        131.0019        0.4566581       -8.549595         0.456658       -8.549541        0.5263222        131.0019
4.7036                 0.5259868        130.1824        0.4520948       -9.524595        0.4520948       -9.524539        0.5259888        130.1824
4.705                  0.5255558        129.3703        0.4475378       -10.49676        0.4475378       -10.49671        0.5255578        129.3703
4.7064                 0.5250277        128.5657        0.4429911       -11.46642         0.442991       -11.46637        0.5250296        128.5657
4.7078                 0.5244031        127.7685        0.4384578       -12.43396        0.4384578       -12.43388        0.5244049        127.7685
4.7092                 0.5236822        126.9788        0.4339413       -13.39979        0.4339413       -13.39968         0.523684        126.9787
4.7106                 0.5228655        126.1966        0.4294446       -14.36433        0.4294446       -14.36426        0.5228672        126.1965
4.712                  0.5219533         125.422        0.4249702       -15.32817        0.4249703       -15.32811        0.5219549        125.4219
4.7134                 0.5209459        124.6552        0.4205205       -16.29187        0.4205205        -16.2918        0.5209475        124.6551
4.7148                 0.5198439        123.8964        0.4160973       -17.25604        0.4160973       -17.25597        0.5198454        123.8963
4.7162                 0.5186478        123.1457        0.4117021       -18.22135        0.4117021       -18.22129        0.5186492        123.1456
4.7176                 0.5173584        122.4034        0.4073359       -19.18853         0.407336       -19.18847        0.5173597        122.4033
4.719                  0.5159766        121.6699        0.4029995       -20.15832        0.4029996       -20.15826        0.5159778        121.6698
4.7204                 0.5145037        120.9454        0.3986929       -21.13152        0.3986931       -21.13146        0.5145048        120.9453
4.7218                 0.5129412        120.2303         0.394416       -22.10894        0.3944161       -22.10888        0.5129421        120.2302
4.7232                  0.511291         119.525         0.390168       -23.09143        0.3901681       -23.09137        0.5112918        119.5249
4.7246                 0.5095554        118.8299        0.3859477       -24.07985        0.3859478        -24.0798        0.5095561        118.8298
4.726                   0.507737        118.1455        0.3817535       -25.07507        0.3817536       -25.07503        0.5077376        118.1454
4.7274                  0.505839        117.4722        0.3775833       -26.07798        0.3775835       -26.07794        0.5058395        117.4721
4.7288                 0.5038649        116.8106        0.3734349       -27.08946         0.373435       -27.08942        0.5038654        116.8105
4.7302                 0.5018189         116.161        0.3693053       -28.11037        0.3693054       -28.11033        0.5018192        116.1609
4.7316                 0.4997055         115.524        0.3651914       -29.14157        0.3651915       -29.14154        0.4997057         115.524
4.733                  0.4975297        114.9002        0.3610899        -30.1839          0.36109       -30.18386        0.4975299        114.9001
4.7344                 0.4952972        114.2899         0.356997       -31.23815        0.3569971       -31.23812        0.4952973        114.2899
4.7358                  0.493014        113.6937        0.3529089       -32.30511         0.352909       -32.30509        0.4930141        113.6937
4.7372                 0.4906866        113.1119        0.3488214       -33.38552        0.3488214       -33.38551        0.4906867        113.1119
4.7386                 0.4883221        112.5451        0.3447304       -34.48008        0.3447305       -34.48006        0.4883222        112.5451
4.74                   0.4859279        111.9935        0.3406317       -35.58942        0.3406318        -35.5894        0.4859279        111.9935
4.7414                 0.4835118        111.4574         0.336521       -36.71415         0.336521       -36.71414        0.4835118        111.4575
4.7428                 0.4810819        110.9373        0.3323941       -37.85482        0.3323941       -37.85481         0.481082        110.9373
4.7442                 0.4786467        110.4331        0.3282468       -39.01194        0.3282468       -39.01192        0.4786469        110.4331
4.7456                 0.4762149         109.945        0.3240751       -40.18592        0.3240751       -40.18591        0.4762151        109.9451
4.747                  0.4737953        109.4732        0.3198752       -41.37717        0.3198752       -41.37716        0.4737956        109.4733
4.7484                 0.4713969        109.0174        0.3156435       -42.58602        0.3156435       -42.58601        0.4713973        109.0175
4.7498                 0.4690286        108.5777        0.3113766       -43.81275        0.3113766       -43.81273        0.4690291        108.5778
4.7512                 0.4666994        108.1536        0.3070716       -45.05759        0.3070715       -45.05758           0.4667        108.1537
4.7526                  0.464418         107.745        0.3027256       -46.32072        0.3027255       -46.32071        0.4644188        107.7451
4.754                  0.4621931        107.3512        0.2983365        -47.6023        0.2983363       -47.60228        0.4621939        107.3514
4.7554                 0.4600326        106.9718        0.2939021        -48.9024         0.293902       -48.90238        0.4600336         106.972
4.7568                 0.4579447        106.6061        0.2894211        -50.2211         0.289421       -50.22108        0.4579458        106.6063
4.7582                 0.4559366        106.2533        0.2848923       -51.55842        0.2848922       -51.55841        0.4559378        106.2534
4.7596                 0.4540151        105.9124        0.2803151       -52.91438        0.2803149       -52.91435        0.4540164        105.9126
4.761                  0.4521864        105.5826        0.2756892       -54.28894        0.2756891       -54.28892        0.4521877        105.5827
4.7624                 0.4504559        105.2627         0.271015       -55.68207        0.2710149       -55.68205        0.4504574        105.2628
4.7638                 0.4488284        104.9516        0.2662932       -57.09374         0.266293       -57.09371        0.4488299        104.9517
4.7652                 0.4473076         104.648        0.2615249       -58.52388        0.2615248       -58.52386        0.4473093        104.6481
4.7666                 0.4458967        104.3506        0.2567119       -59.97246        0.2567117       -59.97243        0.4458984        104.3507
4.768                  0.4445977        104.0581         0.251856       -61.43944        0.2518559        -61.4394        0.4445995        104.0582
4.7694                 0.4434118         103.769        0.2469599       -62.92479        0.2469598       -62.92475        0.4434136        103.7691
4.7708                 0.4423392        103.4821        0.2420265       -64.42851        0.2420264       -64.42847        0.4423411        103.4822
4.7722                 0.4413791        103.1958        0.2370591       -65.95066         0.237059       -65.95061        0.4413811        103.1958
4.7736                 0.4405302        102.9088        0.2320613       -67.49126        0.2320612       -67.49122        0.4405321        102.9088
4.775                  0.4397896        102.6195        0.2270371       -69.05048         0.227037       -69.05043        0.4397915        102.6195
4.7764                 0.4391541        102.3268        0.2219909       -70.62847        0.2219908       -70.62841         0.439156        102.3268
4.7778                 0.4386195        102.0293        0.2169273       -72.22545        0.2169272        -72.2254        0.4386213        102.0292
