! TOUCHSTONE file generated by CST MICROWAVE STUDIO
! Date and time: Sun Dec  1 17:17:04 2024
! Project name: test_tuning.cst
! Parameters = {airCoaxOuterDiameter=3; chamferAngle=45; chamferWidth=24; connectorLength=10; drillingHoleDiameter=4.1; feedLength=60; flareDiameter=130; flareLength=70; gratingDistance=0; gratingGap=1.90274; outletLength=30; polarizerLength=106; probe1Diameter=1.3; probe1Distance=14; probe1Length=12; probe2Diameter=1.3; probe2Distance=0; probe2Length=12; probeLength=12; smaInnerDiameter=1.3; smaOuterDiameter=4.1; transitionCoefficient=1.33; waveguideFeedLength=30; waveguideSide=50; waveguideThickness=3; wireCount=25; wireDiameter=1.17699}
! Header version: 2024
! Port assignment regex: !\s*Touchstone port\s*([0-9]+)\s*=\s*(CST MWS port|CST DES external port|CST DES block port)\s*(.+)\s* \(\"(.*)\"\)(\s*mode\s*([0-9]+))?.*
! Touchstone port assignment:
! Touchstone port 1 = CST MWS port 1 ("Input1")
! Touchstone port 2 = CST MWS port 2 ("Input2")
# GHz S MA R 50
4.6                    0.1926121       -162.9164        0.6871977        64.93895        0.6871979        64.93893        0.1926126       -162.9165
4.6014                 0.1991758       -163.9443        0.6881057        64.00687        0.6881057        64.00687        0.1991763       -163.9444
4.6028                  0.205758       -164.9703        0.6889449        63.07191         0.688945         63.0719        0.2057585       -164.9704
4.6042                 0.2123502       -165.9958        0.6897189        62.13389         0.689719        62.13388        0.2123507       -165.9959
4.6056                 0.2189436       -167.0219        0.6904304        61.19256        0.6904305        61.19253         0.218944       -167.0221
4.607                  0.2255286       -168.0493        0.6910815        60.24758        0.6910816        60.24755         0.225529       -168.0495
4.6084                 0.2320958       -169.0782        0.6916735        59.29859        0.6916737        59.29857        0.2320962       -169.0783
4.6098                 0.2386356       -170.1083        0.6922067        58.34521        0.6922068        58.34519        0.2386359       -170.1084
4.6112                 0.2451388       -171.1393        0.6926804        57.38702        0.6926804        57.38699        0.2451391       -171.1394
4.6126                 0.2515969       -172.1705        0.6930927        56.42359        0.6930928        56.42355        0.2515972       -172.1706
4.614                  0.2580022       -173.2011         0.693441        55.45452        0.6934411        55.45449        0.2580024       -173.2013
4.6154                 0.2643478       -174.2303        0.6937216        54.47946        0.6937216        54.47943        0.2643479       -174.2304
4.6168                 0.2706279        -175.257          0.69393        53.49808        0.6939301        53.49804         0.270628       -175.2571
4.6182                 0.2768381       -176.2803        0.6940611        52.51011        0.6940611        52.51008        0.2768382       -176.2804
4.6196                 0.2829749       -177.2993         0.694109        51.51535         0.694109        51.51532        0.2829749       -177.2994
4.621                  0.2890362       -178.3132        0.6940677        50.51368        0.6940677        50.51366        0.2890362       -178.3133
4.6224                  0.295021       -179.3213         0.693931        49.50505         0.693931        49.50502         0.295021       -179.3213
4.6238                 0.3009292         179.677        0.6936925        48.48948        0.6936925        48.48944        0.3009292        179.6769
4.6252                 0.3067618         178.682        0.6933463        47.46706        0.6933462        47.46703        0.3067618        178.6819
4.6266                 0.3125204        177.6939        0.6928864        46.43797        0.6928864        46.43793        0.3125204        177.6938
4.628                   0.318207        176.7127        0.6923077        45.40244        0.6923077         45.4024         0.318207        176.7127
4.6294                 0.3238242        175.7384        0.6916058        44.36073        0.6916057         44.3607        0.3238242        175.7384
4.6308                 0.3293744        174.7705        0.6907766        43.31318        0.6907765        43.31315        0.3293745        174.7705
4.6322                   0.33486        173.8087        0.6898171        42.26014         0.689817        42.26011          0.33486        173.8087
4.6336                 0.3402828        172.8522        0.6887251        41.20198        0.6887251        41.20194        0.3402829        172.8522
4.635                  0.3456442        171.9005        0.6874995        40.13906        0.6874993        40.13903        0.3456444        171.9005
4.6364                  0.350945        170.9527        0.6861396        39.07174        0.6861394        39.07171        0.3509453        170.9527
4.6378                 0.3561848         170.008        0.6846459        38.00038        0.6846456        38.00034        0.3561851         170.008
4.6392                 0.3613623        169.0657        0.6830192        36.92525         0.683019        36.92522        0.3613626        169.0658
4.6406                 0.3664751        168.1251        0.6812613        35.84664         0.681261        35.84661        0.3664755        168.1251
4.642                    0.37152        167.1853        0.6793742        34.76474         0.679374        34.76471        0.3715204        167.1853
4.6434                 0.3764924        166.2459        0.6773604        33.67972        0.6773601        33.67969        0.3764929        166.2459
4.6448                 0.3813871        165.3063        0.6752224        32.59164        0.6752221        32.59161        0.3813876        165.3063
4.6462                 0.3861978        164.3662        0.6729628        31.50055        0.6729624        31.50052        0.3861983        164.3662
4.6476                 0.3909177        163.4254        0.6705841        30.40639        0.6705838        30.40636        0.3909182        163.4254
4.649                  0.3955395        162.4839        0.6680884        29.30907        0.6680881        29.30905          0.39554        162.4839
4.6504                 0.4000555         161.542        0.6654774        28.20845        0.6654772        28.20842        0.4000561         161.542
4.6518                 0.4044584        160.5998        0.6627525         27.1043        0.6627522        27.10428         0.404459        160.5998
4.6532                 0.4087405        159.6579        0.6599141        25.99641        0.6599138        25.99639        0.4087412         159.658
4.6546                 0.4128952        158.7171        0.6569621         24.8845        0.6569618        24.88448        0.4128958        158.7171
4.656                   0.416916        157.7779        0.6538956        23.76828        0.6538952        23.76827        0.4169166        157.7779
4.6574                 0.4207976        156.8415        0.6507128        22.64748        0.6507124        22.64747        0.4207983        156.8414
4.6588                  0.424536        155.9087        0.6474113        21.52181         0.647411         21.5218        0.4245365        155.9086
4.6602                  0.428128        154.9806        0.6439879        20.39102        0.6439876        20.39101        0.4281285        154.9806
4.6616                  0.431572        154.0584        0.6404386        19.25489        0.6404384        19.25488        0.4315726        154.0584
4.663                   0.434868        153.1431         0.636759        18.11324        0.6367588        18.11324        0.4348686        153.1431
4.6644                 0.4380175         152.236        0.6329441        16.96597        0.6329439        16.96597         0.438018         152.236
4.6658                 0.4410235         151.338        0.6289884        15.81302        0.6289883        15.81302        0.4410239         151.338
4.6672                 0.4438904        150.4503        0.6248864        14.65442        0.6248862        14.65442        0.4438909        150.4503
4.6686                 0.4466245        149.5736        0.6206322        13.49029        0.6206321        13.49029         0.446625        149.5736
4.67                   0.4492331        148.7088        0.6162201        12.32082          0.61622        12.32082        0.4492337        148.7088
4.6714                 0.4517251        147.8566        0.6116445        11.14631        0.6116445        11.14631        0.4517256        147.8566
4.6728                 0.4541101        147.0175        0.6069003        9.967146        0.6069003        9.967143        0.4541105        147.0175
4.6742                 0.4563988        146.1917        0.6019826        8.783802        0.6019826        8.783797        0.4563993        146.1917
4.6756                 0.4586027        145.3795        0.5968872         7.59686        0.5968871        7.596853        0.4586031        145.3795
4.677                  0.4607335        144.5808        0.5916104         6.40699        0.5916103         6.40698         0.460734        144.5808
4.6784                 0.4628032        143.7955        0.5861496        5.214952        0.5861496         5.21494        0.4628038        143.7955
4.6798                  0.464824        143.0229        0.5805029        4.021597        0.5805029        4.021583        0.4648245        143.0229
4.6812                 0.4668074        142.2627        0.5746694        2.827857        0.5746693        2.827841        0.4668079        142.2627
4.6826                 0.4687648         141.514         0.568649        1.634745         0.568649        1.634726        0.4687654         141.514
4.684                  0.4707067        140.7758         0.562443       0.4433476         0.562443       0.4433268        0.4707072        140.7758
4.6854                 0.4726427        140.0472        0.5560536      -0.7451764        0.5560536      -0.7451993        0.4726432        140.0472
4.6868                 0.4745814        139.3268        0.5494841       -1.929604         0.549484       -1.929629         0.474582        139.3268
4.6882                 0.4765302        138.6136         0.542739       -3.108651        0.5427388       -3.108678        0.4765308        138.6136
4.6896                 0.4784954         137.906        0.5358236       -4.280978        0.5358235       -4.281006         0.478496         137.906
4.691                  0.4804814        137.2027        0.5287447       -5.445193        0.5287445       -5.445222         0.480482        137.2027
4.6924                 0.4824914        136.5022          0.52151       -6.599859        0.5215098       -6.599888        0.4824921        136.5022
4.6938                 0.4845274         135.803        0.5141282       -7.743496        0.5141279       -7.743524         0.484528         135.803
4.6952                 0.4865897        135.1039        0.5066089       -8.874588        0.5066087       -8.874616        0.4865904        135.1039
4.6966                 0.4886773        134.4033         0.498963       -9.991587        0.4989627       -9.991613        0.4886779        134.4033
4.698                  0.4907877        133.6999        0.4912021       -11.09294        0.4912018       -11.09296        0.4907883        133.6999
4.6994                 0.4929172        132.9925        0.4833386         -12.177        0.4833383       -12.17703        0.4929179        132.9925
4.7008                 0.4950612        132.2799        0.4753861       -13.24222        0.4753857       -13.24222        0.4950617        132.2799
4.7022                 0.4972134         131.561        0.4673584         -14.287        0.4673581         -14.287        0.4972141         131.561
4.7036                 0.4993672        130.8349        0.4592706       -15.30971        0.4592702       -15.30971        0.4993677        130.8349
4.705                  0.5015147        130.1008        0.4511379       -16.30877        0.4511376        -16.3088        0.5015152        130.1007
4.7064                 0.5036471        129.3577        0.4429765       -17.28269        0.4429762        -17.2827        0.5036477        129.3577
4.7078                 0.5057556        128.6053        0.4348029       -18.22997        0.4348025       -18.22997        0.5057561        128.6053
4.7092                 0.5078302        127.8429        0.4266337       -19.14918        0.4266334       -19.14917        0.5078307        127.8428
4.7106                 0.5098609        127.0701        0.4184861       -20.03898        0.4184858       -20.03898        0.5098614        127.0701
4.712                  0.5118372        126.2869        0.4103774       -20.89817        0.4103771       -20.89816        0.5118377        126.2868
4.7134                 0.5137484        125.4929        0.4023247       -21.72564        0.4023244       -21.72563        0.5137488        125.4928
4.7148                 0.5155838        124.6881         0.394345       -22.52048        0.3943447       -22.52046        0.5155842        124.6881
4.7162                 0.5173324        123.8727        0.3864551       -23.28192        0.3864549        -23.2819        0.5173328        123.8727
4.7176                 0.5189837        123.0469        0.3786713       -24.00943        0.3786711        -24.0094         0.518984        123.0469
4.719                  0.5205269        122.2109         0.371009       -24.70269        0.3710088       -24.70267        0.5205273        122.2109
4.7204                 0.5219521        121.3651        0.3634829       -25.36165        0.3634828       -25.36162        0.5219524        121.3651
4.7218                 0.5232491        120.5101        0.3561068        -25.9865        0.3561067       -25.98647        0.5232494        120.5101
4.7232                 0.5244087        119.6464        0.3488931       -26.57774         0.348893       -26.57771         0.524409        119.6464
4.7246                  0.525422        118.7748        0.3418527       -27.13617        0.3418526       -27.13614        0.5254222        118.7748
4.726                  0.5262809        117.8959        0.3349952       -27.66285        0.3349952       -27.66283        0.5262811        117.8959
4.7274                 0.5269781        117.0107        0.3283284       -28.15918        0.3283284       -28.15914        0.5269783        117.0107
4.7288                 0.5275071        116.1199        0.3218581       -28.62679        0.3218581       -28.62676        0.5275073        116.1199
4.7302                 0.5278624        115.2248        0.3155885        -29.0676        0.3155885       -29.06757        0.5278626        115.2248
4.7316                 0.5280396        114.3261        0.3095215       -29.48373        0.3095216       -29.48371        0.5280398        114.3261
4.733                  0.5280353        113.4251        0.3036574       -29.87751        0.3036575       -29.87748        0.5280355        113.4251
4.7344                 0.5278474        112.5228        0.2979944       -30.25138        0.2979944       -30.25136        0.5278476        112.5228
4.7358                  0.527475        111.6203        0.2925287       -30.60788        0.2925288       -30.60787        0.5274752        111.6203
4.7372                 0.5269185        110.7188         0.287255       -30.94959        0.2872551       -30.94958        0.5269187        110.7188
4.7386                 0.5261794        109.8194        0.2821664       -31.27904        0.2821665       -31.27903        0.5261795        109.8194
4.74                   0.5252607        108.9232        0.2772546       -31.59869        0.2772547       -31.59868        0.5252609        108.9232
4.7414                 0.5241665        108.0313        0.2725102       -31.91084        0.2725103       -31.91083        0.5241666        108.0314
4.7428                 0.5229022        107.1448        0.2679229       -32.21761         0.267923       -32.21761        0.5229023        107.1449
4.7442                 0.5214739        106.2647        0.2634818       -32.52088        0.2634818       -32.52088        0.5214741        106.2647
4.7456                 0.5198894        105.3917        0.2591757       -32.82228        0.2591758       -32.82228        0.5198895        105.3918
4.747                  0.5181567        104.5269        0.2549934       -33.12311        0.2549935       -33.12312        0.5181569        104.5269
4.7484                 0.5162851        103.6707        0.2509239        -33.4244         0.250924       -33.42441        0.5162853        103.6708
4.7498                 0.5142842         102.824        0.2469565       -33.72685        0.2469566       -33.72687        0.5142843         102.824
4.7512                 0.5121639        101.9872        0.2430813       -34.03089        0.2430814        -34.0309        0.5121641        101.9872
4.7526                 0.5099347        101.1606        0.2392893       -34.33661        0.2392894       -34.33663        0.5099349        101.1606
4.754                  0.5076069        100.3445        0.2355722       -34.64393        0.2355723       -34.64395        0.5076071        100.3445
4.7554                 0.5051908          99.539        0.2319232       -34.95248        0.2319232       -34.95251         0.505191        99.53903
4.7568                 0.5026962        98.74409         0.228336       -35.26177        0.2283361        -35.2618        0.5026963        98.74414
4.7582                 0.5001327        97.95974        0.2248062       -35.57114        0.2248062       -35.57117        0.5001328        97.95977
4.7596                 0.4975089        97.18563        0.2213297       -35.87986        0.2213297       -35.87989        0.4975091        97.18565
4.761                  0.4948333        96.42146        0.2179041       -36.18717        0.2179041       -36.18721        0.4948335        96.42149
4.7624                 0.4921128        95.66678        0.2145277       -36.49233        0.2145276       -36.49237         0.492113        95.66681
4.7638                 0.4893537        94.92111        0.2111994       -36.79464        0.2111994       -36.79468        0.4893539        94.92119
4.7652                 0.4865614          94.184        0.2079192       -37.09351        0.2079192       -37.09355        0.4865616        94.18402
4.7666                   0.48374        93.45478        0.2046873       -37.38847        0.2046872       -37.38851        0.4837402         93.4548
4.768                  0.4808929        92.73289        0.2015044       -37.67921        0.2015043       -37.67926        0.4808931        92.73291
4.7694                 0.4780224        92.01773        0.1983713       -37.96562        0.1983712       -37.96565        0.4780226        92.01778
4.7708                 0.4751298        91.30882        0.1952888       -38.24772        0.1952887       -38.24775          0.47513        91.30888
4.7722                  0.472216        90.60561        0.1922576       -38.52578        0.1922575       -38.52581        0.4722161        90.60566
4.7736                 0.4692807        89.90765        0.1892783       -38.80021        0.1892781       -38.80023        0.4692809        89.90768
4.775                  0.4663237        89.21455        0.1863507       -39.07159        0.1863505       -39.07161        0.4663238         89.2146
4.7764                 0.4633439          88.526        0.1834746       -39.34062        0.1834744       -39.34064         0.463344        88.52603
4.7778                 0.4603403        87.84177        0.1806489       -39.60814        0.1806487       -39.60814        0.4603404        87.84179
