! TOUCHSTONE file generated by CST MICROWAVE STUDIO
! Date and time: Sun Dec  1 17:16:53 2024
! Project name: test_tuning.cst
! Parameters = {airCoaxOuterDiameter=3; chamferAngle=45; chamferWidth=24; connectorLength=10; drillingHoleDiameter=4.1; feedLength=60; flareDiameter=130; flareLength=70; gratingDistance=0; gratingGap=1.90274; outletLength=30; polarizerLength=134; probe1Diameter=1.3; probe1Distance=14; probe1Length=12; probe2Diameter=1.3; probe2Distance=0; probe2Length=12; probeLength=12; smaInnerDiameter=1.3; smaOuterDiameter=4.1; transitionCoefficient=1.33; waveguideFeedLength=30; waveguideSide=50; waveguideThickness=3; wireCount=25; wireDiameter=1.17699}
! Header version: 2024
! Port assignment regex: !\s*Touchstone port\s*([0-9]+)\s*=\s*(CST MWS port|CST DES external port|CST DES block port)\s*(.+)\s* \(\"(.*)\"\)(\s*mode\s*([0-9]+))?.*
! Touchstone port assignment:
! Touchstone port 1 = CST MWS port 1 ("Input1")
! Touchstone port 2 = CST MWS port 2 ("Input2")
# GHz S MA R 50
4.6                    0.2243797       -161.9127        0.6032145        67.29004        0.6032145        67.29002        0.2243809       -161.9129
4.6014                 0.2305752       -162.5678        0.6050673        66.44651        0.6050671        66.44651        0.2305764       -162.5681
4.6028                 0.2368587       -163.2132        0.6069112         65.5889        0.6069111         65.5889        0.2368597       -163.2134
4.6042                 0.2432416       -163.8517        0.6087332        64.71611        0.6087331        64.71611        0.2432425        -163.852
4.6056                 0.2497346       -164.4865        0.6105177        63.82725        0.6105178        63.82724        0.2497354       -164.4867
4.607                  0.2563469       -165.1206        0.6122477        62.92158        0.6122477        62.92156        0.2563476       -165.1208
4.6084                 0.2630861       -165.7571        0.6139044        61.99861        0.6139044         61.9986        0.2630868       -165.7574
4.6098                 0.2699582       -166.3993        0.6154678        61.05809        0.6154677        61.05809        0.2699588       -166.3996
4.6112                  0.276967       -167.0502        0.6169173        60.09997        0.6169172        60.09996        0.2769675       -167.0504
4.6126                 0.2841145       -167.7125        0.6182319        59.12445        0.6182317        59.12445        0.2841149       -167.7127
4.614                  0.2914004       -168.3889        0.6193904          58.132        0.6193904        58.13198        0.2914007       -168.3892
4.6154                 0.2988225       -169.0819        0.6203724        57.12328        0.6203724        57.12327        0.2988228       -169.0821
4.6168                 0.3063764       -169.7934        0.6211582        56.09923        0.6211582        56.09922        0.3063767       -169.7936
4.6182                 0.3140558       -170.5254         0.621729        55.06097         0.621729        55.06095         0.314056       -170.5256
4.6196                 0.3218526       -171.2792        0.6220677        54.00984        0.6220677        54.00983        0.3218528       -171.2793
4.621                  0.3297569        -172.056        0.6221593        52.94733        0.6221592        52.94732         0.329757       -172.0561
4.6224                 0.3377571       -172.8566        0.6219906        51.87513        0.6219906        51.87512        0.3377573       -172.8567
4.6238                 0.3458408       -173.6815        0.6215509        50.79505        0.6215508        50.79504        0.3458409       -173.6816
4.6252                 0.3539938       -174.5309         0.620832        49.70902        0.6208319        49.70901         0.353994        -174.531
4.6266                 0.3622016       -175.4048        0.6198285        48.61905        0.6198285        48.61904        0.3622017       -175.4049
4.628                  0.3704485       -176.3028         0.618538        47.52723        0.6185379        47.52722        0.3704487       -176.3029
4.6294                 0.3787187       -177.2244        0.6169606        46.43569        0.6169607        46.43568        0.3787189       -177.2245
4.6308                 0.3869959       -178.1689        0.6150999        45.34657        0.6150998        45.34656        0.3869961       -178.1689
4.6322                 0.3952637       -179.1353        0.6129617        44.26198        0.6129617        44.26198         0.395264       -179.1353
4.6336                 0.4035061        179.8774        0.6105554        43.18405        0.6105553        43.18404        0.4035064        179.8773
4.635                   0.411707        178.8703        0.6078924        42.11477        0.6078924        42.11476        0.4117074        178.8703
4.6364                  0.419851        177.8448        0.6049874        41.05609        0.6049872        41.05608        0.4198514        177.8447
4.6378                 0.4279231         176.802        0.6018567        40.00982        0.6018566        40.00982        0.4279236         176.802
4.6392                 0.4359092        175.7434        0.5985192        38.97764        0.5985192        38.97763        0.4359096        175.7433
4.6406                 0.4437956        174.6703        0.5949957        37.96105        0.5949956        37.96104        0.4437962        174.6703
4.642                    0.45157        173.5841        0.5913083        36.96135        0.5913082        36.96134        0.4515706        173.5841
4.6434                 0.4592206        172.4862        0.5874804        35.97964        0.5874803        35.97964        0.4592212        172.4862
4.6448                 0.4667367        171.3779        0.5835362        35.01678        0.5835361        35.01677        0.4667374        171.3779
4.6462                 0.4741086        170.2605        0.5795005        34.07335        0.5795004        34.07335        0.4741093        170.2605
4.6476                 0.4813276        169.1353         0.575398        33.14969        0.5753979        33.14969        0.4813283        169.1352
4.649                   0.488386        168.0034        0.5712532        32.24584        0.5712532        32.24584        0.4883867        168.0033
4.6504                  0.495277        166.8659        0.5670899        31.36157        0.5670898        31.36156        0.4952777        166.8659
4.6518                 0.5019947         165.724        0.5629305        30.49632        0.5629304        30.49632        0.5019955        165.7239
4.6532                 0.5085343        164.5785        0.5587961        29.64929         0.558796        29.64929        0.5085351        164.5785
4.6546                 0.5148914        163.4305        0.5547059        28.81938        0.5547059        28.81938        0.5148922        163.4304
4.656                  0.5210629        162.2806        0.5506769        28.00525        0.5506769        28.00525        0.5210635        162.2805
4.6574                 0.5270456        161.1297        0.5467236        27.20532        0.5467236        27.20531        0.5270463        161.1296
4.6588                 0.5328376        159.9784        0.5428578        26.41779        0.5428578        26.41779        0.5328383        159.9784
4.6602                  0.538437        158.8274        0.5390884        25.64074        0.5390884        25.64074        0.5384377        158.8273
4.6616                 0.5438424        157.6771        0.5354214        24.87207        0.5354214        24.87207        0.5438431         157.677
4.663                   0.549053         156.528        0.5318597        24.10966        0.5318597        24.10966        0.5490537        156.5279
4.6644                 0.5540678        155.3805        0.5284031         23.3513        0.5284031         23.3513        0.5540683        155.3805
4.6658                 0.5588862         154.235        0.5250487        22.59484        0.5250487        22.59484        0.5588867         154.235
4.6672                 0.5635077        153.0918        0.5217906        21.83817        0.5217906        21.83817        0.5635082        153.0918
4.6686                 0.5679317        151.9512        0.5186206        21.07931        0.5186206         21.0793        0.5679321        151.9511
4.67                   0.5721576        150.8133        0.5155279        20.31641         0.515528        20.31641        0.5721581        150.8133
4.6714                 0.5761851        149.6785        0.5125003        19.54784        0.5125002        19.54784        0.5761855        149.6785
4.6728                 0.5800133         148.547        0.5095231        18.77218        0.5095232        18.77218        0.5800136        148.5469
4.6742                 0.5836417        147.4188        0.5065814        17.98826        0.5065815        17.98826        0.5836419        147.4188
4.6756                 0.5870693        146.2944        0.5036588         17.1952        0.5036588         17.1952        0.5870695        146.2943
4.677                  0.5902955        145.1738        0.5007386        16.39239        0.5007387        16.39238        0.5902957        145.1737
4.6784                 0.5933195        144.0573        0.4978043        15.57951        0.4978043         15.5795        0.5933196        144.0572
4.6798                 0.5961403        142.9451        0.4948394        14.75654        0.4948396        14.75653        0.5961406        142.9451
4.6812                 0.5987575        141.8376        0.4918286        13.92374        0.4918287        13.92373        0.5987577        141.8376
4.6826                 0.6011706         140.735        0.4887574        13.08165        0.4887574        13.08164        0.6011707         140.735
4.684                  0.6033792        139.6376        0.4856125        12.23105        0.4856126        12.23103        0.6033793        139.6376
4.6854                 0.6053831        138.5459        0.4823826        11.37296        0.4823827        11.37294        0.6053833        138.5459
4.6868                 0.6071829        137.4602        0.4790579        10.50861         0.479058        10.50859        0.6071831        137.4602
4.6882                 0.6087794        136.3808        0.4756312        9.639403        0.4756312        9.639384        0.6087795        136.3808
4.6896                 0.6101738        135.3083        0.4720968          8.7669        0.4720968        8.766879        0.6101738        135.3083
4.691                  0.6113679        134.2432        0.4684516        7.892765        0.4684517        7.892742         0.611368        134.2432
4.6924                 0.6123645        133.1858        0.4646948        7.018752        0.4646949        7.018728        0.6123646        133.1858
4.6938                 0.6131665        132.1367        0.4608279        6.146657        0.4608279        6.146631        0.6131666        132.1367
4.6952                 0.6137781        131.0964        0.4568544        5.278288        0.4568545         5.27826        0.6137784        131.0965
4.6966                 0.6142041        130.0654        0.4527802        4.415423        0.4527803        4.415395        0.6142043        130.0655
4.698                  0.6144499        129.0442         0.448613        3.559783        0.4486131        3.559753        0.6144502        129.0443
4.6994                 0.6145219        128.0333        0.4443624        2.712988        0.4443624        2.712958        0.6145223        128.0333
4.7008                 0.6144275         127.033        0.4400394        1.876526        0.4400394        1.876495        0.6144277         127.033
4.7022                 0.6141741        126.0438        0.4356566        1.051722        0.4356565        1.051691        0.6141744        126.0438
4.7036                 0.6137707         125.066        0.4312274       0.2397024        0.4312273       0.2396708         0.613771         125.066
4.705                  0.6132264           124.1        0.4267662      -0.5586286        0.4267661      -0.5586601        0.6132267           124.1
4.7064                 0.6125512        123.1459        0.4222876       -1.342626        0.4222875       -1.342653        0.6125514        123.1459
4.7078                  0.611755        122.2039        0.4178066       -2.111859        0.4178065       -2.111886        0.6117555         122.204
4.7092                 0.6108489        121.2742        0.4133377       -2.866298        0.4133377       -2.866326        0.6108494        121.2742
4.7106                 0.6098436        120.3565        0.4088951        -3.60607         0.408895         -3.6061         0.609844        120.3565
4.712                    0.60875        119.4509        0.4044919       -4.331681        0.4044917        -4.33171        0.6087505        119.4509
4.7134                  0.607579        118.5571        0.4001402       -5.043897          0.40014       -5.043925        0.6075794        118.5571
4.7148                 0.6063412        117.6747        0.3958506       -5.743765        0.3958504       -5.743791        0.6063417        117.6747
4.7162                  0.605047        116.8034         0.391632       -6.432584        0.3916318       -6.432609        0.6050475        116.8034
4.7176                 0.6037059        115.9426        0.3874915       -7.111881        0.3874914       -7.111903        0.6037064        115.9426
4.719                   0.602327        115.0917        0.3834343       -7.783366        0.3834341       -7.783386        0.6023274        115.0917
4.7204                 0.6009183        114.2499        0.3794631       -8.448904        0.3794629       -8.448923        0.6009188        114.2499
4.7218                 0.5994871        113.4165        0.3755788       -9.110456        0.3755786       -9.110474        0.5994876        113.4165
4.7232                 0.5980393        112.5905          0.37178       -9.770029        0.3717797       -9.770046        0.5980398        112.5905
4.7246                 0.5965798         111.771        0.3680631       -10.42963         0.368063       -10.42964        0.5965802         111.771
4.726                   0.595112        110.9571         0.364423       -11.09119        0.3644228        -11.0912        0.5951124        110.9571
4.7274                 0.5936382        110.1478        0.3608524       -11.75655        0.3608522       -11.75656        0.5936386        110.1478
4.7288                 0.5921591        109.3419        0.3573427       -12.42736        0.3573425       -12.42737        0.5921594         109.342
4.7302                 0.5906741        108.5386        0.3538839        -13.1051        0.3538838       -13.10511        0.5906744        108.5386
4.7316                 0.5891815        107.7369        0.3504652       -13.79097        0.3504651       -13.79097        0.5891819        107.7369
4.733                  0.5876781        106.9357         0.347075       -14.48589        0.3470749        -14.4859        0.5876784        106.9357
4.7344                 0.5861595        106.1343        0.3437014       -15.19052        0.3437013       -15.19053        0.5861598        106.1343
4.7358                 0.5846206        105.3318        0.3403325       -15.90515        0.3403324       -15.90516        0.5846209        105.3318
4.7372                 0.5830548        104.5276        0.3369568       -16.62978        0.3369567       -16.62979        0.5830551        104.5276
4.7386                 0.5814553         103.721        0.3335632       -17.36406        0.3335632       -17.36407        0.5814556         103.721
4.74                   0.5798143        102.9116        0.3301418       -18.10734        0.3301418       -18.10735        0.5798146        102.9116
4.7414                 0.5781239        102.0989        0.3266837       -18.85866        0.3266837       -18.85867        0.5781241        102.0989
4.7428                 0.5763758        101.2828        0.3231815       -19.61678        0.3231814       -19.61678        0.5763761        101.2828
4.7442                 0.5745618        100.4632        0.3196291       -20.38019        0.3196291       -20.38019        0.5745621        100.4632
4.7456                 0.5726737        99.63998        0.3160226       -21.14719        0.3160225       -21.14719        0.5726741        99.64001
4.747                  0.5707041        98.81341        0.3123596       -21.91587        0.3123595       -21.91588        0.5707044        98.81344
4.7484                 0.5686457        97.98376        0.3086397       -22.68419        0.3086396        -22.6842         0.568646        97.98378
4.7498                 0.5664922        97.15136        0.3048645       -23.45002        0.3048644       -23.45003        0.5664925        97.15136
4.7512                 0.5642381        96.31675        0.3010375       -24.21117        0.3010374       -24.21118        0.5642384        96.31675
4.7526                 0.5618789        95.48046        0.2971639       -24.96545        0.2971639       -24.96546        0.5618791        95.48049
4.754                  0.5594113        94.64317        0.2932509       -25.71074        0.2932508       -25.71076        0.5594116        94.64317
4.7554                 0.5568333        93.80561         0.289307       -26.44503        0.2893069       -26.44504        0.5568336        93.80561
4.7568                  0.554144         92.9685        0.2853425       -27.16646        0.2853423       -27.16648        0.5541443        92.96852
4.7582                 0.5513439         92.1327        0.2813683       -27.87343        0.2813682       -27.87345        0.5513442         92.1327
4.7596                 0.5484351        91.29896         0.277397       -28.56458        0.2773968        -28.5646        0.5484353        91.29896
4.761                  0.5454204        90.46807        0.2734411       -29.23891        0.2734409       -29.23893        0.5454206        90.46807
4.7624                 0.5423044         89.6408        0.2695139       -29.89579        0.2695137       -29.89581        0.5423047         89.6408
4.7638                 0.5390927        88.81783        0.2656286       -30.53503        0.2656284       -30.53505        0.5390928        88.81783
4.7652                 0.5357917        87.99977         0.261798       -31.15687        0.2617979       -31.15688         0.535792        87.99977
4.7666                 0.5324092        87.18721        0.2580345       -31.76206        0.2580343       -31.76207        0.5324093        87.18721
4.768                  0.5289534        86.38059        0.2543493       -32.35185        0.2543491       -32.35187        0.5289535        86.38059
4.7694                 0.5254332        85.58021        0.2507522       -32.92799         0.250752         -32.928        0.5254334        85.58021
4.7708                 0.5218579        84.78619        0.2472517       -33.49269        0.2472515        -33.4927         0.521858        84.78619
4.7722                 0.5182368        83.99861        0.2438543       -34.04864        0.2438541       -34.04866        0.5182368        83.99858
4.7736                 0.5145794        83.21733        0.2405645       -34.59894        0.2405642       -34.59894        0.5145794        83.21733
4.775                  0.5108947        82.44206        0.2373845       -35.14698        0.2373842       -35.14698        0.5108947        82.44206
4.7764                 0.5071915        81.67236        0.2343144       -35.69647        0.2343141       -35.69647        0.5071914        81.67236
4.7778                 0.5034774        80.90765        0.2313519       -36.25127        0.2313516       -36.25127        0.5034773        80.90765
