! TOUCHSTONE file generated by CST MICROWAVE STUDIO
! Date and time: Sun Dec  1 17:16:57 2024
! Project name: test_tuning.cst
! Parameters = {airCoaxOuterDiameter=3; chamferAngle=45; chamferWidth=24; connectorLength=10; drillingHoleDiameter=4.1; feedLength=60; flareDiameter=130; flareLength=70; gratingDistance=0; gratingGap=1.90274; outletLength=30; polarizerLength=66; probe1Diameter=1.3; probe1Distance=14; probe1Length=12; probe2Diameter=1.3; probe2Distance=0; probe2Length=12; probeLength=12; smaInnerDiameter=1.3; smaOuterDiameter=4.1; transitionCoefficient=1.33; waveguideFeedLength=30; waveguideSide=50; waveguideThickness=3; wireCount=25; wireDiameter=1.17699}
! Header version: 2024
! Port assignment regex: !\s*Touchstone port\s*([0-9]+)\s*=\s*(CST MWS port|CST DES external port|CST DES block port)\s*(.+)\s* \(\"(.*)\"\)(\s*mode\s*([0-9]+))?.*
! Touchstone port assignment:
! Touchstone port 1 = CST MWS port 1 ("Input1")
! Touchstone port 2 = CST MWS port 2 ("Input2")
# GHz S MA R 50
4.6                    0.2235118       -166.7663        0.6534431        65.95008        0.6534426        65.95011        0.2235123       -166.7664
4.6014                 0.2296662       -167.8737        0.6554354        65.11666         0.655435        65.11666        0.2296668       -167.8738
4.6028                 0.2357954       -168.9676        0.6573542        64.27355        0.6573536        64.27358        0.2357959       -168.9677
4.6042                 0.2418968       -170.0492        0.6591945        63.42104        0.6591939        63.42106        0.2418974       -170.0492
4.6056                 0.2479682       -171.1194        0.6609518        62.55932        0.6609513        62.55935        0.2479688       -171.1195
4.607                  0.2540074       -172.1792        0.6626218        61.68864        0.6626214        61.68867         0.254008       -172.1792
4.6084                 0.2600121       -173.2292        0.6642005        60.80925           0.6642        60.80927        0.2600128       -173.2293
4.6098                 0.2659802       -174.2703        0.6656835        59.92139        0.6656831        59.92142        0.2659809       -174.2704
4.6112                 0.2719097       -175.3031        0.6670671        59.02535        0.6670667        59.02538        0.2719104       -175.3032
4.6126                 0.2777984       -176.3282        0.6683477        58.12136        0.6683473        58.12139        0.2777991       -176.3282
4.614                  0.2836444        -177.346        0.6695218        57.20973        0.6695213        57.20976        0.2836451       -177.3461
4.6154                 0.2894456       -178.3572        0.6705859        56.29072        0.6705855        56.29076        0.2894464       -178.3572
4.6168                 0.2952003        -179.362        0.6715371        55.36462        0.6715367        55.36466         0.295201       -179.3621
4.6182                 0.3009064         179.639        0.6723725        54.43172        0.6723721        54.43175        0.3009071        179.6389
4.6196                 0.3065621        178.6454        0.6730893         53.4923        0.6730889        53.49232        0.3065628        178.6453
4.621                  0.3121656         177.657         0.673685        52.54665        0.6736846        52.54669        0.3121664        177.6569
4.6224                 0.3177151        176.6734        0.6741574        51.59507         0.674157        51.59511        0.3177159        176.6733
4.6238                 0.3232089        175.6943        0.6745042        50.63786         0.674504         50.6379        0.3232097        175.6943
4.6252                 0.3286453        174.7195        0.6747237         49.6753        0.6747234        49.67535        0.3286461        174.7195
4.6266                 0.3340224        173.7487        0.6748141        48.70771        0.6748139        48.70776        0.3340233        173.7486
4.628                  0.3393388        172.7816        0.6747741        47.73538        0.6747738        47.73542        0.3393396        172.7816
4.6294                 0.3445927        171.8181        0.6746021         46.7586        0.6746019        46.75864        0.3445936        171.8181
4.6308                 0.3497826         170.858        0.6742974        45.77767        0.6742971        45.77772        0.3497834        170.8579
4.6322                 0.3549067         169.901        0.6738588         44.7929        0.6738586        44.79294        0.3549076        169.9009
4.6336                 0.3599637        168.9469        0.6732857        43.80457        0.6732856        43.80461        0.3599645        168.9469
4.635                  0.3649518        167.9957        0.6725778        42.81298        0.6725776        42.81303        0.3649526        167.9957
4.6364                 0.3698696        167.0472        0.6717346        41.81843        0.6717345        41.81848        0.3698705        167.0471
4.6378                 0.3747156        166.1012        0.6707562        40.82121         0.670756        40.82126        0.3747165        166.1011
4.6392                 0.3794883        165.1575        0.6696425        39.82163        0.6696424        39.82166        0.3794891        165.1575
4.6406                 0.3841861        164.2161        0.6683939        38.81995        0.6683939        38.81999         0.384187        164.2161
4.642                  0.3888077        163.2769         0.667011        37.81647        0.6670109        37.81652        0.3888085        163.2768
4.6434                 0.3933515        162.3396        0.6654943         36.8115        0.6654943        36.81154        0.3933523        162.3396
4.6448                 0.3978161        161.4043        0.6638447        35.80529        0.6638446        35.80534         0.397817        161.4043
4.6462                 0.4022001        160.4708        0.6620632        34.79816        0.6620631         34.7982         0.402201        160.4707
4.6476                 0.4065021         159.539        0.6601511        33.79036         0.660151         33.7904        0.4065029         159.539
4.649                  0.4107206        158.6089        0.6581094         32.7822        0.6581096        32.78223        0.4107214        158.6088
4.6504                 0.4148542        157.6803        0.6559402        31.77393        0.6559403        31.77397         0.414855        157.6802
4.6518                 0.4189015        156.7532         0.653645        30.76584         0.653645        30.76588        0.4189024        156.7532
4.6532                 0.4228612        155.8275        0.6512253        29.75821        0.6512254        29.75825        0.4228621        155.8275
4.6546                 0.4267319        154.9032        0.6486835         28.7513        0.6486836        28.75134        0.4267327        154.9032
4.656                  0.4305122        153.9802        0.6460216        27.74538        0.6460217        27.74542        0.4305129        153.9802
4.6574                 0.4342006        153.0585        0.6432418        26.74072         0.643242        26.74076        0.4342014        153.0584
4.6588                  0.437796        152.1379        0.6403468        25.73759         0.640347        25.73762        0.4377968        152.1379
4.6602                 0.4412968        151.2185         0.637339        24.73623        0.6373392        24.73627        0.4412976        151.2185
4.6616                 0.4447018        150.3002        0.6342213        23.73692        0.6342214        23.73695        0.4447025        150.3002
4.663                  0.4480097        149.3831        0.6309962         22.7399        0.6309964        22.73993        0.4480104         149.383
4.6644                  0.451219         148.467        0.6276669        21.74543        0.6276671        21.74546        0.4512197        148.4669
4.6658                 0.4543286        147.5519        0.6242364        20.75375        0.6242365        20.75378        0.4543294        147.5519
4.6672                 0.4573372        146.6379        0.6207077        19.76511        0.6207079        19.76514        0.4573379        146.6379
4.6686                 0.4602434        145.7249        0.6170844        18.77975        0.6170846        18.77978        0.4602442        145.7249
4.67                    0.463046         144.813        0.6133697        17.79791        0.6133699        17.79794        0.4630468        144.8129
4.6714                 0.4657438        143.9021        0.6095672        16.81982        0.6095673        16.81984        0.4657446         143.902
4.6728                 0.4683357        142.9922        0.6056802         15.8457        0.6056804        15.84572        0.4683364        142.9921
4.6742                 0.4708203        142.0834        0.6017126        14.87578        0.6017128        14.87581         0.470821        142.0833
4.6756                 0.4731965        141.1756        0.5976681        13.91028        0.5976682         13.9103        0.4731972        141.1756
4.677                  0.4754633         140.269        0.5935503        12.94941        0.5935504        12.94943         0.475464        140.2689
4.6784                 0.4776194        139.3634        0.5893631        11.99338        0.5893634         11.9934        0.4776201        139.3634
4.6798                 0.4796639        138.4591        0.5851106        11.04238        0.5851109         11.0424        0.4796646        138.4591
4.6812                 0.4815958         137.556        0.5807967        10.09661        0.5807969        10.09663        0.4815963        137.5559
4.6826                 0.4834139        136.6541        0.5764252        9.156258        0.5764254        9.156272        0.4834146         136.654
4.684                  0.4851175        135.7535        0.5720003        8.221502        0.5720006        8.221515        0.4851181        135.7535
4.6854                 0.4867056        134.8543        0.5675262        7.292511        0.5675264        7.292523        0.4867061        134.8543
4.6868                 0.4881773        133.9566        0.5630067        6.369449        0.5630069        6.369461        0.4881778        133.9565
4.6882                 0.4895318        133.0603        0.5584461        5.452469        0.5584463        5.452478        0.4895324        133.0603
4.6896                 0.4907685        132.1656        0.5538486        4.541712        0.5538488        4.541721        0.4907691        132.1656
4.691                  0.4918867        131.2727        0.5492181        3.637314        0.5492183        3.637321        0.4918872        131.2726
4.6924                 0.4928857        130.3815        0.5445588        2.739394         0.544559          2.7394        0.4928862        130.3814
4.6938                 0.4937649        129.4921        0.5398749        1.848063        0.5398751        1.848068        0.4937654        129.4921
4.6952                  0.494524        128.6048        0.5351704       0.9634193        0.5351706       0.9634231        0.4945245        128.6047
4.6966                 0.4951624        127.7195        0.5304494      0.08554679        0.5304495      0.08554968         0.495163        127.7195
4.698                  0.4956799        126.8364        0.5257159      -0.7854829         0.525716      -0.7854813        0.4956804        126.8363
4.6994                 0.4960761        125.9556        0.5209738       -1.649614        0.5209739       -1.649613        0.4960767        125.9556
4.7008                 0.4963509        125.0772        0.5162271       -2.506804        0.5162272       -2.506804        0.4963514        125.0772
4.7022                 0.4965042        124.2015        0.5114796       -3.357031        0.5114798       -3.357031        0.4965046        124.2014
4.7036                 0.4965359        123.3284        0.5067354        -4.20028        0.5067354        -4.20028        0.4965364        123.3284
4.705                  0.4964461        122.4582        0.5019977       -5.036582        0.5019978       -5.036581        0.4964465        122.4582
4.7064                  0.496235        121.5911        0.4972704       -5.865918        0.4972706       -5.865918        0.4962354         121.591
4.7078                 0.4959028        120.7271        0.4925571       -6.688379        0.4925572       -6.688379        0.4959031         120.727
4.7092                 0.4954497        119.8664        0.4878612       -7.503997        0.4878613       -7.503997        0.4954502        119.8664
4.7106                 0.4948764        119.0092        0.4831859       -8.312878         0.483186       -8.312884        0.4948767        119.0092
4.712                  0.4941832        118.1558        0.4785346       -9.115122        0.4785346       -9.115128        0.4941836        118.1557
4.7134                 0.4933709        117.3062        0.4739102       -9.910854        0.4739102       -9.910861        0.4933712        117.3062
4.7148                 0.4924401        116.4606        0.4693157       -10.70022        0.4693157       -10.70023        0.4924405        116.4606
4.7162                 0.4913916        115.6194        0.4647539       -11.48339         0.464754        -11.4834        0.4913919        115.6194
4.7176                 0.4902265        114.7826        0.4602276       -12.26056        0.4602276       -12.26057        0.4902268        114.7826
4.719                  0.4889456        113.9505        0.4557391       -13.03194        0.4557391       -13.03195        0.4889459        113.9505
4.7204                 0.4875502        113.1232        0.4512909       -13.79777        0.4512909       -13.79778        0.4875505        113.1232
4.7218                 0.4860415        112.3011        0.4468851        -14.5583        0.4468851       -14.55831        0.4860418        112.3011
4.7232                 0.4844209        111.4843        0.4425237       -15.31381        0.4425237       -15.31382        0.4844212        111.4843
4.7246                 0.4826897        110.6731        0.4382087       -16.06462        0.4382086       -16.06463          0.48269        110.6731
4.726                  0.4808496        109.8677        0.4339414       -16.81104        0.4339414       -16.81104        0.4808499        109.8677
4.7274                 0.4789022        109.0684        0.4297236       -17.55341        0.4297235       -17.55342        0.4789025        109.0684
4.7288                 0.4768493        108.2754        0.4255564       -18.29212        0.4255564       -18.29212        0.4768497        108.2754
4.7302                 0.4746929         107.489        0.4214408       -19.02753        0.4214408       -19.02753        0.4746932         107.489
4.7316                 0.4724348        106.7095         0.417378       -19.76006        0.4173778       -19.76007        0.4724351        106.7095
4.733                  0.4700772        105.9371        0.4133683       -20.49013        0.4133683       -20.49014        0.4700775        105.9371
4.7344                 0.4676224        105.1721        0.4094124       -21.21819        0.4094124        -21.2182        0.4676227        105.1721
4.7358                 0.4650725        104.4148        0.4055107       -21.94469        0.4055106       -21.94469        0.4650727        104.4148
4.7372                 0.4624301        103.6655        0.4016631        -22.6701         0.401663        -22.6701        0.4624303        103.6655
4.7386                 0.4596977        102.9245        0.3978696        -23.3949        0.3978694        -23.3949        0.4596979        102.9245
4.74                   0.4568778        102.1921        0.3941298       -24.11959        0.3941297       -24.11959        0.4568781        102.1922
4.7414                 0.4539734        101.4687        0.3904435       -24.84469        0.3904434       -24.84469        0.4539736        101.4687
4.7428                 0.4509871        100.7545        0.3868098        -25.5707        0.3868097        -25.5707        0.4509873        100.7545
4.7442                 0.4479219        100.0499         0.383228       -26.29815        0.3832279       -26.29815        0.4479221        100.0499
4.7456                 0.4447809        99.35511        0.3796971       -27.02756         0.379697       -27.02756        0.4447811        99.35513
4.747                  0.4415672        98.67064         0.376216       -27.75947        0.3762159       -27.75947        0.4415675        98.67067
4.7484                 0.4382841        97.99677        0.3727833       -28.49441        0.3727832       -28.49441        0.4382843        97.99679
4.7498                 0.4349348        97.33382        0.3693975       -29.23292        0.3693975       -29.23291         0.434935        97.33385
4.7512                  0.431523        96.68218        0.3660572       -29.97552        0.3660571        -29.9755        0.4315232        96.68221
4.7526                 0.4280519        96.04218        0.3627605       -30.72274        0.3627605       -30.72272        0.4280521        96.04223
4.754                  0.4245252         95.4142        0.3595057        -31.4751        0.3595057       -31.47508        0.4245254        95.41423
4.7554                 0.4209467         94.7986        0.3562908       -32.23312        0.3562907       -32.23311        0.4209469        94.79865
4.7568                 0.4173201        94.19576        0.3531138       -32.99731        0.3531137        -32.9973        0.4173203        94.19581
4.7582                 0.4136492        93.60605        0.3499723       -33.76818        0.3499723       -33.76816        0.4136494        93.60608
4.7596                 0.4099381         93.0298        0.3468646       -34.54619        0.3468645       -34.54618        0.4099383        93.02986
4.761                  0.4061906        92.46744         0.343788       -35.33184        0.3437879       -35.33183        0.4061909        92.46747
4.7624                  0.402411         91.9193        0.3407404       -36.12559        0.3407403       -36.12557        0.4024112        91.91938
4.7638                 0.3986033        91.38581        0.3377193       -36.92789        0.3377193       -36.92787        0.3986035        91.38583
4.7652                 0.3947717        90.86726        0.3347225       -37.73917        0.3347225       -37.73915        0.3947719        90.86728
4.7666                 0.3909206        90.36402        0.3317475       -38.55985        0.3317475       -38.55983        0.3909208        90.36411
4.768                  0.3870541        89.87652        0.3287919       -39.39034        0.3287919       -39.39032        0.3870544        89.87657
4.7694                 0.3831768        89.40507        0.3258533       -40.23103        0.3258533       -40.23101         0.383177        89.40509
4.7708                  0.379293        88.94996        0.3229293        -41.0823        0.3229293       -41.08227        0.3792931        88.95001
4.7722                  0.375407         88.5116        0.3200176       -41.94449        0.3200176       -41.94446        0.3754073        88.51163
4.7736                 0.3715236        88.09027        0.3171158       -42.81794        0.3171158       -42.81793        0.3715238         88.0903
4.775                  0.3676471        87.68629        0.3142217       -43.70301        0.3142217       -43.70298        0.3676473        87.68631
4.7764                 0.3637821        87.29992        0.3113332       -44.59996        0.3113331       -44.59994        0.3637822        87.29995
4.7778                  0.359933        86.93143        0.3084479       -45.50912        0.3084478        -45.5091        0.3599332        86.93151
