! TOUCHSTONE file generated by CST MICROWAVE STUDIO
! Date and time: Fri Nov 29 14:48:27 2024
! Project name: dual_circularly_polarized_waveguide_antenna.cst
! Parameters = {airCoaxOuterDiameter=3; chamferAngle=45; chamferWidth=24; connectorLength=10; drillingHoleDiameter=4.1; feedLength=105; flareDiameter=130; flareLength=70; gratingDistance=0; gratingGap=1.90274; outletLength=60; polarizerLength=134; probe1Diameter=1.3; probe1Distance=14.068; probe1Length=12.1932; probe2Diameter=1.3; probe2Distance=0; probe2Length=11.967; smaInnerDiameter=1.3; smaOuterDiameter=4.1; transitionCoefficient=1.33; waveguideFeedLength=30; waveguideSide=50; waveguideThickness=3; wireCount=25; wireDiameter=1.17699}
! Header version: 2018
! Port assignment regex: !\s*Touchstone port\s*([0-9]+)\s*=\s*(CST MWS port|CST DS port)\s*([0-9]+|Zmin|Zmax)\s*\(\"(.*)\"\)(\s*mode\s*([0-9]+))?.*
! Touchstone port assignment:
! Touchstone port 1 = CST MWS port 1 ("Input1")
! Touchstone port 2 = CST MWS port 2 ("Input2")
# GHz S MA R 50
4.5                    0.4948956          88.416        0.1500667        159.6598        0.1500668        159.6598        0.5353011        93.52758
4.502                  0.4897999         87.1741        0.1520018        156.0512        0.1520019        156.0512        0.5305873        92.42604
4.504                    0.48364        85.95523        0.1535337        152.6897        0.1535338        152.6897        0.5248272        91.35184
4.506                  0.4763855        84.84765         0.154683        149.7341         0.154683        149.7341         0.518044        90.38135
4.508                  0.4686834         83.9185        0.1558418        147.2359        0.1558418        147.2359        0.5108784        89.56807
4.51                   0.4613981        83.15766         0.157429        145.0968         0.157429        145.0968        0.5041352        88.89711
4.512                  0.4550101        82.48234        0.1595867        143.1294        0.1595867        143.1294        0.4982237        88.29365
4.514                  0.4493271        81.79698        0.1621009        141.1721        0.1621009        141.1721        0.4929165        87.67753
4.516                  0.4437016         81.0614        0.1645674        139.1721        0.1645674        139.1721        0.4875889        87.02018
4.518                  0.4375578        80.31422        0.1666562         137.186        0.1666562         137.186        0.4817272        86.36045
4.52                   0.4308234        79.63824        0.1682916        135.3162        0.1682916        135.3162        0.4753175        85.77061
4.522                  0.4239691        79.09579        0.1696515        133.6337        0.1696515        133.6337         0.468847        85.29965
4.524                  0.4176537        78.68019        0.1710136        132.1329        0.1710136        132.1329        0.4629397        84.93447
4.526                  0.4122412        78.31785        0.1725583        130.7404        0.1725582        130.7404        0.4578984        84.60725
4.528                  0.4075468        77.92139        0.1742591        129.3674        0.1742591        129.3674        0.4534947        84.24437
4.53                   0.4029943        77.45306        0.1759227        127.9655        0.1759228        127.9655        0.4491564        83.81978
4.532                  0.3980517        76.94981         0.177334        126.5493         0.177334        126.5493        0.4443982         83.3717
4.534                   0.392615         76.4935        0.1783965        125.1749        0.1783965        125.1748        0.4391721        82.97237
4.536                  0.3870724        76.14966        0.1791801        123.8965        0.1791801        123.8965        0.4338939        82.67385
4.538                  0.3820142        75.91777        0.1798559        122.7302        0.1798559        122.7302        0.4291345        82.46821
4.54                   0.3778007        75.72874         0.180573        121.6462         0.180573        121.6461        0.4252018        82.29095
4.542                  0.3743018        75.49394        0.1813625        120.5923        0.1813625        120.5923        0.4219189        82.06696
4.544                  0.3710008        75.16934        0.1821314        119.5303        0.1821314        119.5302        0.4187608        81.76464
4.546                  0.3673754        74.78547        0.1827399        118.4582        0.1827399        118.4581        0.4152394         81.4171
4.548                  0.3632685        74.42301        0.1831012        117.4065        0.1831012        117.4065        0.4112493        81.09615
4.55                   0.3589892        74.15327        0.1832354        116.4134        0.1832354        116.4133        0.4071339        80.85949
4.552                  0.3550816        73.98509        0.1832463        115.4977        0.1832463        115.4976        0.4034299        80.70752
4.554                  0.3519264        73.85587        0.1832445        114.6479        0.1832445        114.6479         0.400475        80.58096
4.556                  0.3494631        73.67522        0.1832736        113.8324        0.1832735        113.8323        0.3981618        80.40259
4.558                  0.3472364        73.39003        0.1832888        113.0225        0.1832888        113.0224        0.3960176        80.13264
4.56                    0.344727        73.02105        0.1831986        112.2114        0.1831985        112.2113        0.3935458        79.79584
4.562                  0.3417155        72.64554        0.1829336        111.4162        0.1829336        111.4161        0.3905736        79.46176
4.564                  0.3384261        72.34075        0.1824935        110.6634        0.1824934        110.6633        0.3873634        79.19404
4.566                  0.3353549        72.12777        0.1819417        109.9699        0.1819416        109.9698        0.3844146        79.00403
4.568                  0.3329073        71.95414        0.1813565        109.3316        0.1813564        109.3315        0.3820994        78.84084
4.57                    0.331101        71.73011         0.180776        108.7283        0.1807758        108.7282        0.3803896        78.62696
4.572                  0.3295519        71.39288        0.1801753        108.1392         0.180175        108.1391        0.3788763        78.31359
4.574                  0.3277489        70.95015        0.1794904        107.5574        0.1794901        107.5573        0.3770604        77.91427
4.576                  0.3254086        70.47227        0.1786667         106.994        0.1786664        106.9939        0.3746986         77.4934
4.578                  0.3226606        70.04119         0.177696        106.4692        0.1776957        106.4691        0.3719615        77.11967
4.58                   0.3199418        69.69201        0.1766178         105.997        0.1766174        105.9969        0.3692992        76.81697
4.582                  0.3176752        69.38648        0.1754847        105.5769        0.1754843        105.5769         0.367111        76.54619
4.584                  0.3159593        69.03883        0.1743217        105.1958        0.1743212        105.1957        0.3654518        76.23205
4.586                   0.314491        68.57666        0.1731058        104.8393        0.1731054        104.8393        0.3639862        75.81672
4.588                  0.3127752        67.99153        0.1717832        104.5046        0.1717828        104.5046        0.3622204        75.30003
4.59                   0.3104621        67.34305        0.1703053        104.2037        0.1703049        104.2037        0.3598376        74.73819
4.592                  0.3075714        66.71611        0.1686591        103.9572        0.1686586        103.9571        0.3569003        74.20372
4.594                  0.3044569        66.16184        0.1668682        103.7821        0.1668677        103.7821        0.3537851        73.73489
4.596                   0.301537        65.66134        0.1649662         103.685        0.1649658         103.685        0.3508974        73.30855
4.598                  0.2989797        65.13819        0.1629631        103.6639        0.1629627        103.6639        0.3483644        72.85621
4.6                    0.2965625        64.51323        0.1608307        103.7191        0.1608303        103.7191        0.3459245         72.3134
4.602                  0.2938079        63.76205        0.1585191        103.8659        0.1585187         103.866        0.3430898        71.66687
4.604                  0.2902898        62.93416        0.1559927        104.1389        0.1559924        104.1389        0.3394603        70.96587
4.606                  0.2858939        62.12279        0.1532613        104.5865        0.1532609        104.5866        0.3349671        70.29199
4.608                   0.280857        61.40828        0.1503864        105.2608         0.150386        105.2608        0.3298822        69.70921
4.61                   0.2755667        60.81177        0.1474644        106.2096         0.147464        106.2097        0.3245948        69.22769
4.612                  0.2702586        60.29198        0.1446076        107.4792        0.1446072        107.4793         0.319308        68.80677
4.614                  0.2648265        59.79169        0.1419517        109.1227        0.1419514        109.1228        0.3138743        68.39933
4.616                  0.2588922        59.30502        0.1397006        111.2032        0.1397004        111.2033        0.3078995         68.0079
4.618                  0.2521006        58.91889        0.1381883        113.7735        0.1381882        113.7737        0.3010545        67.71355
4.62                   0.2444529        58.79967        0.1379081        116.8265         0.137908        116.8267        0.2933957        67.65674
4.622                  0.2364708        59.12814        0.1394531        120.2315         0.139453        120.2316        0.2854934         67.9774
4.624                  0.2290867        60.00987        0.1433517        123.7062        0.1433516        123.7063        0.2782821        68.74272
4.626                  0.2233026        61.40534        0.1498592        126.8728        0.1498591        126.8729        0.2727046        69.90141
4.628                   0.219799        63.12858        0.1588264        129.3824        0.1588264        129.3824        0.2693545        71.29732
4.63                   0.2187374        64.92687        0.1697237         131.027        0.1697236        131.0271         0.268334        72.73795
4.632                  0.2198627        66.58309        0.1817903        131.7715        0.1817903        131.7716        0.2693901        74.06651
4.634                  0.2227749        67.96234        0.1942175        131.7138        0.1942175        131.7139        0.2721726        75.18563
4.636                  0.2271231        68.98803         0.206293        131.0224        0.2062929        131.0225        0.2763873        76.03298
4.638                  0.2325971        69.59997        0.2174873        129.8845        0.2174872        129.8846         0.281755        76.55082
4.64                   0.2387942        69.74601        0.2274868        128.4738        0.2274867        128.4739          0.28787        76.68619
4.642                  0.2451417         69.4105        0.2361851        126.9338         0.236185        126.9338        0.2941355        76.41968
4.644                  0.2509819        68.64453        0.2436443        125.3707        0.2436442        125.3708        0.2998712        75.79249
4.646                  0.2557812        67.56554        0.2500372        123.8534         0.250037        123.8535          0.30454        74.90486
4.648                  0.2593264        66.32172        0.2555816        122.4172        0.2555815        122.4172        0.3079469         73.8831
4.65                   0.2617781        65.03954        0.2604846        121.0723        0.2604846        121.0724        0.3102785        72.83252
4.652                  0.2635386        63.78077        0.2649074        119.8151        0.2649073        119.8152        0.3119492        71.80074
4.654                  0.2649994        62.53209        0.2689587        118.6373        0.2689586        118.6373         0.313336        70.77148
4.656                  0.2663183        61.23504        0.2727121        117.5328         0.272712        117.5328        0.3145606        69.69377
4.658                  0.2673625        59.83907        0.2762315        116.4989        0.2762315        116.4989        0.3154563        68.52858
4.66                    0.267849        58.34337        0.2795894        115.5335        0.2795893        115.5335        0.3157305        67.28234
4.662                  0.2675787        56.80103        0.2828655        114.6313        0.2828653        114.6313        0.3152055        66.00623
4.664                  0.2666032        55.28631        0.2861314         113.782        0.2861314         113.782        0.3139729        64.76458
4.666                  0.2652201        53.84748        0.2894319         112.972        0.2894318         112.972        0.3123597        63.59377
4.668                  0.2637991        52.47529        0.2927772        112.1888        0.2927771        112.1888        0.3107338        62.47844
4.67                   0.2625571        51.10857        0.2961542        111.4246        0.2961542        111.4246        0.3092767         61.3617
4.672                  0.2614324         49.6748         0.299549        110.6777        0.2995489        110.6778        0.3078808        60.18365
4.674                  0.2601473        48.13839        0.3029665        109.9496        0.3029664        109.9496        0.3062432        58.92164
4.676                  0.2584124        46.52294         0.306435        109.2406         0.306435        109.2406        0.3040872        57.60449
4.678                  0.2561311         44.8935        0.3099924         108.547        0.3099924         108.547        0.3013592        56.29174
4.68                   0.2534704        43.31238         0.313664        107.8609        0.3136639         107.861        0.2982708        55.03306
4.682                  0.2507563        41.79629        0.3174478        107.1737        0.3174478        107.1737        0.2951618        53.83369
4.684                  0.2482617        40.30303        0.3213182        106.4798        0.3213182        106.4798        0.2922755        52.64897
4.686                  0.2460308        38.75747        0.3252446        105.7789        0.3252445        105.7789           0.2896        51.41343
4.688                  0.2438582        37.10127         0.329213        105.0744         0.329213        105.0744        0.2868845        50.08447
4.69                   0.2414366        35.33037        0.3332367        104.3699        0.3332367        104.3699        0.2838171         48.6702
4.692                  0.2385679        33.49578        0.3373464        103.6652        0.3373463        103.6652        0.2802391         47.2227
4.694                  0.2352959        31.66817        0.3415686        102.9558        0.3415685        102.9558        0.2762514        45.80218
4.696                  0.2318786        29.89002        0.3459067        102.2351        0.3459066        102.2351         0.272147        44.43554
4.698                  0.2286194        28.14486        0.3503377        101.4981        0.3503376        101.4981        0.2682142        43.09602
4.7                    0.2256698        26.36533        0.3548267         100.744        0.3548265         100.744        0.2645449        41.71911
4.702                  0.2229347        24.47594        0.3593503        99.97632        0.3593502        99.97632        0.2609765        40.24449
4.704                  0.2201446          22.442        0.3639115        99.19962        0.3639114        99.19961        0.2572087        38.65607
4.706                  0.2170417        20.29047        0.3685363        98.41587        0.3685362        98.41587        0.2530085        36.99103
4.708                  0.2135525        18.09002        0.3732547        97.62283        0.3732545        97.62283        0.2483661        35.31395
4.71                    0.209836        15.90457        0.3780782        96.81515         0.378078        96.81515        0.2434993        33.67235
4.712                  0.2061826        13.74916        0.3829907        95.98788        0.3829906        95.98788        0.2387087        32.06264
4.714                  0.2028288        11.57625         0.387958        95.13936        0.3879579        95.13938        0.2341787        30.42853
4.716                  0.1998091        9.303468        0.3929496        94.27207        0.3929495        94.27207        0.2298581         28.6957
4.718                  0.1969437        6.865639        0.3979585        93.39049        0.3979583        93.39049        0.2255014        26.81944
4.72                   0.1939681        4.255249        0.4030041        92.49785        0.4030039        92.49788         0.220839        24.81219
4.722                  0.1907122        1.524446        0.4081175        91.59365        0.4081174        91.59365        0.2157584        22.73285
4.724                  0.1872143       -1.250834        0.4133186        90.67382        0.4133184        90.67384        0.2103776        20.64573
4.726                  0.1837003       -4.021497        0.4186001        89.73343        0.4185999        89.73346        0.2049684        18.57484
4.728                  0.1804471       -6.800072        0.4239314        88.76983        0.4239312        88.76983         0.199782        16.48224
4.73                   0.1776151       -9.656699         0.429277        87.78403        0.4292768        87.78403        0.1948896         14.2865
4.732                  0.1751592       -12.67647        0.4346194        86.77991        0.4346192        86.77994         0.190146        11.91118
4.734                  0.1728742       -15.90595        0.4399689        85.76121        0.4399686        85.76124        0.1852972        9.330439
4.736                  0.1705405       -19.32525        0.4453543        84.72885        0.4453541        84.72888        0.1801554        6.580674
4.738                  0.1680735       -22.86235        0.4508017        83.68007        0.4508015         83.6801        0.1747255         3.73183
4.74                   0.1655837       -26.43836        0.4563137        82.61022        0.4563135        82.61025        0.1692074       0.8369204
4.742                  0.1633186       -30.01634        0.4618657        81.51575        0.4618655        81.51578        0.1638773        -2.11021
4.744                  0.1615215       -33.62438        0.4674199        80.39619        0.4674197        80.39619        0.1589253       -5.181884
4.746                  0.1602963       -37.33703        0.4729484        79.25421        0.4729482        79.25424        0.1543539       -8.480633
4.748                  0.1595599       -41.22513        0.4784496        78.09362        0.4784494        78.09365        0.1500002       -12.08214
4.75                    0.159112       -45.30739         0.483946        76.91625        0.4839458        76.91631         0.145665       -15.99545
4.752                  0.1587728       -49.53547        0.4894661        75.72071        0.4894659        75.72073        0.1412579       -20.16537
4.754                  0.1585008       -53.81955        0.4950217         74.5029        0.4950215        74.50293        0.1368712       -24.51307
