! TOUCHSTONE file generated by CST MICROWAVE STUDIO
! Date and time: Fri Nov 29 14:48:27 2024
! Project name: dual_circularly_polarized_waveguide_antenna.cst
! Parameters = {airCoaxOuterDiameter=3; chamferAngle=45; chamferWidth=24; connectorLength=10; drillingHoleDiameter=4.1; feedLength=120; flareDiameter=130; flareLength=70; gratingDistance=0; gratingGap=1.90274; outletLength=60; polarizerLength=134; probe1Diameter=1.3; probe1Distance=14.068; probe1Length=12.1932; probe2Diameter=1.3; probe2Distance=0; probe2Length=11.967; smaInnerDiameter=1.3; smaOuterDiameter=4.1; transitionCoefficient=1.33; waveguideFeedLength=30; waveguideSide=50; waveguideThickness=3; wireCount=25; wireDiameter=1.17699}
! Header version: 2018
! Port assignment regex: !\s*Touchstone port\s*([0-9]+)\s*=\s*(CST MWS port|CST DS port)\s*([0-9]+|Zmin|Zmax)\s*\(\"(.*)\"\)(\s*mode\s*([0-9]+))?.*
! Touchstone port assignment:
! Touchstone port 1 = CST MWS port 1 ("Input1")
! Touchstone port 2 = CST MWS port 2 ("Input2")
# GHz S MA R 50
4.5                    0.4760493        90.51567       0.07804342         104.133       0.07804276        104.1331        0.5179411        95.20618
4.502                  0.4757427        89.86019       0.07800906        105.9771       0.07800881        105.9773        0.5177563        94.62908
4.504                  0.4760188        89.12713       0.07814177        107.7872       0.07814197        107.7875        0.5181555        93.97686
4.506                  0.4762207        88.28302       0.07836467        109.6092       0.07836516        109.6092        0.5184502        93.22014
4.508                  0.4757149         87.3646       0.07869916        111.5118       0.07869969        111.5115        0.5179949        92.39628
4.51                   0.4743174        86.45233       0.07925393         113.522       0.07925426        113.5215        0.5166234        91.58254
4.512                  0.4724116        85.61584       0.08015122        115.5899       0.08015124        115.5893        0.5147536        90.84354
4.514                   0.470684        84.86655       0.08144112        117.6102       0.08144087        117.6096        0.5130991        90.18701
4.516                  0.4696524        84.14868       0.08306577        119.4857       0.08306529        119.4852         0.512176        89.55769
4.518                  0.4693075        83.37727       0.08489992        121.1839       0.08489926        121.1835        0.5119453        88.87516
4.52                   0.4691217        82.49704       0.08683669        122.7445       0.08683585        122.7442        0.5118426        88.08974
4.522                   0.468415        81.51949        0.0888563        124.2376       0.08885533        124.2374        0.5111704         87.2159
4.524                  0.4668161         80.5136       0.09103153        125.7064       0.09103052        125.7065        0.5095722        86.32094
4.526                   0.464506         79.5588       0.09346774        127.1341       0.09346691        127.1343        0.5072664        85.47901
4.528                  0.4620896        78.69141       0.09621982         128.455       0.09621934        128.4554         0.504892        84.72092
4.53                   0.4601812        77.87938       0.09924555        129.6029       0.09924545        129.6032        0.5030678        84.01264
4.532                  0.4589822         77.0435        0.1024289        130.5564        0.1024291        130.5567        0.5019661        83.27819
4.534                  0.4581457        76.11222        0.1056548        131.3508        0.1056551        131.3509        0.5011971        82.45242
4.536                  0.4570216        75.07048        0.1088803        132.0505        0.1088804        132.0503        0.5000839        81.52565
4.538                   0.455102        73.96844        0.1121549        132.7057        0.1121547        132.7055        0.4981276         80.5488
4.54                   0.4523597        72.88651        0.1155761        133.3225        0.1155756        133.3224        0.4953402         79.5979
4.542                  0.4492588        71.88095        0.1192126        133.8648        0.1192119        133.8648        0.4922282        78.72252
4.544                  0.4464355        70.94525        0.1230478        134.2853        0.1230472        134.2854        0.4894427        77.91153
4.546                  0.4442606        70.01323        0.1269852        134.5627        0.1269846        134.5629        0.4873292        77.09971
4.548                  0.4425856        69.00421        0.1309086        134.7177        0.1309083        134.7179        0.4856902        76.21248
4.55                   0.4408485        67.87821        0.1347565           134.8        0.1347563        134.8002        0.4839252         75.2174
4.552                  0.4384611         66.6622         0.138557        134.8567         0.138557         134.857        0.4814446        74.14519
4.554                  0.4352024        65.43041        0.1424014        134.9049        0.1424016        134.9051        0.4780656        73.06769
4.556                  0.4313595        64.25404         0.146375         134.925        0.1463753        134.9251        0.4741262        72.04914
4.558                  0.4275266        63.15281        0.1504905        134.8794        0.1504909        134.8795        0.4702498        71.10207
4.56                    0.424199        62.07983        0.1546727        134.7425        0.1546731        134.7424        0.4669143        70.17737
4.562                  0.4214315        60.95217         0.158804        134.5202        0.1588041        134.5201        0.4641217        69.19687
4.564                  0.4188022        59.70694        0.1627981         134.248        0.1627979        134.2478        0.4613973        68.10665
4.566                  0.4157014        58.34297        0.1666523        133.9691        0.1666518         133.969        0.4581143        66.91286
4.568                  0.4117372        56.91966        0.1704421        133.7092        0.1704412        133.7092        0.4539121        65.67596
4.57                   0.4069848        55.51592        0.1742617        133.4642        0.1742608        133.4643        0.4489247        64.46905
4.572                  0.4019201        54.17652        0.1781513        133.2082        0.1781505        133.2083        0.4436729        63.32795
4.574                  0.3970848        52.87995        0.1820611        132.9172        0.1820606        132.9174        0.4386964        62.22515
4.576                  0.3927041        51.55022        0.1858789        132.5915        0.1858788        132.5917        0.4341683        61.08644
4.578                  0.3885183        50.10706        0.1895039        132.2612         0.189504        132.2614         0.429761        59.84074
4.58                   0.3839436        48.51959        0.1929161         131.973        0.1929163        131.9731        0.4248515        58.46834
4.582                  0.3784425        46.82619        0.1961965        131.7668        0.1961967        131.7668        0.4189192        57.01373
4.584                  0.3718484        45.10887        0.1994841        131.6583        0.1994842        131.6583        0.4118593        55.55657
4.586                  0.3644335        43.44077        0.2029004        131.6396        0.2029003        131.6396        0.4040086        54.16064
4.588                   0.356681        41.83978        0.2064989        131.6968        0.2064984        131.6967        0.3958728        52.83373
4.59                   0.3489106        40.25948        0.2102853        131.8329        0.2102845        131.8329        0.3877328        51.52584
4.592                  0.3410116         38.6277        0.2143079        132.0771         0.214307        132.0771        0.3794031        50.17158
4.594                  0.3324757        36.91108        0.2187642        132.4678        0.2187633        132.4681        0.3703196        48.75089
4.596                  0.3227225        35.16305        0.2240478        133.0171        0.2240472        133.0174        0.3599133        47.32793
4.598                  0.3115167        33.52491         0.230682        133.6725        0.2306819        133.6728        0.3480354        46.04299
4.6                    0.2992281        32.17814        0.2391441        134.3059        0.2391445        134.3062        0.3351811        45.06021
4.602                  0.2867876        31.26733        0.2496615         134.743        0.2496623        134.7432        0.3223789        44.49375
4.604                  0.2753456        30.82673        0.2620886         134.821        0.2620895        134.8211        0.3107905         44.3469
4.606                  0.2658035        30.75227        0.2759307        134.4411        0.2759313        134.4411        0.3012324         44.5022
4.608                  0.2584828        30.84765        0.2904863        133.5874        0.2904865        133.5874        0.2939021        44.77793
4.61                   0.2531355        30.92026        0.3050279        132.3136        0.3050276        132.3136        0.2884681        45.01489
4.612                  0.2492538        30.85478        0.3189447        130.7131        0.3189441        130.7131        0.2844199        45.12783
4.614                  0.2464191        30.61373        0.3318177        128.8906         0.331817        128.8907        0.2813882        45.09071
4.616                  0.2444404        30.18263        0.3434312        126.9435        0.3434308        126.9437        0.2792183        44.88393
4.618                  0.2432338        29.51919         0.353745        124.9514        0.3537449        124.9516        0.2777993        44.45778
4.62                   0.2425983        28.55151        0.3628502        122.9738        0.3628506         122.974        0.2768431        43.74416
4.622                   0.242102        27.22316         0.370925        121.0503        0.3709257        121.0505        0.2758234        42.70356
4.624                  0.2411847        25.54314        0.3781929        119.2023        0.3781936        119.2024        0.2741406        41.36535
4.626                  0.2394047        23.59826        0.3848835        117.4352        0.3848842        117.4352        0.2713963        39.82723
4.628                  0.2366538        21.51814        0.3911952        115.7421        0.3911958        115.7421        0.2675841        38.21305
4.63                   0.2331957        19.41359        0.3972653        114.1089        0.3972656        114.1089        0.2630661        36.61273
4.632                  0.2294973         17.3222         0.403161        112.5206        0.4031612        112.5206        0.2583396        35.03829
4.634                  0.2259468         15.1935        0.4088962        110.9667        0.4088962        110.9668        0.2537299         33.4241
4.636                  0.2226304        12.92723        0.4144668        109.4435        0.4144667        109.4436        0.2492044        31.67552
4.638                  0.2193135        10.44297        0.4198875         107.952        0.4198875        107.9521        0.2444298        29.73583
4.64                   0.2156306        7.734128        0.4252092        106.4933        0.4252092        106.4934        0.2390265        27.62536
4.642                  0.2113511        4.871465         0.430506        105.0646         0.430506        105.0647        0.2328419        25.42849
4.644                  0.2065478        1.957617        0.4358422        103.6571        0.4358425        103.6573        0.2260671         23.2391
4.646                  0.2015711      -0.9387316        0.4412412        102.2596        0.4412417        102.2597        0.2191305        21.09733
4.648                   0.196851       -3.830795        0.4466759        100.8623        0.4466765        100.8624         0.212438        18.95596
4.65                   0.1926501       -6.812428        0.4520913        99.46155        0.4520921        99.46162        0.2061282        16.70151
4.652                  0.1889254       -10.00336        0.4574435        98.05999        0.4574443        98.06005        0.2000057        14.22107
4.654                    0.18539       -13.47588        0.4627306        96.66302        0.4627312        96.66308        0.1936963        11.46954
4.656                  0.1817255       -17.21271         0.467996        95.27389        0.4679964        95.27392         0.186911        8.491117
4.658                  0.1778026       -21.12202        0.4733004         93.8902        0.4733007        93.89023        0.1796435        5.383279
4.66                   0.1737773       -25.09554        0.4786822        92.50447        0.4786824        92.50452        0.1721852        2.226825
4.662                  0.1700155       -29.07584        0.4841312        91.10801        0.4841316        91.10806         0.164959      -0.9788624
4.664                  0.1668957       -33.09421        0.4895945         89.6957        0.4895949        89.69578         0.158278       -4.335693
4.666                  0.1646071       -37.25301        0.4950105        88.26854         0.495011        88.26862        0.1521813       -8.002699
4.668                  0.1630671       -41.65873         0.500349        86.83188        0.5003497        86.83196        0.1464542       -12.11199
4.67                   0.1620063       -46.34992        0.5056306        85.39131        0.5056313        85.39139        0.1408103       -16.70188
4.672                  0.1611587       -51.26803        0.5109119         83.9481        0.5109127        83.94818        0.1351071       -21.70937
4.674                   0.160437       -56.28568         0.516247        82.49777        0.5162478        82.49782        0.1294649       -27.02037
4.676                  0.1599954       -61.27104        0.5216492        81.03235        0.5216502        81.03238        0.1242326       -32.54522
4.678                  0.1601546       -66.15199        0.5270807        79.54501        0.5270817        79.54504        0.1198358       -38.27827
4.68                    0.161229       -70.94511        0.5324745        78.03396        0.5324754        78.03396        0.1165923       -44.30341
4.682                  0.1633536       -75.73032        0.5377765        76.50271        0.5377772        76.50271        0.1145999       -50.73267
4.684                  0.1664116       -80.58479        0.5429785        74.95704         0.542979        74.95704        0.1137498       -57.61187
4.686                  0.1701072       -85.52139        0.5481203         73.4006        0.5481208         73.4006        0.1138431       -64.85797
4.688                  0.1741377       -90.47182        0.5532598        71.83177        0.5532603         71.8318        0.1147308       -72.26698
4.69                   0.1783609       -95.31998          0.55843        70.24418        0.5584305         70.2442         0.116406       -79.58314
4.692                  0.1828662       -99.96205        0.5636124        68.63033         0.563613        68.63039        0.1190146       -86.59019
4.694                  0.1879112       -104.3586        0.5687443        66.98588        0.5687451        66.98591        0.1227809       -93.18242
4.696                  0.1937552       -108.5507        0.5737545        65.31171        0.5737555        65.31171         0.127877       -99.37986
4.698                  0.2004838       -112.6289        0.5786045         63.6126        0.5786053         63.6126        0.1342974       -105.2784
4.7                    0.2079357       -116.6748        0.5833069        61.89334        0.5833076        61.89331         0.141816       -110.9663
4.702                  0.2157792       -120.7126        0.5879092        60.15476        0.5879099        60.15473        0.1500635       -116.4629
4.704                  0.2236938       -124.7016        0.5924538         58.3926        0.5924544        58.39257        0.1586881       -121.7131
4.706                  0.2315413       -128.5675        0.5969395        56.59968        0.5969398        56.59965          0.16751       -126.6315
4.708                  0.2394285       -132.2522        0.6013112        54.76982        0.6013115        54.76982        0.1765851       -131.1621
4.71                   0.2476211       -135.7499        0.6054849        52.90144        0.6054851        52.90141        0.1861348       -135.3206
4.712                  0.2563581       -139.1131        0.6093897        50.99769        0.6093898        50.99769        0.1963735       -139.1969
4.714                  0.2656789       -142.4214        0.6130006        49.06379        0.6130008        49.06379         0.207335       -142.9123
4.716                  0.2753747       -145.7361        0.6163399        47.10313        0.6163401        47.10314          0.21881       -146.5608
4.718                  0.2850964       -149.0689        0.6194461        45.11451        0.6194464        45.11451        0.2304392       -150.1706
4.72                   0.2945489       -152.3834        0.6223311        43.09249        0.6223315        43.09249        0.2419022       -153.7074
4.722                  0.3036476       -155.6241        0.6249542        41.03081        0.6249545        41.03081        0.2530821       -157.1122
4.724                  0.3125431       -158.7546        0.6272298        38.92615        0.6272303        38.92615        0.2641063        -160.347
4.726                  0.3214996       -161.7812        0.6290645        36.78014        0.6290648        36.78013        0.2752358        -163.424
4.728                  0.3306993       -164.7498        0.6303977         34.5982        0.6303979        34.59819        0.2866693       -166.4027
4.73                   0.3400976       -167.7183        0.6312212         32.3861        0.6312212        32.38609         0.298383       -169.3566
4.732                  0.3494225       -170.7219        0.6315637        30.14641        0.6315637        30.14641        0.3101135       -172.3332
4.734                  0.3583183       -173.7557        0.6314513        27.87725        0.6314513        27.87727        0.3214925       -175.3323
4.736                  0.3665383        -176.781        0.6308706        25.57407        0.6308706        25.57411        0.3322462       -178.3142
4.738                  0.3740668       -179.7523        0.6297589        23.23335         0.629759        23.23339        0.3423318        178.7711
4.74                   0.3810955         177.355        0.6280281        20.85579        0.6280284        20.85582        0.3519281        175.9506
4.742                  0.3878708        174.5301        0.6256075        18.44687        0.6256078        18.44691        0.3612878        173.2124
4.744                  0.3945062        171.7348         0.622477        16.01457        0.6224774        16.01459        0.3705417        170.5135
4.746                  0.4008815        168.9292        0.6186701        13.56545        0.6186706        13.56546        0.3795822        167.8077
4.748                  0.4066929        166.0973        0.6142456         11.1019        0.6142459        11.10191        0.3881017        165.0745
4.75                   0.4116225        163.2571        0.6092451        8.622049        0.6092454        8.622057        0.3957609        162.3303
4.752                  0.4155162        160.4498        0.6036673        6.122556        0.6036676        6.122562        0.4023768        159.6175
4.754                  0.4184608        157.7162        0.5974729        3.602344        0.5974732        3.602349         0.408013        156.9789
