! TOUCHSTONE file generated by CST MICROWAVE STUDIO
! Date and time: Fri Nov 29 14:48:25 2024
! Project name: dual_circularly_polarized_waveguide_antenna.cst
! Parameters = {airCoaxOuterDiameter=3; chamferAngle=45; chamferWidth=24; connectorLength=10; drillingHoleDiameter=4.1; feedLength=30; flareDiameter=130; flareLength=70; gratingDistance=0; gratingGap=1.90274; outletLength=60; polarizerLength=134; probe1Diameter=1.3; probe1Distance=14.068; probe1Length=12.1932; probe2Diameter=1.3; probe2Distance=0; probe2Length=11.967; smaInnerDiameter=1.3; smaOuterDiameter=4.1; transitionCoefficient=1.33; waveguideFeedLength=30; waveguideSide=50; waveguideThickness=3; wireCount=25; wireDiameter=1.17699}
! Header version: 2018
! Port assignment regex: !\s*Touchstone port\s*([0-9]+)\s*=\s*(CST MWS port|CST DS port)\s*([0-9]+|Zmin|Zmax)\s*\(\"(.*)\"\)(\s*mode\s*([0-9]+))?.*
! Touchstone port assignment:
! Touchstone port 1 = CST MWS port 1 ("Input1")
! Touchstone port 2 = CST MWS port 2 ("Input2")
# GHz S MA R 50
4.5                    0.4201775        83.03931        0.1346345        108.5655         0.134635        108.5655        0.4662491        88.65281
4.502                  0.4204594        82.66891        0.1346729         109.361        0.1346731        109.3608        0.4664564        88.32377
4.504                  0.4212796        82.22451         0.135142        109.8739        0.1351418        109.8736        0.4672098        87.93262
4.506                  0.4220689        81.67254        0.1353943        110.1003        0.1353938        110.1002        0.4679633        87.44682
4.508                  0.4222827        81.04858         0.135023        110.2398        0.1350226        110.2399         0.468173        86.89499
4.51                   0.4217644        80.42933        0.1341243        110.5448        0.1341242         110.545        0.4676625        86.34405
4.512                  0.4208302        79.87957        0.1332089        111.1482        0.1332092        111.1484        0.4667225        85.85272
4.514                  0.4200352        79.40934        0.1328327        111.9692        0.1328332        111.9692        0.4658931        85.43254
4.516                  0.4197869        78.96901         0.133198         112.772        0.1331983        112.7719        0.4655873         85.0416
4.518                  0.4200745        78.48543        0.1340199        113.3438        0.1340199        113.3436        0.4658143        84.61535
4.52                   0.4204949        77.91313        0.1347566         113.647        0.1347563        113.6469        0.4661921        84.11176
4.522                  0.4205461        77.26357        0.1350037        113.8292        0.1350034        113.8292        0.4662256        83.53872
4.524                  0.4199688         76.5942        0.1347627        114.1076        0.1347626        114.1077        0.4656452        82.94582
4.526                  0.4189075        75.96782        0.1344191        114.6183        0.1344195        114.6185        0.4645766        82.38928
4.528                  0.4177955        75.41053        0.1344605        115.3231         0.134461        115.3231        0.4634377        81.89395
4.53                   0.4170501        74.89529        0.1351251         116.038        0.1351255        116.0379        0.4626443        81.43762
4.532                  0.4167903        74.36202        0.1362388        116.5723        0.1362389        116.5721        0.4623269        80.96773
4.534                  0.4167683        73.75999        0.1373581        116.8658        0.1373579        116.8656        0.4622544        80.43846
4.536                  0.4165547         73.0817        0.1380951        117.0195        0.1380948        117.0195        0.4620071        79.84153
4.538                  0.4158354        72.36561        0.1383792        117.2132         0.138379        117.2133        0.4612679         79.2098
4.54                   0.4146162         71.6681        0.1384877        117.5796        0.1384879        117.5798        0.4600302        78.59319
4.542                  0.4132038        71.02513        0.1388392        118.1146        0.1388397        118.1146        0.4585876        78.02463
4.544                  0.4119868        70.42862        0.1396916         118.683         0.139692        118.6828        0.4573232        77.49825
4.546                  0.4111693        69.83312        0.1409616        119.1205        0.1409618        119.1203        0.4564459        76.97457
4.548                  0.4106394        69.18789        0.1422968        119.3533        0.1422967        119.3531        0.4558549        76.40838
4.55                   0.4100575         68.4715        0.1433343        119.4421         0.143334         119.442        0.4552202        75.77961
4.552                  0.4090946        67.70457        0.1439484        119.5306        0.1439481        119.5306        0.4542142         75.1056
4.554                  0.4076504        66.93393        0.1443215        119.7436        0.1443215        119.7437        0.4527302         74.4276
4.556                  0.4059083        66.20018        0.1448042        120.1037        0.1448045        120.1037        0.4509421        73.78209
4.558                  0.4041995        65.51045        0.1456608        120.5189        0.1456612        120.5188        0.4491745        73.17624
4.56                   0.4027718        64.83435        0.1468822        120.8531        0.1468824        120.8528        0.4476752        72.58379
4.562                  0.4016236        64.12532        0.1481999        121.0254        0.1481997        121.0252        0.4464483        71.96358
4.564                  0.4005117        63.35267        0.1492821        121.0644        0.1492816        121.0642        0.4452578        71.28787
4.566                  0.3991228        62.52119        0.1499623        121.0813        0.1499618        121.0812        0.4437938        70.56039
4.568                  0.3972819        61.66618        0.1503408        121.1914        0.1503406        121.1915        0.4418795        69.81218
4.57                   0.3950584        60.82852        0.1507019        121.4381        0.1507019        121.4382        0.4395792        69.07966
4.572                  0.3927051        60.02685        0.1513053        121.7669        0.1513055        121.7668        0.4371401        68.37986
4.574                   0.390475        59.24543        0.1522006        122.0694        0.1522007        122.0693        0.4348129        67.69925
4.576                  0.3884454         58.4452        0.1531949        122.2657        0.1531948        122.2655        0.4326759        67.00339
4.578                  0.3864634        57.59067        0.1539947        122.3619        0.1539942        122.3617        0.4305798        66.26081
4.58                   0.3842496        56.67349        0.1544095        122.4447         0.154409        122.4447        0.4282485        65.46404
4.582                  0.3815788        55.71693        0.1544767        122.6233        0.1544763        122.6234        0.4254579        64.63376
4.584                  0.3784151        54.75934        0.1544256        122.9601        0.1544255        122.9602        0.4221709        63.80424
4.586                  0.3749128        53.82856        0.1545133        123.4356        0.1545134        123.4356        0.4185399        63.00045
4.588                    0.37129        52.92417        0.1548459        123.9723         0.154846        123.9721        0.4147804        62.22226
4.59                   0.3676604        52.01927        0.1553151        124.5008        0.1553149        124.5006        0.4110048        61.44611
4.592                  0.3639394        51.08088        0.1556957        125.0207        0.1556952        125.0206        0.4071293        60.64318
4.594                  0.3598845        50.09493        0.1558312        125.6094        0.1558305        125.6094        0.4029135        59.80169
4.596                  0.3552382        49.07917        0.1557759        126.3781        0.1557754        126.3781        0.3981041        58.93825
4.598                  0.3498748        48.07639        0.1558002        127.4048        0.1557999        127.4049        0.3925804        58.09157
4.6                    0.3438554        47.13359        0.1562614        128.6888        0.1562613        128.6888        0.3864093        57.30378
4.602                  0.3373643        46.28156        0.1574326        130.1562        0.1574326        130.1562        0.3797802        56.60216
4.604                  0.3305766        45.52849        0.1594165        131.7135        0.1594164        131.7133        0.3728727        55.99369
4.606                  0.3235555         44.8725        0.1622078        133.3011        0.1622073         133.301        0.3657553        55.47648
4.608                  0.3162576        44.32479        0.1658449         134.903        0.1658443         134.903        0.3583926        55.06011
4.61                   0.3086501         43.9266        0.1705182        136.5014        0.1705177        136.5015        0.3507636        54.77979
4.612                  0.3008649        43.74544        0.1765278        138.0216        0.1765276        138.0218        0.3430123        54.69202
4.614                  0.2932834        43.84796         0.184104        139.3168        0.1841039        139.3169        0.3355267        54.84994
4.616                  0.2864834         44.2611        0.1932121        140.2158        0.1932121        140.2158        0.3288781        55.27007
4.618                  0.2810565        44.94302        0.2034873        140.5986        0.2034871        140.5985        0.3236364        55.90954
4.62                   0.2773915        45.78501        0.2143423        140.4431        0.2143419        140.4431        0.3201584         56.6709
4.622                  0.2755459        46.64792        0.2251692        139.8184        0.2251687        139.8184        0.3184721        57.43484
4.624                  0.2752823        47.41107         0.235512        138.8407        0.2355115        138.8408        0.3183204        58.10118
4.626                   0.276224        48.00217        0.2451322        137.6267        0.2451318        137.6268        0.3193197        58.61216
4.628                  0.2780192        48.39447        0.2539636        136.2634        0.2539635        136.2635        0.3211192        58.94844
4.63                   0.2804138        48.58359        0.2620106        134.8034        0.2620106        134.8035        0.3234695        59.10868
4.632                  0.2832203        48.56683        0.2692599        133.2781          0.26926        133.2781        0.3261891        59.09195
4.634                  0.2862421        48.33922        0.2756595        131.7162        0.2756593        131.7162        0.3290868        58.89452
4.636                  0.2892323        47.90403        0.2811633        130.1553         0.281163        130.1553        0.3319214        58.51933
4.638                  0.2919264         47.2847        0.2858019        128.6395        0.2858014        128.6395        0.3344328        57.98663
4.64                   0.2941239        46.52609        0.2897174        127.2061        0.2897172        127.2063        0.3364258        57.33532
4.642                  0.2957603         45.6822        0.2931343        125.8719        0.2931343         125.872        0.3378404        56.61232
4.644                  0.2969136        44.79727        0.2962744        124.6273        0.2962746        124.6274        0.3387589        55.85596
4.646                  0.2977386        43.89177        0.2992697         123.445        0.2992699        123.4451        0.3393384        55.08365
4.648                  0.2983658        42.96154        0.3021286         122.298        0.3021287         122.298        0.3397091        54.29123
4.65                   0.2988282        41.99059        0.3047764        121.1746        0.3047764        121.1747        0.3399017        53.46441
4.652                  0.2990592        40.96908         0.307143        120.0833        0.3071428        120.0833        0.3398472        52.59471
4.654                  0.2989593        39.90486        0.3092384        119.0429        0.3092382         119.043        0.3394457        51.68952
4.656                  0.2984811        38.82154        0.3111676        118.0671        0.3111676        118.0672        0.3386526        50.77006
4.658                  0.2976772        37.74542        0.3130778        117.1526         0.313078        117.1528        0.3375248        49.85953
4.66                   0.2966786        36.69009        0.3150737         116.279         0.315074         116.279        0.3361963        48.96939
4.662                  0.2956209        35.64935        0.3171604        115.4201        0.3171607        115.4201        0.3348024        48.09336
4.664                  0.2945675        34.60257        0.3192518        114.5597        0.3192519        114.5597        0.3334022        47.21273
4.666                  0.2934819        33.52962         0.321238        113.6995        0.3212379        113.6995        0.3319542        46.30981
4.668                  0.2922659        32.42439        0.3230651        112.8555        0.3230651        112.8556        0.3303569        45.37999
4.67                   0.2908361        31.29899        0.3247745         112.045        0.3247745         112.045        0.3285284        44.43485
4.672                  0.2891867        30.17511        0.3264755        111.2736        0.3264758        111.2737        0.3264686         43.4941
4.674                  0.2873992        29.06969        0.3282734        110.5306        0.3282738        110.5307        0.3242639        42.57214
4.676                  0.2855917         27.9835        0.3302005        109.7955        0.3302009        109.7956        0.3220343        41.66865
4.678                  0.2838465        26.90084         0.332198        109.0511        0.3321984        109.0511        0.3198579        40.76879
4.68                    0.282161        25.79998        0.3341592        108.2937        0.3341594        108.2937         0.317725         39.8529
4.682                  0.2804576         24.6676        0.3360034        107.5345        0.3360034        107.5345        0.3155519        38.90994
4.684                  0.2786408        23.50706        0.3377298        106.7907        0.3377298        106.7908        0.3132427        37.94422
4.686                  0.2766659        22.33586        0.3394163        106.0731        0.3394165        106.0732        0.3107576        36.97216
4.688                  0.2745693        21.17315        0.3411655        105.3785        0.3411658        105.3786        0.3081404        36.01068
4.69                   0.2724462        20.02695        0.3430348        104.6919        0.3430352         104.692        0.3054907        35.06588
4.692                  0.2703885         18.8886        0.3449994        103.9966        0.3449997        103.9966        0.3028984        34.12835
4.694                  0.2684271        17.73836        0.3469707        103.2847        0.3469709        103.2847        0.3003863        33.17976
4.696                  0.2665156        16.55846        0.3488583        102.5622        0.3488584        102.5622        0.2978994        32.20462
4.698                  0.2645655        15.34456        0.3506303        101.8435        0.3506303        101.8435        0.2953451        31.20039
4.7                    0.2625083        14.10808         0.352333        101.1418         0.352333        101.1418        0.2926583        30.17888
4.702                  0.2603417        12.86806        0.3540579        100.4594         0.354058        100.4594        0.2898454         29.1576
4.704                  0.2581314        11.63815        0.3558786        99.78679        0.3558789        99.78682        0.2869794        28.14782
4.706                  0.2559675        10.41733        0.3578017        99.10905         0.357802        99.10905        0.2841516        27.14671
4.708                  0.2539064        9.190382        0.3597637        98.41569        0.3597639        98.41566        0.2814115         26.1389
4.71                    0.251936        7.937864        0.3616759        97.70751        0.3616759        97.70751        0.2787362        25.10663
4.712                  0.2499873        6.648804        0.3634842        96.99546        0.3634842        96.99546        0.2760492        24.04123
4.714                  0.2479831        5.327537         0.365205        96.29267         0.365205        96.29267        0.2732735        22.94856
4.716                  0.2458904        3.990303        0.3669119        95.60547        0.3669119         95.6055        0.2703839        21.84452
4.718                  0.2437422         2.65409        0.3686847        94.92928        0.3686849        94.92931        0.2674239        20.74403
4.72                   0.2416155        1.325121        0.3705556         94.2519        0.3705558        94.25193        0.2644755        19.65067
4.722                  0.2395814    -0.005466086        0.3724884        93.56176        0.3724886        93.56173        0.2616057        18.55388
4.724                  0.2376594       -1.355918        0.3744047        92.85554        0.3744047        92.85554        0.2588232        17.43565
4.726                  0.2358081       -2.741946        0.3762376        92.14004        0.3762375        92.14004        0.2560753        16.28219
4.728                  0.2339551        -4.16665        0.3779764        91.42713        0.3779763        91.42713        0.2532853        15.09266
4.73                   0.2320466       -5.618932        0.3796724        90.72545        0.3796724        90.72547        0.2504054        13.87917
4.732                  0.2300839       -7.081261         0.381403        90.03468         0.381403        90.03474        0.2474481        12.65817
4.734                  0.2281221       -8.541532        0.3832185        89.34595        0.3832187        89.34595        0.2444778        11.43896
4.736                  0.2262342       -10.00127        0.3851096        88.64784        0.3851097        88.64784        0.2415681        10.21697
4.738                  0.2244649       -11.47477         0.387014        87.93412         0.387014        87.93412        0.2387542        8.976207
4.74                   0.2228027       -12.97986        0.3888607        87.20764        0.3888606        87.20764        0.2360113        7.699386
4.742                   0.221191       -14.52634        0.3906171        86.47793        0.3906169        86.47795        0.2332742        6.378843
4.744                  0.2195674       -16.10986        0.3923106        85.75451        0.3923105        85.75454         0.230482        5.020967
4.746                  0.2179058       -17.71529        0.3940086        85.04044        0.3940086        85.04052        0.2276191        3.641255
4.748                  0.2162338       -19.32688        0.3957724        84.33039        0.3957725        84.33042        0.2247256        2.253364
4.75                    0.214615       -20.93886        0.3976158        83.61416         0.397616        83.61419        0.2218711       0.8593601
4.752                   0.213108       -22.55929        0.3994971        82.88376        0.3994973        82.88376        0.2191091      -0.5524285
4.754                  0.2117299        -24.2049        0.4013486        82.13841        0.4013486        82.13841         0.216444       -2.000446
