! TOUCHSTONE file generated by CST MICROWAVE STUDIO
! Date and time: Sat Nov 30 13:10:56 2024
! Project name: test_tuning.cst
! Parameters = {airCoaxOuterDiameter=3; chamferAngle=45; chamferWidth=24; connectorLength=10; drillingHoleDiameter=4.1; feedLength=60; flareDiameter=130; flareLength=70; gratingDistance=0; gratingGap=1.90274; outletLength=30; polarizerLength=134; probe1Diameter=1.3; probe1Distance=8.5; probe1Length=12; probe2Diameter=1.3; probe2Distance=0; probe2Length=12; probeLength=12; smaInnerDiameter=1.3; smaOuterDiameter=4.1; transitionCoefficient=1.33; waveguideFeedLength=30; waveguideSide=50; waveguideThickness=3; wireCount=25; wireDiameter=1.17699}
! Header version: 2024
! Port assignment regex: !\s*Touchstone port\s*([0-9]+)\s*=\s*(CST MWS port|CST DES external port|CST DES block port)\s*(.+)\s* \(\"(.*)\"\)(\s*mode\s*([0-9]+))?.*
! Touchstone port assignment:
! Touchstone port 1 = CST MWS port 1 ("Input1")
! Touchstone port 2 = CST MWS port 2 ("Input2")
# GHz S MA R 50
4.6                    0.3416415        26.00706        0.5593996        105.3484        0.5593996        105.3484        0.3416404        26.00677
4.6014                 0.3340049        24.75231         0.566333        104.5106         0.566333        104.5105        0.3340037        24.75202
4.6028                 0.3260194        23.39888        0.5736568         103.644        0.5736567        103.6439        0.3260181        23.39859
4.6042                 0.3176313        21.93879        0.5813675        102.7429        0.5813674        102.7428        0.3176298        21.93851
4.6056                 0.3087884        20.36374        0.5894527        101.8018        0.5894525        101.8018        0.3087869        20.36348
4.607                  0.2994421        18.66489        0.5978907        100.8159        0.5978903        100.8158        0.2994405        18.66464
4.6084                  0.289548        16.83236        0.6066508         99.7805        0.6066504        99.78043        0.2895464        16.83212
4.6098                  0.279068        14.85477        0.6156945        98.69178        0.6156942        98.69173        0.2790663        14.85454
4.6112                 0.2679709        12.71846        0.6249758        97.54659        0.6249753        97.54653        0.2679691        12.71825
4.6126                 0.2562344        10.40652        0.6344413        96.34249        0.6344409        96.34243        0.2562326        10.40631
4.614                  0.2438464        7.897365        0.6440329        95.07776        0.6440323        95.07771        0.2438446        7.897166
4.6154                 0.2308068        5.162861         0.653687        93.75146        0.6536864        93.75141        0.2308051        5.162671
4.6168                 0.2171303        2.165496        0.6633369        92.36334        0.6633363         92.3633        0.2171286        2.165311
4.6182                 0.2028493       -1.145676        0.6729136        90.91379        0.6729128        90.91375        0.2028475        -1.14586
4.6196                 0.1880192       -4.841147        0.6823465        89.40385        0.6823457        89.40382        0.1880174       -4.841334
4.621                  0.1727262       -9.020226        0.6915649        87.83505        0.6915643        87.83504        0.1727246       -9.020422
4.6224                 0.1571005        -13.8253        0.7004992        86.20943        0.7004985        86.20941        0.1570989       -13.82551
4.6238                 0.1413374       -19.46355        0.7090812        84.52941        0.7090804        84.52939        0.1413358       -19.46381
4.6252                  0.125735       -26.23857        0.7172453        82.79776        0.7172447        82.79774        0.1257335       -26.23887
4.6266                  0.110758       -34.58892        0.7249295        81.01751        0.7249287         81.0175        0.1107566       -34.58931
4.628                 0.09713905       -45.10659        0.7320753        79.19188        0.7320746        79.19188       0.09713776       -45.10712
4.6294                0.08600681       -58.43024        0.7386293        77.32432        0.7386286        77.32432       0.08600574       -58.43096
4.6308                0.07891377       -74.78242        0.7445426        75.41831        0.7445419        75.41831       0.07891297       -74.78332
4.6322                0.07743504       -93.13776        0.7497718        73.47743         0.749771        73.47744       0.07743461       -93.13877
4.6336                0.08224827       -111.1476         0.754279        71.50528        0.7542783        71.50529       0.08224821       -111.1486
4.635                 0.09265382       -126.7389         0.758032        69.50546        0.7580315        69.50547       0.09265402       -126.7397
4.6364                 0.1072238       -139.3191        0.7610047        67.48156         0.761004        67.48159        0.1072242       -139.3198
4.6378                 0.1246228       -149.3074        0.7631761        65.43712        0.7631755        65.43713        0.1246234        -149.308
4.6392                 0.1438879       -157.3563        0.7645316        63.37556         0.764531        63.37559        0.1438885       -157.3567
4.6406                 0.1643789       -164.0166        0.7650617        61.30032        0.7650613        61.30035        0.1643795        -164.017
4.642                  0.1856694       -169.6857         0.764763         59.2147        0.7647625        59.21472          0.18567        -169.686
4.6434                 0.2074644       -174.6367        0.7636365        57.12188         0.763636        57.12191        0.2074651        -174.637
4.6448                 0.2295494       -179.0566        0.7616886        55.02502        0.7616882        55.02505        0.2295501       -179.0568
4.6462                 0.2517602        176.9253        0.7589305        52.92714        0.7589301        52.92717        0.2517609        176.9251
4.6476                 0.2739651         173.218        0.7553775        50.83118        0.7553772        50.83121        0.2739657        173.2179
4.649                  0.2960547        169.7565        0.7510493        48.73997        0.7510491           48.74        0.2960554        169.7564
4.6504                 0.3179356        166.4934        0.7459691        46.65628        0.7459689        46.65631        0.3179362        166.4933
4.6518                  0.339526        163.3937        0.7401639        44.58276        0.7401638        44.58279        0.3395266        163.3936
4.6532                 0.3607537        160.4309        0.7336636          42.522        0.7336636        42.52204        0.3607542        160.4308
4.6546                 0.3815543        157.5852         0.726501        40.47651         0.726501        40.47654        0.3815548        157.5851
4.656                  0.4018702        154.8411        0.7187117        38.44868        0.7187116        38.44872        0.4018707         154.841
4.6574                 0.4216501        152.1869        0.7103331        36.44087        0.7103331         36.4409        0.4216506        152.1868
4.6588                 0.4408482        149.6132        0.7014047        34.45533        0.7014048        34.45536        0.4408487        149.6132
4.6602                 0.4594242        147.1129         0.691968        32.49424         0.691968        32.49426        0.4594246        147.1129
4.6616                 0.4773431        144.6802        0.6820651        30.55969        0.6820653        30.55972        0.4773435        144.6802
4.663                   0.494575        142.3107          0.67174         28.6537        0.6717401        28.65372        0.4945754        142.3107
4.6644                 0.5110951        140.0009        0.6610366        26.77816        0.6610368        26.77817        0.5110954        140.0008
4.6658                 0.5268834        137.7479        0.6499999        24.93488             0.65         24.9349        0.5268837        137.7479
4.6672                 0.5419248        135.5497        0.6386748        23.12557        0.6386749        23.12559        0.5419252        135.5497
4.6686                 0.5562093        133.4046        0.6271059        21.35179        0.6271061        21.35181        0.5562096        133.4045
4.67                   0.5697313        131.3112        0.6153378        19.61498        0.6153379        19.61499        0.5697316        131.3112
4.6714                 0.5824901        129.2686        0.6034139        17.91641        0.6034141        17.91642        0.5824904        129.2686
4.6728                 0.5944894         127.276        0.5913767         16.2572        0.5913769        16.25721        0.5944896         127.276
4.6742                 0.6057374        125.3329        0.5792676        14.63829        0.5792678        14.63829        0.6057375        125.3328
4.6756                  0.616246        123.4386         0.567126        13.06042        0.5671261        13.06042        0.6162462        123.4386
4.677                  0.6260317        121.5929        0.5549893        11.52411        0.5549894        11.52411        0.6260318        121.5929
4.6784                 0.6351141        119.7953        0.5428931        10.02968        0.5428933        10.02968        0.6351142        119.7953
4.6798                 0.6435166        118.0455        0.5308704        8.577206        0.5308706        8.577202        0.6435166        118.0455
4.6812                 0.6512652        116.3431        0.5189512         7.16654        0.5189513        7.166534        0.6512651        116.3431
4.6826                 0.6583887        114.6877         0.507163         5.79729        0.5071632        5.797283        0.6583887        114.6877
4.684                  0.6649183        113.0786        0.4955301        4.468839        0.4955301        4.468831        0.6649183        113.0786
4.6854                 0.6708866        111.5153        0.4840735        3.180346        0.4840735        3.180337        0.6708867        111.5153
4.6868                  0.676328        109.9971        0.4728112        1.930763        0.4728112        1.930754        0.6763279        109.9971
4.6882                 0.6812772        108.5231        0.4617578       0.7188598        0.4617578         0.71885        0.6812772        108.5231
4.6896                 0.6857699        107.0923        0.4509248      -0.4567534        0.4509248      -0.4567629        0.6857699        107.0923
4.691                  0.6898413        105.7036        0.4403207        -1.59759        0.4403206       -1.597599        0.6898413        105.7036
4.6924                 0.6935259        104.3558        0.4299507       -2.705253        0.4299507       -2.705261         0.693526        104.3558
4.6938                 0.6968578        103.0475        0.4198177       -3.781392        0.4198177       -3.781399        0.6968579        103.0475
4.6952                 0.6998692        101.7772         0.409922       -4.827664        0.4099219       -4.827668        0.6998692        101.7772
4.6966                 0.7025908        100.5434        0.4002614       -5.845686        0.4002613       -5.845688        0.7025909        100.5434
4.698                  0.7050512        99.34427        0.3908324          -6.837        0.3908323       -6.836999        0.7050514        99.34429
4.6994                 0.7072767        98.17822        0.3816295       -7.803038        0.3816294       -7.803038        0.7072769        98.17825
4.7008                 0.7092912        97.04344        0.3726465        -8.74503        0.3726464        -8.74503        0.7092914        97.04347
4.7022                 0.7111157        95.93811        0.3638762       -9.664129        0.3638761        -9.66413        0.7111161        95.93815
4.7036                 0.7127691        94.86045         0.355311       -10.56116        0.3553109       -10.56116        0.7127694         94.8605
4.705                   0.714267         93.8087        0.3469433       -11.43684        0.3469432       -11.43681        0.7142673        93.80876
4.7064                 0.7156228        92.78117        0.3387657       -12.29159        0.3387657       -12.29156        0.7156233        92.78121
4.7078                 0.7168475        91.77622        0.3307715       -13.12563        0.3307714       -13.12563        0.7168479        91.77625
4.7092                 0.7179497         90.7923        0.3229545       -13.93906        0.3229544       -13.93904        0.7179501        90.79234
4.7106                 0.7189359          89.828        0.3153094       -14.73161        0.3153094       -14.73159        0.7189364        89.82803
4.712                  0.7198113        88.88203        0.3078323       -15.50306        0.3078323       -15.50303        0.7198118        88.88203
4.7134                  0.720579        87.95316        0.3005199       -16.25296        0.3005199       -16.25293        0.7205794        87.95318
4.7148                 0.7212413        87.04045        0.2933704        -16.9808        0.2933704       -16.98077        0.7212418        87.04048
4.7162                 0.7217998        86.14301        0.2863829       -17.68609        0.2863829       -17.68606        0.7218004        86.14304
4.7176                 0.7222555        85.26005        0.2795574       -18.36834        0.2795575       -18.36832         0.722256        85.26005
4.719                   0.722609          84.391         0.272895       -19.02717        0.2728951       -19.02714        0.7226095          84.391
4.7204                 0.7228612        83.53531        0.2663973       -19.66232        0.2663973       -19.66229        0.7228617        83.53531
4.7218                  0.723013        82.69267        0.2600662       -20.27376        0.2600663       -20.27374        0.7230135        82.69267
4.7232                 0.7230662        81.86273        0.2539039        -20.8617         0.253904       -20.86168        0.7230667        81.86273
4.7246                  0.723023        81.04533        0.2479128       -21.42663        0.2479129       -21.42661        0.7230235        81.04533
4.726                  0.7228865        80.24028        0.2420945       -21.96938        0.2420946       -21.96937        0.7228869        80.24028
4.7274                 0.7226606        79.44748        0.2364504       -22.49114        0.2364505       -22.49113         0.722661        79.44748
4.7288                 0.7223501        78.66684        0.2309809       -22.99344         0.230981       -22.99344        0.7223504        78.66684
4.7302                 0.7219607        77.89825        0.2256853       -23.47818        0.2256854       -23.47818         0.721961        77.89825
4.7316                 0.7214987        77.14155        0.2205618       -23.94757        0.2205619       -23.94757         0.721499        77.14155
4.733                  0.7209715        76.39662        0.2156071       -24.40412        0.2156072       -24.40413        0.7209717        76.39662
4.7344                 0.7203865        75.66323        0.2108165       -24.85059        0.2108166        -24.8506        0.7203867        75.66323
4.7358                 0.7197518        74.94117        0.2061838       -25.28986        0.2061839       -25.28987         0.719752        74.94117
4.7372                 0.7190755           74.23        0.2017013       -25.72492        0.2017014       -25.72494        0.7190756           74.23
4.7386                 0.7183657        73.52938          0.19736       -26.15875          0.19736       -26.15876        0.7183658        73.52938
4.74                   0.7176302        72.83878        0.1931494       -26.59418        0.1931494        -26.5942        0.7176303        72.83878
4.7414                 0.7168762        72.15762        0.1890583       -27.03387        0.1890582       -27.03389        0.7168763        72.15762
4.7428                 0.7161105        71.48523        0.1850744       -27.48014        0.1850744       -27.48016        0.7161105        71.48526
4.7442                 0.7153384        70.82093        0.1811852       -27.93492        0.1811852       -27.93494        0.7153386        70.82096
4.7456                 0.7145649        70.16393        0.1773777       -28.39967        0.1773776       -28.39968        0.7145651        70.16396
4.747                  0.7137932        69.51345        0.1736391       -28.87528         0.173639       -28.87529        0.7137933        69.51345
4.7484                 0.7130253        68.86863        0.1699571       -29.36207         0.169957       -29.36207        0.7130253        68.86863
4.7498                 0.7122619        68.22864          0.16632       -29.85971        0.1663198        -29.8597         0.712262        68.22867
4.7512                 0.7115023        67.59267        0.1627171       -30.36722        0.1627169       -30.36721        0.7115025         67.5927
4.7526                 0.7107446        66.95991        0.1591392       -30.88298         0.159139       -30.88296        0.7107447        66.95997
4.754                  0.7099852        66.32967        0.1555784       -31.40474        0.1555782       -31.40471        0.7099853        66.32969
4.7554                 0.7092197        65.70122        0.1520286       -31.92961        0.1520285       -31.92956        0.7092199        65.70122
4.7568                 0.7084423        65.07397        0.1484856       -32.45416        0.1484855       -32.45411        0.7084427        65.07402
4.7582                 0.7076468        64.44747        0.1449471       -32.97448        0.1449469       -32.97441        0.7076472        64.44749
4.7596                 0.7068262        63.82129        0.1414127       -33.48618        0.1414126        -33.4861        0.7068266        63.82135
4.761                  0.7059728        63.19524        0.1378842       -33.98457        0.1378841       -33.98448        0.7059732        63.19524
4.7624                  0.705079        62.56908        0.1343653        -34.4647        0.1343652        -34.4646        0.7050794        62.56908
4.7638                 0.7041374        61.94281        0.1308616       -34.92151        0.1308615       -34.92139        0.7041379        61.94281
4.7652                 0.7031406        61.31649        0.1273803       -35.34995        0.1273802       -35.34982        0.7031411        61.31654
4.7666                 0.7020824        60.69041        0.1239302       -35.74514        0.1239301       -35.74499        0.7020829        60.69041
4.768                  0.7009566         60.0648        0.1205214       -36.10254        0.1205214       -36.10238        0.7009571         60.0648
4.7694                 0.6997586        59.44005        0.1171651       -36.41813        0.1171652       -36.41796        0.6997592        59.44005
4.7708                  0.698485        58.81669        0.1138731       -36.68863        0.1138732       -36.68846        0.6984855        58.81667
4.7722                 0.6971334        58.19517        0.1106574        -36.9117        0.1106576       -36.91152        0.6971339        58.19515
4.7736                 0.6957032        57.57611        0.1075301       -37.08614        0.1075303       -37.08595        0.6957037        57.57609
4.775                   0.694195        56.96008        0.1045027       -37.21211        0.1045028       -37.21192        0.6941954        56.96005
4.7764                 0.6926112        56.34766        0.1015855       -37.29129        0.1015857        -37.2911        0.6926116        56.34763
4.7778                 0.6909552        55.73942       0.09878769       -37.32703       0.09878793       -37.32685        0.6909556        55.73937
