! TOUCHSTONE file generated by CST MICROWAVE STUDIO
! Date and time: Sat Nov 30 13:11:01 2024
! Project name: test_tuning.cst
! Parameters = {airCoaxOuterDiameter=3; chamferAngle=45; chamferWidth=24; connectorLength=10; drillingHoleDiameter=4.1; feedLength=60; flareDiameter=130; flareLength=70; gratingDistance=0; gratingGap=1.90274; outletLength=30; polarizerLength=134; probe1Diameter=1.3; probe1Distance=16.5; probe1Length=12; probe2Diameter=1.3; probe2Distance=0; probe2Length=12; probeLength=12; smaInnerDiameter=1.3; smaOuterDiameter=4.1; transitionCoefficient=1.33; waveguideFeedLength=30; waveguideSide=50; waveguideThickness=3; wireCount=25; wireDiameter=1.17699}
! Header version: 2024
! Port assignment regex: !\s*Touchstone port\s*([0-9]+)\s*=\s*(CST MWS port|CST DES external port|CST DES block port)\s*(.+)\s* \(\"(.*)\"\)(\s*mode\s*([0-9]+))?.*
! Touchstone port assignment:
! Touchstone port 1 = CST MWS port 1 ("Input1")
! Touchstone port 2 = CST MWS port 2 ("Input2")
# GHz S MA R 50
4.6                    0.3402883       -171.6754        0.5770137        60.88729        0.5770144        60.88725        0.3402883       -171.6754
4.6014                 0.3449236       -172.1535        0.5775968        60.09402        0.5775975        60.09397        0.3449237       -172.1535
4.6028                 0.3495615       -172.6203        0.5781459        59.29329        0.5781465        59.29325        0.3495615       -172.6204
4.6042                 0.3542183       -173.0763        0.5786552        58.48426        0.5786558         58.4842        0.3542182       -173.0764
4.6056                 0.3589103       -173.5223        0.5791172        57.66609        0.5791177        57.66603        0.3589103       -173.5223
4.607                  0.3636539       -173.9593        0.5795226        56.83807        0.5795231        56.83802        0.3636539       -173.9593
4.6084                 0.3684646        -174.389        0.5798606        55.99962        0.5798609        55.99957        0.3684645        -174.389
4.6098                 0.3733567       -174.8131        0.5801187        55.15029        0.5801189        55.15023        0.3733567       -174.8132
4.6112                 0.3783435       -175.2338        0.5802835        54.28979        0.5802837        54.28974        0.3783434       -175.2338
4.6126                 0.3834363       -175.6533        0.5803407        53.41805         0.580341          53.418        0.3834362       -175.6533
4.614                  0.3886445       -176.0739        0.5802757        52.53516        0.5802759        52.53511        0.3886444       -176.0739
4.6154                 0.3939754       -176.4982        0.5800732        51.64144        0.5800733         51.6414        0.3939753       -176.4982
4.6168                 0.3994339       -176.9286        0.5797182        50.73745        0.5797183        50.73741        0.3994337       -176.9286
4.6182                 0.4050224       -177.3677        0.5791962         49.8239        0.5791964        49.82385        0.4050222       -177.3677
4.6196                 0.4107409       -177.8177        0.5784937        48.90175        0.5784938        48.90171        0.4107407       -177.8177
4.621                  0.4165869        -178.281         0.577598        47.97217        0.5775981        47.97214        0.4165867        -178.281
4.6224                 0.4225555       -178.7595        0.5764977        47.03651        0.5764977        47.03647        0.4225552       -178.7595
4.6238                 0.4286393       -179.2551        0.5751835        46.09628        0.5751835        46.09624         0.428639       -179.2551
4.6252                 0.4348292       -179.7694        0.5736478        45.15316        0.5736478        45.15312        0.4348289       -179.7694
4.6266                 0.4411137        179.6963        0.5718854        44.20899        0.5718854        44.20896        0.4411134        179.6963
4.628                    0.44748        179.1411        0.5698933        43.26571        0.5698933        43.26568        0.4474797        179.1411
4.6294                 0.4539138        178.5641        0.5676709        42.32536         0.567671        42.32533        0.4539136        178.5641
4.6308                 0.4603996        177.9648        0.5652207        41.39005        0.5652208        41.39002        0.4603993        177.9649
4.6322                 0.4669209        177.3432        0.5625475        40.46193        0.5625475        40.46191        0.4669207        177.3432
4.6336                  0.473461        176.6992        0.5596589        39.54316        0.5596589        39.54315        0.4734608        176.6992
4.635                  0.4800025         176.033        0.5565652        38.63591        0.5565651         38.6359        0.4800024         176.033
4.6364                 0.4865283        175.3452        0.5532793        37.74225        0.5532793        37.74223        0.4865282        175.3453
4.6378                 0.4930213        174.6365        0.5498166        36.86421        0.5498167         36.8642        0.4930213        174.6366
4.6392                 0.4994649        173.9077         0.546195        36.00369         0.546195        36.00367        0.4994649        173.9078
4.6406                  0.505843        173.1598        0.5424341        35.16244        0.5424342        35.16242         0.505843        173.1598
4.642                  0.5121405        172.3938        0.5385558        34.34201        0.5385558          34.342        0.5121406        172.3939
4.6434                 0.5183432         171.611        0.5345832        33.54378        0.5345833        33.54376        0.5183432         171.611
4.6448                 0.5244377        170.8125        0.5305408        32.76882        0.5305408        32.76879        0.5244378        170.8125
4.6462                 0.5304123        169.9995        0.5264539        32.01794        0.5264539        32.01792        0.5304125        169.9996
4.6476                 0.5362559        169.1735        0.5223483        31.29166        0.5223483        31.29164        0.5362562        169.1735
4.649                  0.5419592        168.3356        0.5182497        30.59015        0.5182498        30.59013        0.5419595        168.3356
4.6504                 0.5475138        167.4871        0.5141837        29.91322        0.5141837         29.9132        0.5475141        167.4871
4.6518                 0.5529124        166.6291        0.5101746        29.26033        0.5101747        29.26031        0.5529128        166.6292
4.6532                 0.5581495         165.763        0.5062458        28.63056        0.5062459        28.63054        0.5581498         165.763
4.6546                   0.56322        164.8897        0.5024187        28.02263        0.5024187        28.02261        0.5632204        164.8897
4.656                  0.5681203        164.0104        0.4987127        27.43491        0.4987127        27.43488        0.5681208        164.0104
4.6574                 0.5728478        163.1259        0.4951446        26.86542        0.4951446         26.8654        0.5728482        163.1259
4.6588                 0.5774004        162.2372        0.4917285        26.31192        0.4917285        26.31189        0.5774008        162.2372
4.6602                 0.5817772         161.345        0.4884753        25.77188        0.4884752        25.77185        0.5817775         161.345
4.6616                 0.5859773        160.4502        0.4853925        25.24257        0.4853924        25.24255        0.5859776        160.4502
4.663                  0.5900008        159.5533        0.4824843        24.72114        0.4824843        24.72112        0.5900012        159.5533
4.6644                 0.5938481         158.655        0.4797516        24.20463        0.4797515        24.20461        0.5938484        158.6549
4.6658                 0.5975197        157.7556        0.4771914        23.69006        0.4771913        23.69005          0.59752        157.7556
4.6672                 0.6010164        156.8557        0.4747978        23.17453        0.4747977        23.17452        0.6010167        156.8557
4.6686                 0.6043389        155.9557        0.4725617        22.65523        0.4725616        22.65522        0.6043393        155.9557
4.67                   0.6074882        155.0559        0.4704709        22.12952        0.4704708        22.12952        0.6074885        155.0559
4.6714                 0.6104648        154.1565         0.468511        21.59502        0.4685108        21.59502         0.610465        154.1565
4.6728                 0.6132694        153.2579        0.4666652        21.04961        0.4666651        21.04961        0.6132697        153.2579
4.6742                 0.6159025        152.3603        0.4649153        20.49151        0.4649152        20.49151        0.6159027        152.3603
4.6756                 0.6183641        151.4639        0.4632416        19.91926        0.4632415        19.91926        0.6183642        151.4639
4.677                  0.6206544        150.5689        0.4616236        19.33178        0.4616235        19.33179        0.6206545        150.5689
4.6784                 0.6227732        149.6756        0.4600407         18.7284        0.4600407         18.7284        0.6227732        149.6756
4.6798                 0.6247204        148.7842        0.4584723        18.10877        0.4584723        18.10878        0.6247204        148.7842
4.6812                 0.6264954         147.895        0.4568984        17.47295        0.4568984        17.47296        0.6264954         147.895
4.6826                 0.6280983        147.0082        0.4552998        16.82133        0.4552998        16.82134        0.6280983        147.0082
4.684                  0.6295284        146.1242         0.453659        16.15462         0.453659        16.15464        0.6295284        146.1241
4.6854                  0.630786        145.2432        0.4519597        15.47385        0.4519598        15.47387         0.630786        145.2432
4.6868                 0.6318709        144.3657         0.450188        14.78028         0.450188         14.7803        0.6318709        144.3657
4.6882                 0.6327837         143.492        0.4483318        14.07542        0.4483319        14.07544        0.6327835         143.492
4.6896                 0.6335252        142.6226        0.4463815        13.36095        0.4463816        13.36096         0.633525        142.6226
4.691                  0.6340966         141.758        0.4443298        12.63868        0.4443299         12.6387        0.6340965         141.758
4.6924                    0.6345        140.8985         0.442172        11.91056        0.4421722        11.91057        0.6344999        140.8985
4.6938                 0.6347378        140.0448        0.4399059        11.17855        0.4399061        11.17856        0.6347378        140.0448
4.6952                 0.6348134        139.1972        0.4375316        10.44465        0.4375318        10.44466        0.6348132        139.1972
4.6966                 0.6347307        138.3564        0.4350518        9.710846        0.4350521        9.710851        0.6347306        138.3564
4.698                  0.6344943        137.5228        0.4324713         8.97903        0.4324716        8.979032        0.6344942        137.5228
4.6994                   0.63411        136.6969         0.429797        8.251002        0.4297973        8.251001        0.6341099        136.6969
4.7008                 0.6335842        135.8791        0.4270375        7.528422        0.4270377        7.528418        0.6335841        135.8791
4.7022                 0.6329239        135.0698        0.4242031         6.81277        0.4242034        6.812762        0.6329238        135.0698
4.7036                 0.6321368        134.2696        0.4213054        6.105317        0.4213057        6.105305        0.6321368        134.2696
4.705                  0.6312316        133.4786        0.4183571          5.4071        0.4183573        5.407085        0.6312315        133.4786
4.7064                 0.6302173         132.697        0.4153714        4.718899        0.4153717        4.718879        0.6302172        132.6971
4.7078                 0.6291033        131.9252         0.412362        4.041216        0.4123622        4.041193        0.6291032        131.9252
4.7092                 0.6278995        131.1631        0.4093424        3.374266        0.4093427         3.37424        0.6278994        131.1631
4.7106                 0.6266159        130.4108         0.406326         2.71798        0.4063263        2.717953        0.6266159        130.4108
4.712                  0.6252628        129.6681        0.4033255        2.071954        0.4033257        2.071922        0.6252628        129.6681
4.7134                 0.6238501        128.9348        0.4003524        1.435562        0.4003526        1.435528          0.62385        128.9348
4.7148                 0.6223873        128.2107        0.3974173       0.8078687        0.3974174        0.807832        0.6223873        128.2107
4.7162                 0.6208839        127.4952        0.3945289       0.1877031        0.3945291       0.1876649        0.6208839        127.4952
4.7176                 0.6193484        126.7879        0.3916947      -0.4263178        0.3916948      -0.4263573        0.6193484        126.7879
4.719                  0.6177887        126.0881        0.3889197       -1.035755        0.3889198       -1.035795        0.6177888        126.0882
4.7204                 0.6162119        125.3952        0.3862075       -1.642303        0.3862075       -1.642343        0.6162119        125.3952
4.7218                 0.6146235        124.7084        0.3835592       -2.247741        0.3835593       -2.247781        0.6146235        124.7084
4.7232                 0.6130284        124.0267        0.3809742       -2.853888        0.3809743       -2.853927        0.6130285        124.0267
4.7246                   0.61143        123.3493        0.3784499       -3.462546        0.3784498       -3.462585        0.6114301        123.3493
4.726                  0.6098303        122.6754        0.3759815       -4.075455        0.3759814       -4.075492        0.6098304        122.6754
4.7274                   0.60823        122.0038        0.3735628       -4.694238        0.3735628       -4.694272        0.6082302        122.0038
4.7288                 0.6066284        121.3337        0.3711861       -5.320362        0.3711861       -5.320394        0.6066285        121.3337
4.7302                 0.6050235        120.6642        0.3688424       -5.955097        0.3688424       -5.955126        0.6050236        120.6642
4.7316                 0.6034117        119.9942        0.3665217       -6.599482        0.3665216       -6.599508        0.6034118        119.9942
4.733                  0.6017885        119.3231        0.3642134       -7.254295        0.3642132       -7.254319        0.6017886        119.3231
4.7344                 0.6001481          118.65        0.3619063       -7.920046        0.3619062       -7.920068        0.6001483          118.65
4.7358                  0.598484        117.9744        0.3595895       -8.596951        0.3595894        -8.59697         0.598484        117.9744
4.7372                 0.5967883        117.2955        0.3572522       -9.284939        0.3572521       -9.284955        0.5967884        117.2955
4.7386                 0.5950532        116.6129         0.354884       -9.983655        0.3548839       -9.983669        0.5950532        116.6129
4.74                   0.5932698        115.9263        0.3524756       -10.69247        0.3524755       -10.69248        0.5932698        115.9263
4.7414                 0.5914293        115.2355        0.3500185       -11.41049        0.3500184        -11.4105        0.5914294        115.2356
4.7428                 0.5895229        114.5405        0.3475058        -12.1366        0.3475057        -12.1366        0.5895229        114.5405
4.7442                 0.5875417        113.8412        0.3449316       -12.86946        0.3449315       -12.86947        0.5875418        113.8412
4.7456                 0.5854777        113.1379        0.3422921        -13.6076        0.3422921        -13.6076        0.5854777        113.1379
4.747                  0.5833228        112.4308         0.339585       -14.34936         0.339585       -14.34936        0.5833229        112.4309
4.7484                 0.5810702        111.7205        0.3368098       -15.09302        0.3368098       -15.09303        0.5810703        111.7205
4.7498                 0.5787138        111.0073        0.3339678       -15.83681        0.3339678       -15.83681        0.5787138        111.0073
4.7512                 0.5762485        110.2919         0.331062       -16.57891         0.331062       -16.57892        0.5762486        110.2919
4.7526                 0.5736705        109.5751        0.3280973       -17.31759        0.3280973        -17.3176        0.5736706        109.5751
4.754                  0.5709773        108.8576          0.32508       -18.05116          0.32508       -18.05116        0.5709774        108.8576
4.7554                 0.5681676        108.1402        0.3220181       -18.77808        0.3220181       -18.77808        0.5681677        108.1402
4.7568                 0.5652417        107.4237        0.3189206       -19.49697        0.3189207       -19.49698        0.5652418        107.4237
4.7582                 0.5622011         106.709         0.315798       -20.20667         0.315798       -20.20668        0.5622012         106.709
4.7596                 0.5590487        105.9969        0.3126611       -20.90628        0.3126611        -20.9063        0.5590488         105.997
4.761                  0.5557886        105.2882        0.3095216       -21.59521        0.3095217       -21.59523        0.5557888        105.2883
4.7624                 0.5524263        104.5837        0.3063915       -22.27316        0.3063915       -22.27318        0.5524265        104.5837
4.7638                 0.5489683         103.884        0.3032826       -22.94022        0.3032827       -22.94024        0.5489685         103.884
4.7652                  0.545422        103.1897        0.3002066       -23.59682        0.3002066       -23.59684        0.5454221        103.1897
4.7666                 0.5417954        102.5013        0.2971742       -24.24379        0.2971741       -24.24381        0.5417955        102.5013
4.768                  0.5380975        101.8191        0.2941954       -24.88232        0.2941954       -24.88234        0.5380975        101.8191
4.7694                  0.534337        101.1433        0.2912791       -25.51397        0.2912791         -25.514        0.5343371        101.1433
4.7708                 0.5305233         100.474        0.2884326       -26.14067        0.2884326        -26.1407        0.5305234         100.474
4.7722                 0.5266656         99.8111        0.2856616       -26.76461        0.2856615       -26.76464        0.5266656        99.81113
4.7736                 0.5227724        99.15434        0.2829697        -27.3883        0.2829697       -27.38832        0.5227724        99.15439
4.775                  0.5188519        98.50333         0.280359        -28.0144         0.280359       -28.01442        0.5188519        98.50336
4.7764                 0.5149115        97.85748        0.2778293       -28.64577        0.2778293       -28.64579        0.5149115        97.85751
4.7778                 0.5109574        97.21607        0.2753784       -29.28531        0.2753782       -29.28533        0.5109574         97.2161
