! TOUCHSTONE file generated by CST MICROWAVE STUDIO
! Date and time: Sat Nov 30 13:11:03 2024
! Project name: test_tuning.cst
! Parameters = {airCoaxOuterDiameter=3; chamferAngle=45; chamferWidth=24; connectorLength=10; drillingHoleDiameter=4.1; feedLength=60; flareDiameter=130; flareLength=70; gratingDistance=0; gratingGap=1.90274; outletLength=30; polarizerLength=134; probe1Diameter=1.3; probe1Distance=19.5; probe1Length=12; probe2Diameter=1.3; probe2Distance=0; probe2Length=12; probeLength=12; smaInnerDiameter=1.3; smaOuterDiameter=4.1; transitionCoefficient=1.33; waveguideFeedLength=30; waveguideSide=50; waveguideThickness=3; wireCount=25; wireDiameter=1.17699}
! Header version: 2024
! Port assignment regex: !\s*Touchstone port\s*([0-9]+)\s*=\s*(CST MWS port|CST DES external port|CST DES block port)\s*(.+)\s* \(\"(.*)\"\)(\s*mode\s*([0-9]+))?.*
! Touchstone port assignment:
! Touchstone port 1 = CST MWS port 1 ("Input1")
! Touchstone port 2 = CST MWS port 2 ("Input2")
# GHz S MA R 50
4.6                    0.4338948       -177.0513        0.5576017        57.05426        0.5576024        57.05427        0.4338946       -177.0514
4.6014                 0.4382288       -177.5062        0.5574236        56.24679        0.5574242        56.24679        0.4382285       -177.5063
4.6028                 0.4424388       -177.9659        0.5571077        55.43449        0.5571083        55.43448        0.4424385        -177.966
4.6042                 0.4465208       -178.4277        0.5566523        54.61811        0.5566528        54.61809        0.4465205       -178.4278
4.6056                 0.4504746       -178.8886        0.5560561        53.79839        0.5560565        53.79838        0.4504742       -178.8887
4.607                  0.4543039       -179.3459        0.5553184        52.97605        0.5553187        52.97603        0.4543036        -179.346
4.6084                 0.4580166       -179.7969        0.5544389        52.15177        0.5544392        52.15174        0.4580162        -179.797
4.6098                  0.461624        179.7607         0.553418        51.32618        0.5534182        51.32617        0.4616236        179.7606
4.6112                 0.4651412        179.3289         0.552256        50.49995        0.5522562        50.49992        0.4651408        179.3288
4.6126                 0.4685865        178.9094        0.5509534        49.67365        0.5509536        49.67363         0.468586        178.9093
4.614                   0.471981        178.5034        0.5495114        48.84788        0.5495116        48.84785        0.4719806        178.5033
4.6154                 0.4753483        178.1117        0.5479307        48.02322        0.5479308        48.02319        0.4753479        178.1117
4.6168                 0.4787135        177.7347        0.5462122        47.20023        0.5462122        47.20021        0.4787131        177.7347
4.6182                 0.4821028        177.3721        0.5443571        46.37948         0.544357        46.37946        0.4821025         177.372
4.6196                 0.4855431        177.0231        0.5423662        45.56156        0.5423662        45.56155        0.4855428        177.0231
4.621                  0.4890606        176.6866        0.5402407        44.74709        0.5402407        44.74708        0.4890603        176.6866
4.6224                 0.4926805        176.3607        0.5379817         43.9367        0.5379817         43.9367        0.4926803        176.3606
4.6238                 0.4964264        176.0433        0.5355906        43.13106        0.5355906        43.13106        0.4964262        176.0432
4.6252                 0.5003191        175.7317        0.5330688         42.3309        0.5330687         42.3309        0.5003188        175.7317
4.6266                 0.5043763        175.4231         0.530418        41.53699        0.5304179          41.537        0.5043761        175.4231
4.628                  0.5086121        175.1143        0.5276403        40.75018        0.5276403        40.75018        0.5086119        175.1143
4.6294                 0.5130362         174.802        0.5247384        39.97133        0.5247384        39.97135        0.5130361         174.802
4.6308                 0.5176541        174.4827        0.5217156        39.20142        0.5217156        39.20143         0.517654        174.4827
4.6322                 0.5224663        174.1531        0.5185756        38.44145        0.5185756        38.44146        0.5224662        174.1531
4.6336                 0.5274686        173.8099        0.5153231        37.69249        0.5153232        37.69251        0.5274686        173.8099
4.635                  0.5326521        173.4501        0.5119638        36.95567        0.5119639        36.95568        0.5326521        173.4501
4.6364                 0.5380034        173.0708        0.5085042        36.23214        0.5085044        36.23215        0.5380035        173.0708
4.6378                 0.5435049        172.6697        0.5049523        35.52309        0.5049524         35.5231        0.5435049        172.6697
4.6392                  0.549135        172.2447        0.5013166        34.82971        0.5013167        34.82972         0.549135        172.2447
4.6406                 0.5548692        171.7942        0.4976074        34.15321        0.4976076        34.15321        0.5548693        171.7942
4.642                  0.5606802         171.317        0.4938358        33.49474         0.493836        33.49474        0.5606802         171.317
4.6434                 0.5665383        170.8124        0.4900144        32.85543        0.4900146        32.85543        0.5665384        170.8124
4.6448                 0.5724128        170.2802        0.4861568        32.23632         0.486157        32.23631        0.5724129        170.2802
4.6462                 0.5782721        169.7205        0.4822777        31.63834        0.4822779        31.63832        0.5782723        169.7205
4.6476                 0.5840844        169.1339        0.4783928         31.0623         0.478393        31.06228        0.5840846        169.1339
4.649                  0.5898186        168.5213        0.4745188        30.50884        0.4745189        30.50882        0.5898188        168.5213
4.6504                 0.5954442        167.8842        0.4706727        29.97841        0.4706728        29.97838        0.5954444        167.8842
4.6518                 0.6009328        167.2239        0.4668724        29.47122        0.4668725        29.47119        0.6009331        167.2239
4.6532                 0.6062579        166.5424        0.4631356        28.98726        0.4631357        28.98723        0.6062581        166.5424
4.6546                 0.6113952        165.8416        0.4594804        28.52621        0.4594804        28.52618        0.6113954        165.8416
4.656                  0.6163234        165.1237        0.4559241        28.08749        0.4559241        28.08745        0.6163235        165.1237
4.6574                  0.621024         164.391        0.4524837        27.67017        0.4524837        27.67014        0.6210243        164.3909
4.6588                 0.6254823        163.6457        0.4491751        27.27303         0.449175          27.273        0.6254825        163.6457
4.6602                 0.6296861        162.8903        0.4460127        26.89453        0.4460127        26.89449        0.6296863        162.8903
4.6616                 0.6336273         162.127        0.4430098         26.5328        0.4430097        26.53276        0.6336275         162.127
4.663                  0.6373008        161.3582        0.4401772        26.18569         0.440177        26.18566        0.6373009        161.3581
4.6644                 0.6407047         160.586        0.4375239        25.85079        0.4375237        25.85076        0.6407049        160.5859
4.6658                 0.6438406        159.8124        0.4350563        25.52547         0.435056        25.52545        0.6438407        159.8124
4.6672                 0.6467128        159.0396        0.4327782        25.20689        0.4327779        25.20688        0.6467129        159.0395
4.6686                 0.6493282        158.2691        0.4306907        24.89213        0.4306904        24.89212        0.6493284        158.2691
4.67                   0.6516964        157.5026        0.4287921        24.57816        0.4287917        24.57815        0.6516967        157.5026
4.6714                  0.653829        156.7416        0.4270776        24.26196        0.4270773        24.26196        0.6538291        156.7415
4.6728                  0.655739        155.9871        0.4255401        23.94058        0.4255397        23.94059        0.6557393         155.987
4.6742                 0.6574412        155.2401        0.4241693         23.6112         0.424169        23.61122        0.6574413        155.2401
4.6756                 0.6589508        154.5015         0.422953        23.27118        0.4229527         23.2712         0.658951        154.5015
4.677                  0.6602843        153.7717        0.4218764        22.91811        0.4218762        22.91813        0.6602844        153.7716
4.6784                 0.6614572         153.051         0.420923         22.5499        0.4209228        22.54993        0.6614575         153.051
4.6798                  0.662486        152.3395        0.4200746        22.16477        0.4200745         22.1648        0.6624862        152.3395
4.6812                 0.6633857        151.6372        0.4193122         21.7613        0.4193121        21.76134        0.6633859        151.6372
4.6826                 0.6641705        150.9438        0.4186156        21.33848        0.4186155        21.33852        0.6641708        150.9438
4.684                  0.6648536        150.2589        0.4179645        20.89566        0.4179644        20.89569         0.664854        150.2589
4.6854                 0.6654467        149.5819        0.4173387        20.43259        0.4173387        20.43262         0.665447        149.5819
4.6868                 0.6659595        148.9122        0.4167183         19.9494        0.4167184        19.94943        0.6659597        148.9122
4.6882                 0.6663999        148.2491        0.4160846        19.44659        0.4160846        19.44662        0.6664003        148.2491
4.6896                 0.6667744        147.5917        0.4154195        18.92499        0.4154197        18.92502        0.6667746        147.5917
4.691                  0.6670867        146.9393        0.4147071        18.38574        0.4147072        18.38577         0.667087        146.9393
4.6924                 0.6673394        146.2911        0.4139326        17.83026        0.4139328        17.83028        0.6673398        146.2911
4.6938                 0.6675331        145.6464        0.4130838        17.26018         0.413084         17.2602        0.6675335        145.6464
4.6952                 0.6676665        145.0045        0.4121503        16.67734        0.4121505        16.67735        0.6676669        145.0044
4.6966                 0.6677371        144.3647        0.4111242        16.08372        0.4111244        16.08373        0.6677374        144.3646
4.698                  0.6677411        143.7266        0.4099999         15.4814        0.4100001         15.4814        0.6677414        143.7265
4.6994                 0.6676736        143.0897        0.4087743        14.87252        0.4087745        14.87251        0.6676741        143.0897
4.7008                 0.6675296        142.4539        0.4074466        14.25922        0.4074468        14.25921        0.6675299        142.4539
4.7022                 0.6673031         141.819        0.4060185        13.64363        0.4060187        13.64361        0.6673035         141.819
4.7036                 0.6669885         141.185        0.4044939        13.02778         0.404494        13.02775        0.6669888         141.185
4.705                  0.6665801         140.552        0.4028786        12.41359        0.4028787        12.41356        0.6665804         140.552
4.7064                 0.6660731        139.9203        0.4011805        11.80283        0.4011806         11.8028        0.6660735        139.9203
4.7078                 0.6654632        139.2903        0.3994089        11.19709         0.399409        11.19705        0.6654635        139.2903
4.7092                  0.664747        138.6624        0.3975747         10.5977        0.3975748        10.59766        0.6647475        138.6624
4.7106                 0.6639228        138.0371        0.3956899        10.00575        0.3956899        10.00572        0.6639233        138.0371
4.712                    0.66299         137.415         0.393767        9.422093        0.3937669        9.422067        0.6629903         137.415
4.7134                 0.6619491        136.7968        0.3918192        8.847234        0.3918191        8.847207        0.6619494        136.7968
4.7148                 0.6608023        136.1831        0.3898597         8.28138        0.3898595        8.281325        0.6608027        136.1831
4.7162                 0.6595535        135.5744        0.3879013        7.724435        0.3879011        7.724381        0.6595537        135.5744
4.7176                 0.6582079        134.9715        0.3859565        7.175982        0.3859563        7.175949         0.658208        134.9714
4.719                  0.6567717        134.3747        0.3840367        6.635342        0.3840365        6.635311        0.6567718        134.3747
4.7204                 0.6552527        133.7846        0.3821522        6.101516        0.3821519        6.101489        0.6552529        133.7846
4.7218                 0.6536594        133.2015        0.3803117        5.573266        0.3803114        5.573243        0.6536596        133.2015
4.7232                 0.6520013        132.6256        0.3785224        5.049136        0.3785221        5.049119        0.6520014        132.6256
4.7246                 0.6502882        132.0571        0.3767895        4.527496        0.3767891        4.527484        0.6502883        132.0571
4.726                  0.6485302        131.4958        0.3751162        4.006585        0.3751159        4.006579        0.6485303        131.4958
4.7274                 0.6467373        130.9417        0.3735039        3.484566        0.3735035        3.484565        0.6467374        130.9417
4.7288                 0.6449194        130.3944        0.3719516        2.959577        0.3719512        2.959582        0.6449194        130.3944
4.7302                 0.6430851        129.8534        0.3704565        2.429788        0.3704562        2.429799        0.6430851        129.8534
4.7316                 0.6412427        129.3181         0.369014        1.893455        0.3690137         1.89347        0.6412428        129.3181
4.733                  0.6393992        128.7878        0.3676177        1.348963        0.3676174        1.348984        0.6393992        128.7878
4.7344                 0.6375599        128.2617        0.3662597       0.7948815        0.3662594       0.7949064          0.63756        128.2617
4.7358                 0.6357288         127.739        0.3649307       0.2299951        0.3649305       0.2300236        0.6357288         127.739
4.7372                  0.633908        127.2185        0.3636209      -0.3466606        0.3636206      -0.3466289        0.6339081        127.2185
4.7386                 0.6320981        126.6993        0.3623193      -0.9357773        0.3623191      -0.9357426        0.6320982        126.6993
4.74                   0.6302975        126.1804         0.361015       -1.537758        0.3610148       -1.537722        0.6302976        126.1804
4.7414                  0.628503        125.6609        0.3596968       -2.152714        0.3596967       -2.152677        0.6285031        125.6609
4.7428                 0.6267095        125.1397        0.3583541       -2.780462        0.3583539       -2.780422        0.6267097        125.1397
4.7442                 0.6249108        124.6161        0.3569765       -3.420536        0.3569764       -3.420498        0.6249109        124.6161
4.7456                 0.6230985        124.0893        0.3555549        -4.07221        0.3555548       -4.072172        0.6230987        124.0893
4.747                  0.6212637        123.5586        0.3540812       -4.734513        0.3540812       -4.734476        0.6212638        123.5586
4.7484                 0.6193961        123.0236        0.3525486       -5.406268        0.3525486       -5.406232        0.6193963        123.0236
4.7498                 0.6174853        122.4839        0.3509519       -6.086117        0.3509518       -6.086083        0.6174854        122.4839
4.7512                 0.6155198        121.9394        0.3492875        -6.77257        0.3492875       -6.772536        0.6155199        121.9394
4.7526                 0.6134886        121.3901        0.3475536       -7.464034        0.3475537       -7.464002        0.6134889        121.3901
4.754                  0.6113811         120.836        0.3457504       -8.158873        0.3457504       -8.158843        0.6113813        120.8361
4.7554                 0.6091868        120.2777        0.3438795       -8.855439        0.3438795       -8.855413        0.6091871        120.2777
4.7568                 0.6068965        119.7155        0.3419447       -9.552128        0.3419447       -9.552103        0.6068969        119.7155
4.7582                 0.6045019        119.1502        0.3399512       -10.24742        0.3399512        -10.2474        0.6045022        119.1502
4.7596                 0.6019961        118.5824        0.3379057       -10.93993        0.3379057       -10.93991        0.6019965        118.5824
4.761                  0.5993739         118.013        0.3358164       -11.62845        0.3358164       -11.62843        0.5993743         118.013
4.7624                 0.5966317         117.443        0.3336927       -12.31199        0.3336926       -12.31197        0.5966321         117.443
4.7638                 0.5937677        116.8734        0.3315446       -12.98981        0.3315446       -12.98979        0.5937681        116.8734
4.7652                 0.5907819        116.3053         0.329383       -13.66146         0.329383       -13.66145        0.5907822        116.3053
4.7666                 0.5876762        115.7397        0.3272191       -14.32681        0.3272191        -14.3268        0.5876765        115.7397
4.768                  0.5844543        115.1775        0.3250639       -14.98606        0.3250639       -14.98604        0.5844547        115.1775
4.7694                 0.5811217        114.6199        0.3229284       -15.63975        0.3229283       -15.63973        0.5811221        114.6199
4.7708                 0.5776852        114.0676        0.3208227       -16.28876        0.3208226       -16.28874        0.5776856        114.0676
4.7722                 0.5741531        113.5214        0.3187561       -16.93432        0.3187561        -16.9343        0.5741534        113.5214
4.7736                 0.5705344         112.982        0.3167368       -17.57799        0.3167369       -17.57796        0.5705348         112.982
4.775                  0.5668394        112.4498        0.3147715       -18.22158        0.3147715       -18.22156        0.5668399        112.4498
4.7764                 0.5630787        111.9252        0.3128651       -18.86719        0.3128651       -18.86717        0.5630791        111.9252
4.7778                 0.5592626        111.4083        0.3110208       -19.51711        0.3110209       -19.51709         0.559263        111.4083
