! TOUCHSTONE file generated by CST MICROWAVE STUDIO
! Date and time: Sat Nov 30 13:11:02 2024
! Project name: test_tuning.cst
! Parameters = {airCoaxOuterDiameter=3; chamferAngle=45; chamferWidth=24; connectorLength=10; drillingHoleDiameter=4.1; feedLength=60; flareDiameter=130; flareLength=70; gratingDistance=0; gratingGap=1.90274; outletLength=30; polarizerLength=134; probe1Diameter=1.3; probe1Distance=19; probe1Length=12; probe2Diameter=1.3; probe2Distance=0; probe2Length=12; probeLength=12; smaInnerDiameter=1.3; smaOuterDiameter=4.1; transitionCoefficient=1.33; waveguideFeedLength=30; waveguideSide=50; waveguideThickness=3; wireCount=25; wireDiameter=1.17699}
! Header version: 2024
! Port assignment regex: !\s*Touchstone port\s*([0-9]+)\s*=\s*(CST MWS port|CST DES external port|CST DES block port)\s*(.+)\s* \(\"(.*)\"\)(\s*mode\s*([0-9]+))?.*
! Touchstone port assignment:
! Touchstone port 1 = CST MWS port 1 ("Input1")
! Touchstone port 2 = CST MWS port 2 ("Input2")
# GHz S MA R 50
4.6                    0.4216106       -176.4693        0.5606593        57.41076        0.5606611        57.41092        0.4216086       -176.4695
4.6014                  0.425751       -176.9384        0.5604255         56.5973        0.5604274        56.59747        0.4257489       -176.9386
4.6028                 0.4297753       -177.4047        0.5600598        55.78152        0.5600615        55.78168        0.4297733       -177.4049
4.6042                 0.4336898       -177.8659        0.5595639        54.96402        0.5595658        54.96416        0.4336877       -177.8661
4.6056                 0.4375036       -178.3196        0.5589408        54.14531        0.5589427        54.14544        0.4375015       -178.3198
4.607                  0.4412294        -178.764         0.558193        53.32582        0.5581949        53.32594        0.4412273       -178.7642
4.6084                 0.4448824       -179.1975        0.5573232        52.50592        0.5573251        52.50603        0.4448803       -179.1976
4.6098                 0.4484804       -179.6186        0.5563337         51.6859        0.5563356          51.686        0.4484782       -179.6187
4.6112                 0.4520431        179.9733        0.5552267        50.86599        0.5552286        50.86607         0.452041        179.9733
4.6126                 0.4555922        179.5788        0.5540038        50.04637        0.5540058        50.04643        0.4555901        179.5787
4.614                  0.4591502        179.1977        0.5526662        49.22721        0.5526682        49.22726        0.4591481        179.1977
4.6154                 0.4627402        178.8297        0.5512145        48.40865        0.5512164        48.40869        0.4627382        178.8296
4.6168                 0.4663855        178.4737        0.5496485        47.59084        0.5496504        47.59086        0.4663836        178.4737
4.6182                 0.4701088        178.1284        0.5479676        46.77395        0.5479695        46.77395        0.4701069        178.1284
4.6196                  0.473931         177.792        0.5461707        45.95819        0.5461725        45.95819        0.4739293        177.7921
4.621                   0.477872        177.4625        0.5442561        45.14384        0.5442579        45.14381        0.4778704        177.4625
4.6224                 0.4819488        177.1372        0.5422219        44.33121        0.5422235        44.33118        0.4819473        177.1373
4.6238                 0.4861758        176.8135        0.5400657        43.52077        0.5400673        43.52072        0.4861744        176.8136
4.6252                 0.4905641        176.4886        0.5377854        42.71302        0.5377869        42.71295         0.490563        176.4887
4.6266                 0.4951215        176.1594        0.5353788         41.9086        0.5353802        41.90851        0.4951204        176.1595
4.628                  0.4998514        175.8228         0.532844        41.10826        0.5328453        41.10816        0.4998506        175.8229
4.6294                  0.504754         175.476        0.5301797        40.31287        0.5301809        40.31277        0.5047532        175.4761
4.6308                 0.5098251        175.1161        0.5273853        39.52343        0.5273863        39.52332        0.5098245        175.1162
4.6322                 0.5150567        174.7403         0.524461        38.74105         0.524462        38.74093        0.5150562        174.7404
4.6336                 0.5204372        174.3464        0.5214084        37.96694        0.5214092        37.96681        0.5204369        174.3465
4.635                  0.5259516        173.9322        0.5182301        37.20243        0.5182306         37.2023        0.5259514        173.9323
4.6364                 0.5315818        173.4959        0.5149301        36.44892        0.5149305        36.44878        0.5315817         173.496
4.6378                 0.5373071        173.0361        0.5115142        35.70787        0.5115144        35.70774        0.5373072        173.0362
4.6392                 0.5431046        172.5519        0.5079898        34.98083        0.5079899        34.98069        0.5431048         172.552
4.6406                 0.5489495        172.0425         0.504366        34.26929        0.5043659        34.26916        0.5489499        172.0426
4.642                  0.5548163        171.5077        0.5006537        33.57481        0.5006534        33.57468        0.5548167        171.5078
4.6434                 0.5606782        170.9477        0.4968654        32.89887        0.4968651        32.89874        0.5606787        170.9478
4.6448                 0.5665087        170.3629        0.4930158        32.24287        0.4930153        32.24276        0.5665093        170.3629
4.6462                 0.5722814        169.7539        0.4891207        31.60814          0.48912        31.60803        0.5722819        169.7539
4.6476                 0.5779706        169.1219        0.4851975        30.99579        0.4851967         30.9957        0.5779713        169.1219
4.649                  0.5835519        168.4681         0.481265        30.40682        0.4812642        30.40674        0.5835526        168.4681
4.6504                 0.5890024         167.794         0.477343        29.84195        0.4773421        29.84189        0.5890032         167.794
4.6518                 0.5943008        167.1012         0.473452        29.30165         0.473451         29.3016        0.5943017        167.1012
4.6532                 0.5994284        166.3915        0.4696129         28.7861        0.4696119        28.78606        0.5994292        166.3915
4.6546                 0.6043681        165.6667        0.4658469        28.29513        0.4658458        28.29511         0.604369        165.6667
4.656                  0.6091059        164.9288        0.4621746        27.82824        0.4621735        27.82824        0.6091068        164.9288
4.6574                 0.6136299        164.1797        0.4586161        27.38453         0.458615        27.38455        0.6136307        164.1797
4.6588                 0.6179309        163.4214        0.4551903        26.96274        0.4551893        26.96278        0.6179317        163.4213
4.6602                 0.6220025        162.6556        0.4519146        26.56122        0.4519136        26.56126        0.6220033        162.6556
4.6616                 0.6258404        161.8843        0.4488045        26.17794        0.4488035          26.178        0.6258413        161.8843
4.663                  0.6294433        161.1092         0.445873        25.81053        0.4458722        25.81061        0.6294441        161.1092
4.6644                 0.6328116         160.332        0.4431308        25.45633        0.4431299        25.45642        0.6328124        160.3319
4.6658                 0.6359483        159.5541        0.4405853        25.11238        0.4405846        25.11248         0.635949        159.5541
4.6672                 0.6388578        158.7769         0.438241        24.77555        0.4382404        24.77566        0.6388585        158.7769
4.6686                 0.6415465        158.0018         0.436099        24.44256        0.4360985        24.44267        0.6415473        158.0018
4.67                   0.6440224        157.2297        0.4341572        24.11005        0.4341567        24.11018        0.6440231        157.2297
4.6714                 0.6462941        156.4616        0.4324098         23.7747        0.4324094        23.77483        0.6462948        156.4616
4.6728                 0.6483715        155.6983        0.4308482        23.43326        0.4308479        23.43339        0.6483722        155.6983
4.6742                 0.6502647        154.9404        0.4294605        23.08265        0.4294603        23.08279        0.6502655        154.9404
4.6756                 0.6519845        154.1883        0.4282321        22.72004        0.4282321        22.72017        0.6519853        154.1882
4.677                  0.6535414        153.4423        0.4271459        22.34288         0.427146          22.343        0.6535422        153.4423
4.6784                  0.654946        152.7026        0.4261831        21.94897        0.4261832        21.94909        0.6549467        152.7026
4.6798                  0.656208        151.9693        0.4253227        21.53652        0.4253229        21.53663        0.6562088        151.9693
4.6812                  0.657337        151.2422         0.424543        21.10415        0.4245433        21.10425        0.6573378        151.2422
4.6826                 0.6583412        150.5213        0.4238216        20.65092         0.423822        20.65102         0.658342        150.5213
4.684                  0.6592284        149.8062        0.4231359        20.17633        0.4231362        20.17642        0.6592292        149.8062
4.6854                 0.6600049        149.0967        0.4224634        19.68033        0.4224639        19.68041        0.6600057        149.0966
4.6868                 0.6606761        148.3924        0.4217828        19.16326        0.4217833        19.16333         0.660677        148.3924
4.6882                 0.6612465         147.693        0.4210736        18.62589        0.4210741        18.62595        0.6612474        147.6929
4.6896                  0.661719         146.998        0.4203171        18.06931        0.4203176        18.06937        0.6617198         146.998
4.691                  0.6620957        146.3072        0.4194963        17.49497        0.4194968        17.49501        0.6620965        146.3072
4.6924                 0.6623777        145.6202        0.4185966        16.90457        0.4185971        16.90461        0.6623786        145.6202
4.6938                 0.6625654        144.9368        0.4176056        16.30006        0.4176061        16.30009        0.6625663        144.9368
4.6952                 0.6626583        144.2567        0.4165136        15.68355         0.416514        15.68357        0.6626592        144.2566
4.6966                 0.6626556        143.5797        0.4153135         15.0573        0.4153139        15.05733        0.6626563        143.5797
4.698                  0.6625556        142.9059         0.414001        14.42366        0.4140013        14.42368        0.6625563        142.9058
4.6994                  0.662357         142.235        0.4125744          13.785        0.4125747        13.78501        0.6623578         142.235
4.7008                 0.6620583        141.5673        0.4110348        13.14365        0.4110351        13.14367        0.6620592        141.5672
4.7022                 0.6616582        140.9028        0.4093859        12.50193        0.4093862        12.50194         0.661659        140.9028
4.7036                 0.6611556        140.2418        0.4076337        11.86198        0.4076339          11.862        0.6611563        140.2417
4.705                  0.6605501        139.5845        0.4057862        11.22585        0.4057865        11.22586        0.6605508        139.5844
4.7064                  0.659842        138.9311        0.4038538        10.59535         0.403854        10.59536        0.6598427         138.931
4.7078                 0.6590321        138.2821        0.4018481        9.972062        0.4018483        9.972073        0.6590329         138.282
4.7092                 0.6581224        137.6378        0.3997823          9.3573        0.3997824        9.357314         0.658123        137.6377
4.7106                 0.6571154        136.9986        0.3976704        8.752067        0.3976706        8.752122        0.6571159        136.9985
4.712                  0.6560148        136.3648         0.395527        8.157102        0.3955272         8.15713        0.6560152        136.3647
4.7134                 0.6548252        135.7368        0.3933672        7.572717        0.3933674        7.572745        0.6548254        135.7367
4.7148                 0.6535517        135.1149        0.3912057        6.998942        0.3912059        6.998969        0.6535521        135.1148
4.7162                 0.6522008        134.4993        0.3890566        6.435414        0.3890567        6.435433        0.6522011        134.4993
4.7176                 0.6507792        133.8904        0.3869331        5.881474        0.3869333        5.881492        0.6507793        133.8903
4.719                  0.6492941        133.2881        0.3848473        5.336115        0.3848476        5.336132        0.6492941         133.288
4.7204                 0.6477532        132.6925        0.3828097        4.798041        0.3828099        4.798057        0.6477533        132.6924
4.7218                 0.6461645        132.1035        0.3808288          4.2657        0.3808291        4.265714        0.6461645        132.1035
4.7232                 0.6445357         131.521        0.3789113        3.737322        0.3789115        3.737334        0.6445357         131.521
4.7246                 0.6428746        130.9447        0.3770614        3.210977        0.3770617        3.210984        0.6428745        130.9447
4.726                  0.6411882        130.3743        0.3752813        2.684625        0.3752816        2.684629         0.641188        130.3742
4.7274                 0.6394831        129.8091        0.3735708        2.156182        0.3735712        2.156181        0.6394829         129.809
4.7288                  0.637765        129.2487        0.3719273        1.623577        0.3719277         1.62357        0.6377648        129.2487
4.7302                 0.6360387        128.6924        0.3703463        1.084813        0.3703467        1.084801        0.6360385        128.6924
4.7316                 0.6343077        128.1396        0.3688211       0.5380284        0.3688214       0.5380103        0.6343074        128.1395
4.733                  0.6325744        127.5893        0.3673433     -0.01845572        0.3673436     -0.01847997         0.632574        127.5892
4.7344                 0.6308396        127.0408         0.365903      -0.5860866        0.3659033      -0.5861171        0.6308393        127.0408
4.7358                  0.629103        126.4934        0.3644892       -1.166041        0.3644895       -1.166078        0.6291027        126.4934
4.7372                 0.6273628        125.9461        0.3630901         -1.7592        0.3630904       -1.759243        0.6273624        125.9461
4.7386                 0.6256159        125.3982        0.3616933       -2.366124        0.3616936       -2.366171        0.6256154        125.3982
4.74                   0.6238575         124.849        0.3602863       -2.987048        0.3602866         -2.9871        0.6238571         124.849
4.7414                 0.6220821        124.2978         0.358857       -3.621881        0.3588572       -3.621936        0.6220818        124.2978
4.7428                 0.6202831        123.7439        0.3573936       -4.270209        0.3573937       -4.270268        0.6202827        123.7439
4.7442                 0.6184526         123.187        0.3558854       -4.931317        0.3558854       -4.931379        0.6184523         123.187
4.7456                 0.6165825        122.6265        0.3543228       -5.604216        0.3543229        -5.60428        0.6165822        122.6265
4.747                   0.614664        122.0623        0.3526978       -6.287665        0.3526977       -6.287729        0.6146637        122.0624
4.7484                 0.6126882        121.4944        0.3510038       -6.980213        0.3510037       -6.980276        0.6126879        121.4944
4.7498                 0.6106459        120.9225        0.3492361       -7.680238         0.349236       -7.680301        0.6106457        120.9225
4.7512                 0.6085286         120.347         0.347392       -8.385996        0.3473919       -8.386053        0.6085285         120.347
4.7526                  0.606328         119.768        0.3454707       -9.095657        0.3454705       -9.095711        0.6063278         119.768
4.754                  0.6040364        119.1861        0.3434734       -9.807365        0.3434731       -9.807413        0.6040363        119.1861
4.7554                 0.6016474        118.6017        0.3414033       -10.51928         0.341403       -10.51932        0.6016474        118.6017
4.7568                 0.5991554        118.0154        0.3392654       -11.22964        0.3392651       -11.22968        0.5991554        118.0154
4.7582                 0.5965561        117.4279        0.3370667       -11.93679        0.3370664       -11.93682        0.5965562         117.428
4.7596                 0.5938465        116.8401        0.3348154       -12.63925        0.3348151       -12.63928        0.5938466        116.8402
4.761                  0.5910252        116.2528        0.3325215       -13.33577        0.3325211       -13.33578        0.5910253        116.2528
4.7624                 0.5880921        115.6667        0.3301957       -14.02533        0.3301953       -14.02534        0.5880922        115.6668
4.7638                 0.5850487        115.0828        0.3278497       -14.70724        0.3278494       -14.70724         0.585049        115.0829
4.7652                  0.581898         114.502        0.3254959        -15.3811        0.3254955       -15.38109        0.5818983         114.502
4.7666                 0.5786443        113.9249        0.3231465       -16.04691        0.3231462        -16.0469        0.5786445        113.9249
4.768                  0.5752932        113.3524        0.3208138       -16.70502        0.3208135       -16.70499        0.5752934        113.3524
4.7694                 0.5718511         112.785        0.3185095       -17.35615        0.3185092       -17.35612        0.5718514        112.7851
4.7708                 0.5683259        112.2234        0.3162445       -18.00143        0.3162443        -18.0014        0.5683263        112.2235
4.7722                 0.5647258         111.668        0.3140285       -18.64233        0.3140283       -18.64229        0.5647262         111.668
4.7736                 0.5610594         111.119        0.3118698       -19.28068        0.3118697       -19.28064        0.5610599         111.119
4.775                  0.5573359        110.5766         0.309775        -19.9186        0.3097749       -19.91855        0.5573363        110.5766
4.7764                 0.5535639        110.0407        0.3077486       -20.55847        0.3077486       -20.55842        0.5535642        110.0407
4.7778                 0.5497518        109.5113        0.3057934       -21.20287        0.3057934       -21.20282        0.5497523        109.5113
