! TOUCHSTONE file generated by CST MICROWAVE STUDIO
! Date and time: Sat Nov 30 13:10:59 2024
! Project name: test_tuning.cst
! Parameters = {airCoaxOuterDiameter=3; chamferAngle=45; chamferWidth=24; connectorLength=10; drillingHoleDiameter=4.1; feedLength=60; flareDiameter=130; flareLength=70; gratingDistance=0; gratingGap=1.90274; outletLength=30; polarizerLength=134; probe1Diameter=1.3; probe1Distance=14.5; probe1Length=12; probe2Diameter=1.3; probe2Distance=0; probe2Length=12; probeLength=12; smaInnerDiameter=1.3; smaOuterDiameter=4.1; transitionCoefficient=1.33; waveguideFeedLength=30; waveguideSide=50; waveguideThickness=3; wireCount=25; wireDiameter=1.17699}
! Header version: 2024
! Port assignment regex: !\s*Touchstone port\s*([0-9]+)\s*=\s*(CST MWS port|CST DES external port|CST DES block port)\s*(.+)\s* \(\"(.*)\"\)(\s*mode\s*([0-9]+))?.*
! Touchstone port assignment:
! Touchstone port 1 = CST MWS port 1 ("Input1")
! Touchstone port 2 = CST MWS port 2 ("Input2")
# GHz S MA R 50
4.6                    0.2507287       -164.5008        0.5976623        65.76461        0.5976632        65.76462        0.2507271        -164.501
4.6014                 0.2566225       -165.0759        0.5993828        64.93437        0.5993837        64.93437         0.256621       -165.0759
4.6028                 0.2625969       -165.6448        0.6010873        64.08901        0.6010882        64.08901        0.2625955       -165.6448
4.6042                 0.2686626         -166.21        0.6027602         63.2276        0.6027612        63.22758        0.2686614         -166.21
4.6056                 0.2748295       -166.7739        0.6043842        62.34939         0.604385        62.34937        0.2748284       -166.7739
4.607                  0.2811059       -167.3392        0.6059402        61.45389         0.605941        61.45385         0.281105       -167.3391
4.6084                 0.2874989       -167.9084        0.6074082         60.5408        0.6074089        60.54075        0.2874982       -167.9083
4.6098                 0.2940134       -168.4843        0.6087674         59.6101         0.608768        59.61004        0.2940129       -168.4842
4.6112                 0.3006531       -169.0692        0.6099966          58.662        0.6099972        58.66195        0.3006527       -169.0691
4.6126                 0.3074192       -169.6658        0.6110748          57.697        0.6110753        57.69692        0.3074191       -169.6657
4.614                  0.3143113       -170.2762        0.6119812        56.71576        0.6119817        56.71568        0.3143114        -170.276
4.6154                 0.3213271       -170.9025        0.6126963        55.71923        0.6126966        55.71915        0.3213273       -170.9023
4.6168                 0.3284622       -171.5465        0.6132012        54.70858        0.6132014        54.70849        0.3284627       -171.5464
4.6182                 0.3357106       -172.2098        0.6134789        53.68516         0.613479        53.68507        0.3357112       -172.2097
4.6196                 0.3430646       -172.8938        0.6135143        52.65052        0.6135143        52.65044        0.3430654       -172.8937
4.621                  0.3505148       -173.5993        0.6132943        51.60637        0.6132941        51.60629        0.3505157       -173.5992
4.6224                 0.3580507       -174.3273        0.6128082        50.55456         0.612808        50.55448        0.3580517       -174.3272
4.6238                 0.3656604        -175.078         0.612048        49.49706        0.6120478        49.49698        0.3656615        -175.078
4.6252                 0.3733312       -175.8519        0.6110084        48.43595        0.6110081        48.43586        0.3733324       -175.8519
4.6266                 0.3810495       -176.6488        0.6096869        47.37333        0.6096865        47.37325        0.3810508       -176.6488
4.628                  0.3888012       -177.4686         0.608084        46.31139        0.6080835        46.31132        0.3888025       -177.4686
4.6294                 0.3965717       -178.3107        0.6062031        45.25233        0.6062025        45.25227        0.3965731       -178.3107
4.6308                 0.4043463       -179.1745        0.6040503        44.19832        0.6040496        44.19826        0.4043477       -179.1746
4.6322                 0.4121102        179.9406        0.6016352         43.1515        0.6016345        43.15145        0.4121116        179.9405
4.6336                 0.4198489        179.0356        0.5989691        42.11396        0.5989685        42.11391        0.4198503        179.0355
4.635                  0.4275479        178.1115        0.5960672        41.08767        0.5960664        41.08762        0.4275492        178.1114
4.6364                 0.4351932        177.1694        0.5929458         40.0745        0.5929451        40.07446        0.4351946        177.1693
4.6378                 0.4427717        176.2103        0.5896243        39.07617        0.5896235        39.07614        0.4427729        176.2102
4.6392                 0.4502704        175.2355        0.5861234        38.09422        0.5861225         38.0942        0.4502716        175.2354
4.6406                 0.4576774        174.2462        0.5824656        37.13001        0.5824648        37.12999        0.4576785        174.2461
4.642                  0.4649813        173.2436        0.5786746        36.18465        0.5786737        36.18465        0.4649824        173.2435
4.6434                 0.4721718        172.2288         0.574775        35.25904        0.5747742        35.25904        0.4721728        172.2286
4.6448                 0.4792393         171.203        0.5707919        34.35379        0.5707912        34.35379        0.4792402        171.2029
4.6462                 0.4861749        170.1674        0.5667506        33.46924        0.5667498        33.46925        0.4861758        170.1673
4.6476                  0.492971         169.123        0.5626755        32.60545        0.5626748        32.60546        0.4929717        169.1229
4.649                  0.4996202         168.071        0.5585911        31.76214        0.5585904        31.76217        0.4996209        168.0709
4.6504                 0.5061164        167.0122        0.5545203        30.93879        0.5545196        30.93882        0.5061172        167.0121
4.6518                 0.5124542        165.9476        0.5504845        30.13454        0.5504839        30.13458        0.5124548        165.9475
4.6532                 0.5186287        164.8781        0.5465034        29.34825        0.5465029        29.34829        0.5186292         164.878
4.6546                 0.5246356        163.8044        0.5425943        28.57854        0.5425939        28.57858        0.5246361        163.8043
4.656                  0.5304714        162.7274        0.5387722        27.82375        0.5387717        27.82379        0.5304719        162.7273
4.6574                 0.5361329        161.6475        0.5350492        27.08203        0.5350488        27.08207        0.5361333        161.6475
4.6588                 0.5416173        160.5655        0.5314346        26.35134        0.5314343        26.35139        0.5416178        160.5655
4.6602                 0.5469224        159.4819        0.5279346        25.62952        0.5279343        25.62957        0.5469228        159.4819
4.6616                 0.5520459        158.3972        0.5245524        24.91433        0.5245521        24.91438        0.5520464        158.3972
4.663                   0.556986        157.3118        0.5212879        24.20347        0.5212878        24.20352        0.5569864        157.3118
4.6644                 0.5617408        156.2261        0.5181386        23.49468        0.5181385        23.49472        0.5617412        156.2261
4.6658                 0.5663084        155.1405        0.5150985        22.78573        0.5150984        22.78577        0.5663089        155.1405
4.6672                 0.5706875        154.0554        0.5121593        22.07453        0.5121594        22.07456         0.570688        154.0553
4.6686                 0.5748762        152.9709        0.5093106        21.35914        0.5093106        21.35917        0.5748767        152.9709
4.67                    0.578873        151.8875        0.5065394        20.63781        0.5065395        20.63784        0.5788734        151.8875
4.6714                 0.5826759        150.8054        0.5038316        19.90903        0.5038316        19.90905        0.5826764        150.8054
4.6728                 0.5862834        149.7249        0.5011714        19.17153        0.5011716        19.17155        0.5862839        149.7249
4.6742                 0.5896937        148.6463        0.4985425        18.42434        0.4985426        18.42435        0.5896943        148.6463
4.6756                 0.5929052        147.5699        0.4959278        17.66676        0.4959279        17.66677        0.5929059        147.5699
4.677                  0.5959164        146.4961        0.4933102         16.8984        0.4933102        16.89841         0.595917        146.4961
4.6784                 0.5987257        145.4252        0.4906729        16.11917        0.4906731        16.11917        0.5987264        145.4252
4.6798                 0.6013318        144.3575        0.4880001        15.32926        0.4880002        15.32926        0.6013324        144.3575
4.6812                 0.6037336        143.2935        0.4852765        14.52914        0.4852766        14.52914        0.6037343        143.2935
4.6826                 0.6059304        142.2336        0.4824883        13.71953        0.4824884        13.71952        0.6059312        142.2336
4.684                  0.6079218        141.1781        0.4796237         12.9014        0.4796237        12.90139        0.6079226        141.1781
4.6854                 0.6097081        140.1277         0.476672        12.07592         0.476672        12.07591        0.6097088        140.1277
4.6868                 0.6112896        139.0828        0.4736251        11.24443        0.4736251        11.24442        0.6112904        139.0828
4.6882                 0.6126678        138.0439        0.4704766        10.40844        0.4704766        10.40842        0.6126685        138.0439
4.6896                 0.6138443        137.0115        0.4672227        9.569553        0.4672227        9.569537        0.6138452        137.0115
4.691                  0.6148218        135.9863        0.4638615        8.729472        0.4638615        8.729455        0.6148227        135.9863
4.6924                 0.6156038        134.9687        0.4603936        7.889931        0.4603936        7.889913        0.6156047        134.9687
4.6938                 0.6161942        133.9594        0.4568215        7.052682        0.4568215        7.052665        0.6161951        133.9594
4.6952                 0.6165982        132.9588        0.4531501        6.219447          0.45315         6.21943        0.6165989        132.9588
4.6966                 0.6168213        131.9676        0.4493861        5.391888         0.449386        5.391872         0.616822        131.9676
4.698                  0.6168702        130.9862        0.4455379        4.571573        0.4455378        4.571558         0.616871        130.9862
4.6994                 0.6167525         130.015        0.4416157        3.759939        0.4416156        3.759925        0.6167532         130.015
4.7008                 0.6164762        129.0546        0.4376308        2.958265        0.4376307        2.958253         0.616477        129.0546
4.7022                 0.6160502        128.1053        0.4335958         2.16764        0.4335956         2.16763        0.6160511        128.1053
4.7036                 0.6154842        127.1674        0.4295237         1.38894        0.4295236        1.388933        0.6154849        127.1674
4.705                  0.6147881        126.2411        0.4254285       0.6228034        0.4254283       0.6227981        0.6147888        126.2411
4.7064                 0.6139725        125.3266        0.4213239      -0.1303884        0.4213237      -0.1303913        0.6139732        125.3266
4.7078                  0.613048         124.424        0.4172237      -0.8705278        0.4172236      -0.8705278        0.6130487         124.424
4.7092                 0.6120259        123.5332        0.4131411       -1.597742         0.413141       -1.597742        0.6120265        123.5332
4.7106                  0.610917        122.6541        0.4090886       -2.312516        0.4090885       -2.312512        0.6109177        122.6541
4.712                  0.6097325        121.7866        0.4050776       -3.015521        0.4050775       -3.015516        0.6097332        121.7866
4.7134                  0.608483        120.9301        0.4011182       -3.707727        0.4011181       -3.707719        0.6084836        120.9301
4.7148                 0.6071785        120.0843        0.3972188       -4.390329        0.3972188        -4.39032        0.6071792        120.0844
4.7162                 0.6058289        119.2488        0.3933865       -5.064729        0.3933864       -5.064719        0.6058296        119.2488
4.7176                 0.6044429        118.4227        0.3896258       -5.732506        0.3896257       -5.732495        0.6044436        118.4227
4.719                  0.6030286        117.6054        0.3859398        -6.39537        0.3859398       -6.395358        0.6030294        117.6054
4.7204                 0.6015929        116.7961        0.3823294       -7.055121        0.3823294       -7.055108        0.6015938        116.7961
4.7218                 0.6001418        115.9939        0.3787935       -7.713599        0.3787934       -7.713587        0.6001426        115.9939
4.7232                 0.5986796        115.1979        0.3753288       -8.372638        0.3753289       -8.372627        0.5986805        115.1979
4.7246                   0.59721         114.407        0.3719307       -9.034015        0.3719308       -9.034005        0.5972109         114.407
4.726                  0.5957346        113.6204        0.3685925       -9.699398        0.3685926       -9.699388        0.5957356        113.6204
4.7274                 0.5942542        112.8369        0.3653063        -10.3703        0.3653064        -10.3703        0.5942551        112.8369
4.7288                 0.5927679        112.0556        0.3620627       -11.04807        0.3620628       -11.04806        0.5927689        112.0556
4.7302                 0.5912737        111.2756        0.3588518       -11.73377        0.3588518       -11.73377        0.5912747        111.2756
4.7316                 0.5897683        110.4958        0.3556625       -12.42828        0.3556626       -12.42828        0.5897694        110.4958
4.733                  0.5882472        109.7155         0.352484       -13.13214        0.3524841       -13.13214        0.5882483        109.7155
4.7344                 0.5867047        108.9339        0.3493049       -13.84563         0.349305       -13.84564        0.5867059        108.9339
4.7358                 0.5851348        108.1502        0.3461145       -14.56873        0.3461146       -14.56874        0.5851359        108.1502
4.7372                 0.5835299         107.364        0.3429024        -15.3011        0.3429025       -15.30111         0.583531         107.364
4.7386                 0.5818824        106.5747        0.3396591       -16.04214        0.3396592       -16.04215        0.5818836        106.5746
4.74                   0.5801843         105.782        0.3363763       -16.79094        0.3363764       -16.79096        0.5801856        105.7819
4.7414                 0.5784273        104.9856        0.3330469       -17.54636         0.333047       -17.54638        0.5784285        104.9856
4.7428                  0.576603        104.1855        0.3296653         -18.307        0.3296654       -18.30703        0.5766042        104.1855
4.7442                 0.5747034        103.3817        0.3262275        -19.0713        0.3262276       -19.07132        0.5747046        103.3817
4.7456                 0.5727208        102.5745        0.3227312       -19.83749        0.3227313       -19.83751         0.572722        102.5744
4.747                  0.5706481        101.7639        0.3191762       -20.60369        0.3191763       -20.60372        0.5706493        101.7639
4.7484                 0.5684788        100.9505        0.3155637       -21.36794        0.3155637       -21.36797          0.56848        100.9505
4.7498                 0.5662076        100.1348         0.311897       -22.12824         0.311897       -22.12827        0.5662087        100.1347
4.7512                 0.5638298        99.31723        0.3081811       -22.88257        0.3081811        -22.8826        0.5638309        99.31717
4.7526                 0.5613423        98.49857        0.3044226       -23.62901        0.3044226       -23.62903        0.5613433        98.49849
4.754                  0.5587427        97.67954        0.3006297       -24.36568        0.3006297       -24.36572        0.5587438        97.67943
4.7554                 0.5560304        96.86082         0.296812       -25.09094         0.296812       -25.09097        0.5560313        96.86073
4.7568                 0.5532057        96.04326        0.2929801       -25.80327        0.2929801        -25.8033        0.5532066        96.04318
4.7582                 0.5502704        95.22765        0.2891457       -26.50147        0.2891456        -26.5015        0.5502713        95.22756
4.7596                 0.5472277        94.41479        0.2853209       -27.18461        0.2853209       -27.18464        0.5472285        94.41468
4.761                  0.5440817         93.6054        0.2815184       -27.85213        0.2815184       -27.85216        0.5440824        93.60526
4.7624                 0.5408378        92.80016        0.2777509       -28.50383        0.2777509       -28.50386        0.5408385        92.80008
4.7638                 0.5375027        91.99976        0.2740308       -29.13996        0.2740307       -29.13998        0.5375033        91.99965
4.7652                 0.5340837        91.20473        0.2703698       -29.76116        0.2703697       -29.76118        0.5340842        91.20462
4.7666                 0.5305888        90.41553         0.266779       -30.36856        0.2667789       -30.36858        0.5305892        90.41537
4.768                  0.5270269        89.63242         0.263268       -30.96372         0.263268       -30.96375        0.5270272        89.63228
4.7694                 0.5234071        88.85565        0.2598453       -31.54866        0.2598452       -31.54869        0.5234073        88.85551
4.7708                 0.5197385        88.08525        0.2565173       -32.12577        0.2565172       -32.12579        0.5197387        88.08508
4.7722                 0.5160305        87.32112        0.2532888       -32.69782        0.2532887       -32.69784        0.5160306        87.32095
4.7736                 0.5122919        86.56296        0.2501624       -33.26791        0.2501623       -33.26793        0.5122919        86.56279
4.775                  0.5085314        85.81036        0.2471387       -33.83934        0.2471386       -33.83936        0.5085313        85.81025
4.7764                 0.5047565        85.06279        0.2442158        -34.4156        0.2442157       -34.41562        0.5047564        85.06268
4.7778                 0.5009743        84.31952        0.2413901       -35.00027          0.24139       -35.00029         0.500974        84.31936
