! TOUCHSTONE file generated by CST MICROWAVE STUDIO
! Date and time: Sat Nov 30 13:11:00 2024
! Project name: test_tuning.cst
! Parameters = {airCoaxOuterDiameter=3; chamferAngle=45; chamferWidth=24; connectorLength=10; drillingHoleDiameter=4.1; feedLength=60; flareDiameter=130; flareLength=70; gratingDistance=0; gratingGap=1.90274; outletLength=30; polarizerLength=134; probe1Diameter=1.3; probe1Distance=15.5; probe1Length=12; probe2Diameter=1.3; probe2Distance=0; probe2Length=12; probeLength=12; smaInnerDiameter=1.3; smaOuterDiameter=4.1; transitionCoefficient=1.33; waveguideFeedLength=30; waveguideSide=50; waveguideThickness=3; wireCount=25; wireDiameter=1.17699}
! Header version: 2024
! Port assignment regex: !\s*Touchstone port\s*([0-9]+)\s*=\s*(CST MWS port|CST DES external port|CST DES block port)\s*(.+)\s* \(\"(.*)\"\)(\s*mode\s*([0-9]+))?.*
! Touchstone port assignment:
! Touchstone port 1 = CST MWS port 1 ("Input1")
! Touchstone port 2 = CST MWS port 2 ("Input2")
# GHz S MA R 50
4.6                    0.2988209       -168.6457        0.5868379        63.05451        0.5868378        63.05444        0.2988213       -168.6458
4.6014                 0.3040173       -169.1582        0.5878667        62.24574        0.5878665        62.24568        0.3040176       -169.1583
4.6028                 0.3092503       -169.6611        0.5888726        61.42708        0.5888724        61.42703        0.3092506       -169.6612
4.6042                 0.3145344       -170.1557        0.5898472        60.59758        0.5898469        60.59753        0.3145347       -170.1558
4.6056                 0.3198836       -170.6435        0.5907799        59.75632        0.5907796        59.75626        0.3198838       -170.6436
4.607                   0.325311       -171.1263        0.5916581        58.90256        0.5916578        58.90251        0.3253112       -171.1264
4.6084                 0.3308287       -171.6062        0.5924681        58.03575        0.5924677         58.0357         0.330829       -171.6063
4.6098                 0.3364475       -172.0855        0.5931944        57.15546        0.5931939        57.15541        0.3364478       -172.0855
4.6112                 0.3421763       -172.5665        0.5938207        56.26149        0.5938202        56.26145        0.3421766       -172.5666
4.6126                 0.3480223       -173.0519          0.59433        55.35388        0.5943294        55.35384        0.3480226        -173.052
4.614                  0.3539905        -173.544        0.5947048        54.43284        0.5947043        54.43281        0.3539907        -173.544
4.6154                 0.3600838       -174.0453         0.594928        53.49886        0.5949274        53.49884         0.360084       -174.0454
4.6168                 0.3663029       -174.5582        0.5949824        52.55261        0.5949818         52.5526        0.3663032       -174.5583
4.6182                 0.3726463       -175.0849         0.594852          51.595        0.5948515        51.59499        0.3726465        -175.085
4.6196                 0.3791101       -175.6274        0.5945217        50.62714        0.5945211        50.62714        0.3791104       -175.6275
4.621                  0.3856886       -176.1875        0.5939777        49.65037        0.5939772        49.65036        0.3856889       -176.1876
4.6224                 0.3923739       -176.7668        0.5932083        48.66615        0.5932078        48.66615        0.3923742       -176.7669
4.6238                 0.3991563       -177.3666        0.5922034        47.67616        0.5922029        47.67616        0.3991566       -177.3666
4.6252                 0.4060245       -177.9878        0.5909554         46.6822        0.5909548        46.68222        0.4060247       -177.9879
4.6266                 0.4129658       -178.6313        0.5894589         45.6862        0.5894585        45.68622         0.412966       -178.6314
4.628                  0.4199663       -179.2975        0.5877114        44.69019         0.587711        44.69021        0.4199665       -179.2975
4.6294                 0.4270112       -179.9866         0.585713        43.69626        0.5857126        43.69629        0.4270115       -179.9866
4.6308                 0.4340851        179.3015        0.5834665        42.70656        0.5834662        42.70659        0.4340853        179.3014
4.6322                 0.4411719        178.5669        0.5809775        41.72325        0.5809773        41.72328        0.4411722        178.5669
4.6336                 0.4482557        177.8102        0.5782546        40.74849        0.5782544        40.74852        0.4482559        177.8102
4.635                  0.4553201         177.032        0.5753089        39.78438        0.5753088        39.78441        0.4553203         177.032
4.6364                 0.4623493        176.2331        0.5721543        38.83298        0.5721542        38.83301        0.4623495        176.2331
4.6378                 0.4693278        175.4145        0.5688068        37.89622        0.5688067        37.89625        0.4693281        175.4145
4.6392                 0.4762407        174.5772        0.5652852        36.97591        0.5652852        36.97594        0.4762409        174.5772
4.6406                 0.4830734        173.7223          0.56161         36.0737        0.5616099        36.07372        0.4830737        173.7223
4.642                  0.4898129        172.8511        0.5578031        35.19103        0.5578031        35.19106        0.4898131        172.8511
4.6434                 0.4964465        171.9647        0.5538885        34.32915        0.5538885        34.32917        0.4964468        171.9647
4.6448                 0.5029628        171.0645        0.5498907        33.48902        0.5498908        33.48903         0.502963        171.0644
4.6462                 0.5093512        170.1516        0.5458352        32.67133        0.5458353        32.67134        0.5093514        170.1515
4.6476                 0.5156025        169.2273        0.5417476        31.87649        0.5417476         31.8765        0.5156027        169.2273
4.649                  0.5217084        168.2928        0.5376532        31.10457        0.5376533        31.10457        0.5217086        168.2928
4.6504                 0.5276616        167.3493         0.533577        30.35531        0.5335771         30.3553        0.5276617        167.3493
4.6518                  0.533456         166.398        0.5295428        29.62812         0.529543        29.62811        0.5334562        166.3979
4.6532                 0.5390863        165.4397        0.5255731        28.92206        0.5255732        28.92205        0.5390864        165.4397
4.6546                 0.5445482        164.4757        0.5216884        28.23588        0.5216884        28.23586        0.5445485        164.4756
4.656                  0.5498384        163.5066        0.5179069        27.56799        0.5179069        27.56797        0.5498386        163.5066
4.6574                 0.5549541        162.5335        0.5142444        26.91652        0.5142444         26.9165        0.5549543        162.5335
4.6588                 0.5598932        161.5571        0.5107137        26.27936        0.5107137        26.27934        0.5598935        161.5571
4.6602                 0.5646544        160.5781        0.5073248        25.65416        0.5073248        25.65414        0.5646546        160.5781
4.6616                 0.5692365        159.5971        0.5040842        25.03841        0.5040841        25.03839        0.5692366         159.597
4.663                  0.5736388        158.6146        0.5009951        24.42951         0.500995        24.42948        0.5736389        158.6146
4.6644                 0.5778609        157.6312        0.4980575        23.82476        0.4980574        23.82473        0.5778611        157.6312
4.6658                 0.5819026        156.6473        0.4952681         23.2215        0.4952679        23.22148        0.5819027        156.6473
4.6672                 0.5857637        155.6633        0.4926204        22.61713        0.4926202        22.61711        0.5857639        155.6633
4.6686                 0.5894442        154.6796        0.4901051        22.00916        0.4901049        22.00914        0.5894443        154.6796
4.67                   0.5929436        153.6964        0.4877102        21.39528        0.4877099        21.39526        0.5929439        153.6964
4.6714                 0.5962621         152.714        0.4854216        20.77341        0.4854213         20.7734        0.5962624         152.714
4.6728                 0.5993993        151.7327        0.4832229        20.14173        0.4832226        20.14172        0.5993995        151.7327
4.6742                 0.6023545        150.7528        0.4810967        19.49872        0.4810964        19.49871        0.6023548        150.7527
4.6756                 0.6051272        149.7744        0.4790243        18.84317         0.479024        18.84317        0.6051275        149.7744
4.677                  0.6077171        148.7979        0.4769864        18.17423         0.476986        18.17423        0.6077173        148.7979
4.6784                 0.6101231        147.8236        0.4749634        17.49138        0.4749631        17.49138        0.6101234        147.8236
4.6798                 0.6123449        146.8516        0.4729365        16.79444        0.4729361        16.79445        0.6123452        146.8516
4.6812                 0.6143816        145.8824        0.4708869        16.08358        0.4708865        16.08359        0.6143819        145.8824
4.6826                 0.6162327        144.9162        0.4687973        15.35926        0.4687969        15.35928         0.616233        144.9162
4.684                   0.617898        143.9534        0.4666515        14.62226        0.4666512        14.62228        0.6178984        143.9533
4.6854                 0.6193773        142.9943        0.4644354        13.87361        0.4644351        13.87364        0.6193777        142.9943
4.6868                  0.620671        142.0395        0.4621363        13.11459        0.4621361        13.11463        0.6206714        142.0395
4.6882                 0.6217798        141.0894        0.4597442        12.34668         0.459744        12.34671          0.62178        141.0893
4.6896                 0.6227046        140.1443        0.4572508        11.57151        0.4572506        11.57154         0.622705        140.1443
4.691                  0.6234476        139.2049        0.4546507        10.79085        0.4546505        10.79089        0.6234478        139.2049
4.6924                 0.6240108        138.2716        0.4519406        10.00656        0.4519405         10.0066        0.6240112        138.2716
4.6938                 0.6243976        137.3449        0.4491197        9.220545        0.4491196        9.220585        0.6243981        137.3449
4.6952                 0.6246117        136.4254        0.4461897        8.434723        0.4461896        8.434765        0.6246122        136.4253
4.6966                  0.624658        135.5135        0.4431543        7.650979        0.4431542         7.65102        0.6246584        135.5135
4.698                  0.6245416        134.6098        0.4400195         6.87113        0.4400195        6.871169        0.6245419        134.6098
4.6994                 0.6242688        133.7147        0.4367934        6.096887        0.4367934        6.096926        0.6242692        133.7147
4.7008                 0.6238467        132.8288        0.4334855        5.329823        0.4334856        5.329861         0.623847        132.8288
4.7022                 0.6232829        131.9523        0.4301071        4.571334        0.4301071         4.57137        0.6232832        131.9523
4.7036                 0.6225858        131.0857        0.4266703        3.822615        0.4266704        3.822648        0.6225862        131.0857
4.705                  0.6217645        130.2293        0.4231886        3.084624        0.4231887        3.084655        0.6217649        130.2293
4.7064                 0.6208284        129.3832        0.4196756        2.358072        0.4196757          2.3581        0.6208288        129.3832
4.7078                 0.6197877        128.5475        0.4161454        1.643393        0.4161455        1.643417         0.619788        128.5475
4.7092                 0.6186522        127.7225        0.4126119       0.9407585        0.4126121       0.9407585        0.6186526        127.7225
4.7106                 0.6174326        126.9079        0.4090887       0.2499644        0.4090888       0.2499829        0.6174329        126.9079
4.712                  0.6161392        126.1036        0.4055884      -0.4293529        0.4055886      -0.4293374        0.6161395        126.1036
4.7134                 0.6147822        125.3095        0.4021228       -1.097927         0.402123       -1.097915        0.6147825        125.3094
4.7148                 0.6133715         124.525        0.3987022       -1.756737        0.3987025       -1.756727        0.6133716         124.525
4.7162                 0.6119162        123.7499        0.3953355       -2.407001        0.3953357       -2.406994        0.6119165        123.7498
4.7176                 0.6104254        122.9834        0.3920297       -3.050153        0.3920299       -3.050149        0.6104257        122.9834
4.719                  0.6089069        122.2251        0.3887897       -3.687803        0.3887899       -3.687801        0.6089071         122.225
4.7204                 0.6073676         121.474        0.3856188       -4.321689        0.3856189       -4.321689        0.6073678         121.474
4.7218                 0.6058136        120.7294        0.3825179       -4.953642         0.382518       -4.953644        0.6058138        120.7294
4.7232                 0.6042495        119.9906        0.3794858       -5.585523        0.3794859       -5.585527        0.6042497        119.9905
4.7246                 0.6026788        119.2564        0.3765196       -6.219184        0.3765197       -6.219188         0.602679        119.2564
4.726                  0.6011037         118.526        0.3736144       -6.856401        0.3736144       -6.856406        0.6011038         118.526
4.7274                 0.5995249        117.7984        0.3707634       -7.498842        0.3707635       -7.498847        0.5995251        117.7983
4.7288                 0.5979419        117.0726        0.3679587       -8.148012        0.3679587       -8.148017         0.597942        117.0726
4.7302                 0.5963528        116.3476        0.3651908       -8.805211        0.3651909       -8.805215        0.5963529        116.3477
4.7316                 0.5947543        115.6227        0.3624496       -9.471511        0.3624496       -9.471513        0.5947544        115.6227
4.733                  0.5931422        114.8969         0.359724       -10.14771        0.3597241       -10.14771        0.5931423        114.8969
4.7344                 0.5915108        114.1694        0.3570029       -10.83433        0.3570029       -10.83433        0.5915109        114.1694
4.7358                 0.5898539        113.4396         0.354275        -11.5316         0.354275        -11.5316        0.5898541        113.4396
4.7372                 0.5881642        112.7069        0.3515292       -12.23944        0.3515293       -12.23944        0.5881643        112.7069
4.7386                 0.5864338        111.9708        0.3487553       -12.95748        0.3487554       -12.95748        0.5864339        111.9708
4.74                   0.5846546        111.2309        0.3459438       -13.68507        0.3459438       -13.68507        0.5846547        111.2309
4.7414                 0.5828178         110.487        0.3430861       -14.42129        0.3430861       -14.42129         0.582818         110.487
4.7428                 0.5809152         109.739        0.3401753       -15.16496        0.3401753       -15.16496        0.5809153         109.739
4.7442                 0.5789382        108.9869        0.3372059        -15.9147        0.3372059       -15.91469        0.5789384        108.9869
4.7456                 0.5768788         108.231        0.3341738       -16.66894        0.3341739       -16.66893        0.5768789         108.231
4.747                  0.5747296        107.4714        0.3310771       -17.42595        0.3310772       -17.42594        0.5747297        107.4714
4.7484                 0.5724837        106.7086        0.3279153       -18.18391        0.3279154       -18.18391        0.5724838        106.7086
4.7498                 0.5701353        105.9429        0.3246902       -18.94093        0.3246903       -18.94092        0.5701354        105.9429
4.7512                 0.5676796        105.1752        0.3214049       -19.69509        0.3214049       -19.69509        0.5676797        105.1752
4.7526                 0.5651127         104.406        0.3180646       -20.44452        0.3180646       -20.44451        0.5651128         104.406
4.754                  0.5624324         103.636         0.314676       -21.18739        0.3146761       -21.18739        0.5624324         103.636
4.7554                 0.5596371         102.866        0.3112474       -21.92204        0.3112475       -21.92205        0.5596372         102.866
4.7568                 0.5567272        102.0968        0.3077884       -22.64695        0.3077885       -22.64695        0.5567273        102.0968
4.7582                 0.5537042        101.3293        0.3043096       -23.36082        0.3043096       -23.36083        0.5537042        101.3293
4.7596                 0.5505707        100.5642        0.3008224       -24.06265        0.3008225       -24.06265        0.5505707        100.5642
4.761                  0.5473308        99.80242        0.2973391       -24.75169        0.2973392        -24.7517        0.5473308        99.80242
4.7624                 0.5439898        99.04458        0.2938719       -25.42759         0.293872       -25.42761        0.5439898        99.04458
4.7638                  0.540554        98.29133        0.2904333       -26.09035        0.2904334       -26.09037         0.540554        98.29133
4.7652                 0.5370305        97.54329        0.2870352       -26.74037        0.2870352       -26.74038        0.5370305        97.54329
4.7666                 0.5334277        96.80094        0.2836889       -27.37844        0.2836889       -27.37847        0.5334276        96.80094
4.768                  0.5297536        96.06461        0.2804049       -28.00582         0.280405       -28.00584        0.5297535        96.06461
4.7694                 0.5260176        95.33454        0.2771924       -28.62411        0.2771924       -28.62414        0.5260175        95.33454
4.7708                 0.5222286        94.61071        0.2740589       -29.23534        0.2740589       -29.23538        0.5222286        94.61074
4.7722                 0.5183959         93.8932        0.2710104       -29.84189        0.2710104       -29.84192        0.5183959         93.8932
4.7736                 0.5145283        93.18164         0.268051       -30.44641         0.268051       -30.44644        0.5145282        93.18164
4.775                   0.510634        92.47569        0.2651825       -31.05183        0.2651825       -31.05186         0.510634        92.47572
4.7764                 0.5067207        91.77479         0.262405       -31.66124        0.2624049       -31.66127        0.5067206        91.77479
4.7778                  0.502795        91.07826        0.2597161       -32.27785        0.2597161       -32.27788        0.5027949        91.07826
