! TOUCHSTONE file generated by CST MICROWAVE STUDIO
! Date and time: Sat Nov 30 13:11:01 2024
! Project name: test_tuning.cst
! Parameters = {airCoaxOuterDiameter=3; chamferAngle=45; chamferWidth=24; connectorLength=10; drillingHoleDiameter=4.1; feedLength=60; flareDiameter=130; flareLength=70; gratingDistance=0; gratingGap=1.90274; outletLength=30; polarizerLength=134; probe1Diameter=1.3; probe1Distance=17.5; probe1Length=12; probe2Diameter=1.3; probe2Distance=0; probe2Length=12; probeLength=12; smaInnerDiameter=1.3; smaOuterDiameter=4.1; transitionCoefficient=1.33; waveguideFeedLength=30; waveguideSide=50; waveguideThickness=3; wireCount=25; wireDiameter=1.17699}
! Header version: 2024
! Port assignment regex: !\s*Touchstone port\s*([0-9]+)\s*=\s*(CST MWS port|CST DES external port|CST DES block port)\s*(.+)\s* \(\"(.*)\"\)(\s*mode\s*([0-9]+))?.*
! Touchstone port assignment:
! Touchstone port 1 = CST MWS port 1 ("Input1")
! Touchstone port 2 = CST MWS port 2 ("Input2")
# GHz S MA R 50
4.6                    0.3770148       -173.8511        0.5689233        59.15151        0.5689233        59.15156        0.3770147       -173.8512
4.6014                 0.3813689        -174.343        0.5690277         58.3629        0.5690278        58.36295        0.3813688       -174.3431
4.6028                 0.3856559       -174.8255        0.5690779        57.57071         0.569078        57.57076        0.3856557       -174.8256
4.6042                 0.3898899       -175.2973        0.5690736        56.77431        0.5690738        56.77434        0.3898897       -175.2974
4.6056                 0.3940873       -175.7576        0.5690132          55.973        0.5690133        55.97303        0.3940871       -175.7576
4.607                  0.3982657       -176.2057        0.5688929        55.16615        0.5688931        55.16618        0.3982655       -176.2057
4.6084                 0.4024437       -176.6416        0.5687078        54.35313         0.568708        54.35316        0.4024435       -176.6417
4.6098                 0.4066406       -177.0658        0.5684512        53.53338        0.5684515         53.5334        0.4066404       -177.0659
4.6112                 0.4108758        -177.479         0.568115        52.70643        0.5681152        52.70645        0.4108756        -177.479
4.6126                 0.4151683       -177.8824        0.5676898        51.87194          0.56769        51.87196        0.4151682       -177.8824
4.614                  0.4195364       -178.2775        0.5671651        51.02973        0.5671654        51.02973        0.4195363       -178.2775
4.6154                 0.4239971       -178.6662        0.5665296        50.17974        0.5665299        50.17973         0.423997       -178.6662
4.6168                 0.4285656       -179.0507        0.5657717        49.32211         0.565772        49.32211        0.4285655       -179.0507
4.6182                 0.4332551       -179.4334        0.5648792         48.4572        0.5648794        48.45718        0.4332549       -179.4334
4.6196                 0.4380763       -179.8169          0.56384        47.58551        0.5638401        47.58551        0.4380762       -179.8169
4.621                  0.4430373        179.7962        0.5626425        46.70781        0.5626426        46.70779        0.4430372        179.7962
4.6224                 0.4481432        179.4032        0.5612759        45.82502         0.561276        45.82499        0.4481431        179.4032
4.6238                 0.4533961        179.0012        0.5597303        44.93826        0.5597304        44.93824        0.4533961        179.0012
4.6252                 0.4587948        178.5879        0.5579971        44.04889        0.5579971        44.04887        0.4587948        178.5879
4.6266                 0.4643353        178.1606        0.5560694         43.1584        0.5560693        43.15837        0.4643353        178.1606
4.628                  0.4700103        177.7171        0.5539422        42.26845         0.553942        42.26842        0.4700103        177.7171
4.6294                 0.4758098        177.2555        0.5516123        41.38085        0.5516122        41.38082        0.4758099        177.2555
4.6308                 0.4817213        176.7739        0.5490792        40.49754         0.549079        40.49751        0.4817214        176.7739
4.6322                 0.4877299        176.2711        0.5463447        39.62054        0.5463444        39.62051          0.48773        176.2711
4.6336                 0.4938184        175.7458         0.543413        38.75194        0.5434128        38.75191        0.4938185        175.7458
4.635                  0.4999683        175.1972         0.540291        37.89389        0.5402908        37.89387        0.4999685        175.1972
4.6364                 0.5061597         174.625        0.5369885        37.04852        0.5369882         37.0485        0.5061599         174.625
4.6378                 0.5123717        174.0289        0.5335175        36.21794        0.5335171        36.21793        0.5123719        174.0289
4.6392                 0.5185829        173.4092        0.5298925        35.40423         0.529892        35.40423        0.5185831        173.4092
4.6406                 0.5247717        172.7662        0.5261306        34.60933        0.5261302        34.60933         0.524772        172.7662
4.642                  0.5309168        172.1005        0.5222511        33.83506        0.5222508        33.83506        0.5309171        172.1005
4.6434                 0.5369971        171.4132        0.5182753        33.08304        0.5182748        33.08305        0.5369975        171.4132
4.6448                 0.5429929        170.7053        0.5142259        32.35472        0.5142254        32.35473        0.5429932        170.7052
4.6462                 0.5488846        169.9779        0.5101271        31.65124        0.5101267        31.65125         0.548885        169.9779
4.6476                  0.554655        169.2325        0.5060042        30.97349        0.5060038         30.9735        0.5546553        169.2325
4.649                  0.5602873        168.4707         0.501883          30.322        0.5018827        30.32202        0.5602878        168.4706
4.6504                 0.5657675        167.6937        0.4977896        29.69697        0.4977893          29.697        0.5657679        167.6937
4.6518                 0.5710821        166.9034        0.4937495         29.0982        0.4937492        29.09823        0.5710824        166.9033
4.6532                 0.5762203        166.1011        0.4897877         28.5251        0.4897874        28.52513        0.5762207        166.1011
4.6546                 0.5811728        165.2887        0.4859279        27.97666        0.4859276        27.97669        0.5811733        165.2886
4.656                  0.5859324        164.4674         0.482192        27.45147        0.4821918        27.45151        0.5859327        164.4674
4.6574                 0.5904931         163.639        0.4785999        26.94773        0.4785997        26.94777        0.5904934         163.639
4.6588                 0.5948514        162.8048        0.4751688        26.46326        0.4751687        26.46329        0.5948517        162.8048
4.6602                  0.599005        161.9662        0.4719131        25.99553         0.471913        25.99557        0.5990053        161.9661
4.6616                  0.602953        161.1243        0.4688437        25.54174        0.4688437        25.54178        0.6029534        161.1243
4.663                  0.6066964        160.2805        0.4659685        25.09884        0.4659685        25.09887        0.6066966        160.2805
4.6644                 0.6102368        159.4357        0.4632913        24.66361        0.4632914        24.66365        0.6102371        159.4357
4.6658                 0.6135772        158.5909        0.4608125        24.23275        0.4608125        24.23278        0.6135775        158.5909
4.6672                 0.6167216        157.7469        0.4585286        23.80291        0.4585287        23.80294        0.6167218        157.7469
4.6686                 0.6196742        156.9045        0.4564328        23.37082        0.4564329        23.37085        0.6196744        156.9044
4.67                     0.62244        156.0641        0.4545147        22.93334        0.4545149        22.93337        0.6224402        156.0641
4.6714                 0.6250244        155.2264        0.4527612        22.48753        0.4527613        22.48755        0.6250247        155.2264
4.6728                 0.6274329        154.3917        0.4511559        22.03072         0.451156        22.03073         0.627433        154.3917
4.6742                 0.6296708        153.5604        0.4496807        21.56055        0.4496809        21.56056        0.6296709        153.5604
4.6756                 0.6317433        152.7326        0.4483153        21.07506        0.4483155        21.07506        0.6317435        152.7326
4.677                  0.6336557        151.9086        0.4470383        20.57266        0.4470384        20.57266        0.6336558        151.9086
4.6784                 0.6354124        151.0884        0.4458272        20.05219        0.4458274        20.05219        0.6354126        151.0883
4.6798                 0.6370178         150.272        0.4446595        19.51294        0.4446597        19.51293        0.6370179         150.272
4.6812                 0.6384756        149.4596        0.4435126        18.95458        0.4435127        18.95457        0.6384756        149.4595
4.6826                 0.6397889         148.651        0.4423646        18.37725        0.4423647        18.37723         0.639789         148.651
4.684                  0.6409606        147.8463        0.4411948        17.78143        0.4411949        17.78141        0.6409606        147.8462
4.6854                 0.6419927        147.0454        0.4399838        17.16798        0.4399839        17.16796        0.6419928        147.0454
4.6868                 0.6428872        146.2483        0.4387142        16.53809        0.4387143        16.53807        0.6428873        146.2483
4.6882                 0.6436452        145.4551        0.4373708        15.89324        0.4373707        15.89321        0.6436453        145.4551
4.6896                 0.6442681        144.6658        0.4359402        15.23512        0.4359401         15.2351        0.6442681        144.6658
4.691                  0.6447563        143.8804        0.4344122        14.56566         0.434412        14.56564        0.6447564        143.8804
4.6924                 0.6451109        143.0991        0.4327787         13.8869        0.4327786        13.88688        0.6451109        143.0991
4.6938                 0.6453323         142.322        0.4310348          13.201        0.4310346        13.20098        0.6453323         142.322
4.6952                 0.6454214        141.5492        0.4291778        12.51016        0.4291776        12.51014        0.6454215        141.5492
4.6966                 0.6453795        140.7811         0.427208         11.8166        0.4272077        11.81658        0.6453796        140.7811
4.698                  0.6452076        140.0178         0.425128        11.12248        0.4251278        11.12246        0.6452078        140.0178
4.6994                 0.6449078        139.2597        0.4229432        10.42989        0.4229429        10.42988        0.6449079        139.2597
4.7008                 0.6444821        138.5071        0.4206607          9.7408        0.4206604        9.740785        0.6444822        138.5071
4.7022                 0.6439336        137.7602        0.4182899        9.056983        0.4182896        9.056974        0.6439337        137.7602
4.7036                 0.6432659        137.0196        0.4158416        8.380032        0.4158413        8.380027         0.643266        137.0196
4.705                   0.642483        136.2854        0.4133283        7.711301         0.413328        7.711299        0.6424832        136.2854
4.7064                 0.6415901         135.558        0.4107633        7.051872         0.410763        7.051874        0.6415902         135.558
4.7078                 0.6405925        134.8378        0.4081608        6.402539        0.4081605        6.402544        0.6405927        134.8378
4.7092                 0.6394968        134.1249        0.4055351         5.76379        0.4055348          5.7638         0.639497        134.1249
4.7106                 0.6383095        133.4196        0.4029007        5.135781        0.4029004        5.135809        0.6383097        133.4196
4.712                  0.6370383        132.7221        0.4002714        4.518409        0.4002711        4.518436        0.6370385        132.7221
4.7134                 0.6356908        132.0324        0.3976607        3.911132        0.3976604        3.911152         0.635691        132.0324
4.7148                 0.6342751        131.3506        0.3950805        3.313213        0.3950802        3.313236        0.6342753        131.3506
4.7162                 0.6327995        130.6766        0.3925416        2.723576        0.3925414        2.723601        0.6327997        130.6766
4.7176                 0.6312721        130.0101        0.3900532        2.140899         0.390053        2.140927        0.6312723        130.0101
4.719                   0.629701        129.3511        0.3876225        1.563638        0.3876222        1.563668        0.6297011         129.351
4.7204                 0.6280939         128.699        0.3852546       0.9900699        0.3852544       0.9901016         0.628094         128.699
4.7218                 0.6264579        128.0535        0.3829527       0.4183424        0.3829525       0.4183753         0.626458        128.0535
4.7232                 0.6247998         127.414        0.3807176      -0.1534719        0.3807174      -0.1534381        0.6247999         127.414
4.7246                  0.623125        126.7799         0.378548      -0.7273227        0.3785479      -0.7272884        0.6231251        126.7799
4.726                  0.6214385        126.1506        0.3764406       -1.305123        0.3764404       -1.305089        0.6214386        126.1506
4.7274                 0.6197439        125.5252        0.3743899       -1.888699        0.3743898       -1.888664        0.6197439        125.5252
4.7288                 0.6180436         124.903        0.3723889       -2.479733        0.3723888       -2.479699        0.6180437        124.9029
4.7302                 0.6163389        124.2831        0.3704289       -3.079724        0.3704288        -3.07969        0.6163391        124.2831
4.7316                 0.6146299        123.6647           0.3685       -3.689941        0.3684999       -3.689908          0.61463        123.6647
4.733                  0.6129152         123.047        0.3665913       -4.311394        0.3665912       -4.311362        0.6129152         123.047
4.7344                  0.611192        122.4291        0.3646913       -4.944811        0.3646913       -4.944781        0.6111921        122.4291
4.7358                 0.6094568        121.8104        0.3627882       -5.590619        0.3627882       -5.590589        0.6094568        121.8104
4.7372                 0.6077042        121.1899        0.3608704       -6.248935        0.3608703       -6.248907        0.6077043        121.1899
4.7386                 0.6059288        120.5672        0.3589262       -6.919574        0.3589262       -6.919547        0.6059288        120.5672
4.74                   0.6041233        119.9416        0.3569451       -7.602051         0.356945       -7.602026        0.6041233        119.9416
4.7414                 0.6022803        119.3128        0.3549172       -8.295603        0.3549171       -8.295579        0.6022803        119.3128
4.7428                 0.6003919        118.6803        0.3528339       -8.999207        0.3528339       -8.999183        0.6003918        118.6803
4.7442                 0.5984494        118.0439        0.3506883       -9.711608        0.3506882       -9.711584        0.5984493        118.0439
4.7456                 0.5964445        117.4036        0.3484746       -10.43136        0.3484746       -10.43134        0.5964444        117.4036
4.747                  0.5943687        116.7594        0.3461892       -11.15685        0.3461891       -11.15683        0.5943686        116.7594
4.7484                 0.5922138        116.1114          0.34383       -11.88635          0.34383       -11.88633        0.5922138        116.1114
4.7498                 0.5899724        115.4599        0.3413971       -12.61806        0.3413971       -12.61804        0.5899723        115.4599
4.7512                 0.5876374        114.8053        0.3388924       -13.35016        0.3388923       -13.35013        0.5876374        114.8053
4.7526                 0.5852028        114.1482        0.3363194       -14.08081        0.3363194       -14.08079        0.5852027        114.1482
4.754                  0.5826636         113.489        0.3336837       -14.80828        0.3336837       -14.80826        0.5826635         113.489
4.7554                 0.5800158        112.8285        0.3309924       -15.53093        0.3309924        -15.5309        0.5800157        112.8285
4.7568                 0.5772568        112.1674         0.328254       -16.24727         0.328254       -16.24725        0.5772567        112.1674
4.7582                 0.5743853        111.5065        0.3254784       -16.95603        0.3254784       -16.95601        0.5743853        111.5065
4.7596                 0.5714015        110.8466        0.3226765       -17.65618        0.3226764       -17.65615        0.5714015        110.8467
4.761                  0.5683066        110.1886        0.3198597       -18.34697        0.3198597       -18.34695        0.5683065        110.1886
4.7624                 0.5651034        109.5332        0.3170403       -19.02798        0.3170403       -19.02795        0.5651034        109.5332
4.7638                  0.561796        108.8812        0.3142305       -19.69911        0.3142304       -19.69909         0.561796        108.8812
4.7652                 0.5583897        108.2333        0.3114422       -20.36066        0.3114422       -20.36063        0.5583896        108.2333
4.7666                 0.5548906        107.5902        0.3086871       -21.01327        0.3086871       -21.01324        0.5548905        107.5902
4.768                  0.5513059        106.9524         0.305976       -21.65798         0.305976       -21.65795        0.5513058        106.9524
4.7694                 0.5476434        106.3203        0.3033184        -22.2962        0.3033184       -22.29617        0.5476435        106.3203
4.7708                 0.5439118        105.6943        0.3007228       -22.92968        0.3007228       -22.92966        0.5439117        105.6943
4.7722                 0.5401193        105.0745        0.2981958       -23.56049        0.2981958       -23.56046        0.5401193        105.0745
4.7736                 0.5362749         104.461        0.2957422       -24.19097        0.2957422       -24.19095        0.5362749         104.461
4.775                  0.5323869        103.8536         0.293365        -24.8237        0.2933651       -24.82367        0.5323869        103.8536
4.7764                 0.5284635         103.252        0.2910651       -25.46139        0.2910651       -25.46137        0.5284634         103.252
4.7778                 0.5245118        102.6558         0.288841        -26.1069        0.2888411       -26.10687        0.5245119        102.6559
