! TOUCHSTONE file generated by CST MICROWAVE STUDIO
! Date and time: Sat Nov 30 13:10:59 2024
! Project name: test_tuning.cst
! Parameters = {airCoaxOuterDiameter=3; chamferAngle=45; chamferWidth=24; connectorLength=10; drillingHoleDiameter=4.1; feedLength=60; flareDiameter=130; flareLength=70; gratingDistance=0; gratingGap=1.90274; outletLength=30; polarizerLength=134; probe1Diameter=1.3; probe1Distance=13; probe1Length=12; probe2Diameter=1.3; probe2Distance=0; probe2Length=12; probeLength=12; smaInnerDiameter=1.3; smaOuterDiameter=4.1; transitionCoefficient=1.33; waveguideFeedLength=30; waveguideSide=50; waveguideThickness=3; wireCount=25; wireDiameter=1.17699}
! Header version: 2024
! Port assignment regex: !\s*Touchstone port\s*([0-9]+)\s*=\s*(CST MWS port|CST DES external port|CST DES block port)\s*(.+)\s* \(\"(.*)\"\)(\s*mode\s*([0-9]+))?.*
! Touchstone port assignment:
! Touchstone port 1 = CST MWS port 1 ("Input1")
! Touchstone port 2 = CST MWS port 2 ("Input2")
# GHz S MA R 50
4.6                    0.1628628       -153.9202        0.6134452        71.30133        0.6134449        71.30129        0.1628629       -153.9204
4.6014                 0.1698101       -154.8615        0.6160878        70.42644        0.6160876         70.4264        0.1698102       -154.8617
4.6028                 0.1768954       -155.7801        0.6187274         69.5332        0.6187271        69.53318        0.1768955       -155.7803
4.6042                 0.1841273       -156.6824        0.6213458        68.62065        0.6213456        68.62061        0.1841273       -156.6826
4.6056                 0.1915127       -157.5743        0.6239231        67.68797        0.6239227        67.68795        0.1915128       -157.5744
4.607                  0.1990573       -158.4612        0.6264376        66.73466        0.6264373        66.73461        0.1990574       -158.4613
4.6084                 0.2067649       -159.3481        0.6288665        65.76039        0.6288662        65.76036         0.206765       -159.3482
4.6098                 0.2146373       -160.2394        0.6311863        64.76517        0.6311859        64.76515        0.2146373       -160.2396
4.6112                 0.2226742       -161.1393        0.6333729         63.7492        0.6333726        63.74917        0.2226743       -161.1394
4.6126                 0.2308738        -162.051        0.6354025        62.71296        0.6354022        62.71293        0.2308739       -162.0511
4.614                  0.2392318       -162.9776        0.6372515        61.65716        0.6372512        61.65712        0.2392319       -162.9777
4.6154                 0.2477422       -163.9216        0.6388975        60.58275        0.6388972        60.58272        0.2477424       -163.9217
4.6168                 0.2563972       -164.8848         0.640319        59.49091        0.6403186        59.49088        0.2563973       -164.8849
4.6182                 0.2651871       -165.8688        0.6414963        58.38296         0.641496        58.38294        0.2651873       -165.8689
4.6196                 0.2741009       -166.8746        0.6424117        57.26046        0.6424114        57.26043        0.2741011       -166.8747
4.621                  0.2831259        -167.903        0.6430495        56.12509        0.6430491        56.12506        0.2831261       -167.9031
4.6224                 0.2922485       -168.9542        0.6433966        54.97864        0.6433962        54.97861        0.2922487       -168.9542
4.6238                 0.3014537       -170.0281        0.6434423        53.82306        0.6434419        53.82304         0.301454       -170.0282
4.6252                 0.3107262       -171.1245        0.6431789        52.66034        0.6431785        52.66033        0.3107265       -171.1246
4.6266                 0.3200496       -172.2429        0.6426016        51.49254        0.6426012        51.49252        0.3200499       -172.2429
4.628                  0.3294074       -173.3823        0.6417083        50.32175        0.6417078        50.32173        0.3294076       -173.3824
4.6294                 0.3387825        -174.542        0.6405002        49.15006        0.6404997        49.15005        0.3387828       -174.5421
4.6308                  0.348158       -175.7208        0.6389811        47.97958        0.6389806        47.97956        0.3481584       -175.7209
4.6322                 0.3575171       -176.9175        0.6371578        46.81233        0.6371573        46.81232        0.3575175       -176.9175
4.6336                 0.3668432       -178.1308        0.6350398        45.65032        0.6350395        45.65031        0.3668436       -178.1308
4.635                    0.37612       -179.3593        0.6326395        44.49542         0.632639        44.49541        0.3761204       -179.3594
4.6364                 0.3853317        179.3983        0.6299711        43.34944        0.6299707        43.34944        0.3853322        179.3982
4.6378                 0.3944633        178.1434        0.6270514        42.21406         0.627051        42.21405        0.3944638        178.1433
4.6392                 0.4035003        176.8773         0.623899        41.09076        0.6238986        41.09076        0.4035008        176.8773
4.6406                 0.4124292        175.6016         0.620534        39.98091        0.6205337        39.98092        0.4124297        175.6016
4.642                  0.4212371        174.3175        0.6169781        38.88566        0.6169777        38.88567        0.4212376        174.3175
4.6434                 0.4299122        173.0264        0.6132536        37.80596        0.6132532        37.80597        0.4299128        173.0264
4.6448                 0.4384435        171.7295        0.6093836        36.74257        0.6093833        36.74257        0.4384441        171.7294
4.6462                 0.4468211         170.428        0.6053916        35.69596        0.6053913        35.69598        0.4468216        170.4279
4.6476                 0.4550357         169.123        0.6013008        34.66643        0.6013006        34.66644        0.4550363        169.1229
4.649                  0.4630793        167.8156         0.597134        33.65399        0.5971337        33.65401          0.46308        167.8156
4.6504                 0.4709447        166.5068        0.5929129        32.65843        0.5929126        32.65845        0.4709453        166.5068
4.6518                 0.4786254        165.1976        0.5886585        31.67929        0.5886583        31.67931         0.478626        165.1975
4.6532                 0.4861159        163.8887          0.58439        30.71587        0.5843899        30.71589        0.4861165        163.8886
4.6546                 0.4934113        162.5809        0.5801248        29.76726        0.5801247        29.76728         0.493412        162.5809
4.656                  0.5005077         161.275        0.5758784        28.83234        0.5758782        28.83237        0.5005083        161.2749
4.6574                 0.5074014        159.9715        0.5716637        27.90981        0.5716636        27.90984         0.507402        159.9714
4.6588                 0.5140895        158.6709        0.5674915        26.99824        0.5674915        26.99826        0.5140902        158.6709
4.6602                 0.5205698        157.3739        0.5633697        26.09603        0.5633697        26.09605        0.5205705        157.3738
4.6616                   0.52684        156.0807        0.5593039        25.20152         0.559304        25.20155        0.5268406        156.0807
4.663                  0.5328985        154.7918        0.5552967        24.31302        0.5552968        24.31304        0.5328991        154.7918
4.6644                 0.5387438        153.5075        0.5513483        23.42878        0.5513484         23.4288        0.5387444        153.5074
4.6658                 0.5443748         152.228        0.5474563        22.54712        0.5474563        22.54715        0.5443754         152.228
4.6672                 0.5497903        150.9536        0.5436161         21.6664        0.5436162        21.66642        0.5497908        150.9536
4.6686                 0.5549892        149.6845        0.5398207        20.78508        0.5398208         20.7851        0.5549898        149.6845
4.67                   0.5599708        148.4209        0.5360616        19.90177        0.5360617        19.90179        0.5599714        148.4208
4.6714                 0.5647341        147.1629        0.5323283        19.01523        0.5323285        19.01525        0.5647346        147.1629
4.6728                 0.5692781        145.9108        0.5286094        18.12442        0.5286097        18.12443        0.5692785        145.9107
4.6742                 0.5736018        144.6646        0.5248924        17.22851        0.5248925        17.22852        0.5736022        144.6645
4.6756                 0.5777047        143.4245         0.521164         16.3269        0.5211642        16.32691         0.577705        143.4244
4.677                  0.5815856        142.1908         0.517411        15.41922        0.5174113        15.41922         0.581586        142.1907
4.6784                 0.5852439        140.9635        0.5136202        14.50534        0.5136204        14.50534        0.5852442        140.9635
4.6798                 0.5886787         139.743        0.5097788         13.5854        0.5097791         13.5854        0.5886791        139.7429
4.6812                 0.5918896        138.5294         0.505875        12.65975        0.5058752        12.65974          0.59189        138.5293
4.6826                 0.5948763         137.323        0.5018975        11.72898        0.5018977        11.72897        0.5948767         137.323
4.684                  0.5976387        136.1241        0.4978369        10.79389        0.4978371        10.79389        0.5976389        136.1241
4.6854                 0.6001769        134.9331        0.4936851        9.855492        0.4936853        9.855483        0.6001772         134.933
4.6868                 0.6024917        133.7502        0.4894357        8.914954        0.4894359        8.914942        0.6024918        133.7502
4.6882                 0.6045839        132.5759        0.4850843        7.973608        0.4850845        7.973595        0.6045842        132.5759
4.6896                 0.6064555        131.4106        0.4806284        7.032908        0.4806285        7.032894        0.6064558        131.4105
4.691                  0.6081086        130.2546        0.4760675        6.094408        0.4760677        6.094394        0.6081088        130.2546
4.6924                  0.609546        129.1085        0.4714033         5.15973        0.4714035        5.159715        0.6095462        129.1085
4.6938                 0.6107714        127.9727        0.4666395         4.23053        0.4666396        4.230515        0.6107715        127.9726
4.6952                  0.611789        126.8476        0.4617817        3.308471        0.4617818        3.308455         0.611789        126.8476
4.6966                 0.6126039        125.7338        0.4568376        2.395182        0.4568376        2.395167        0.6126041        125.7338
4.698                  0.6132223        124.6316        0.4518162        1.492234        0.4518163        1.492219        0.6132224        124.6316
4.6994                 0.6136508        123.5416        0.4467287       0.6010996        0.4467287       0.6010849        0.6136508        123.5416
4.7008                  0.613897        122.4642         0.441587      -0.2768781        0.4415871       -0.276892        0.6138971        122.4641
4.7022                 0.6139691        121.3996        0.4364046       -1.140517        0.4364047        -1.14053        0.6139692        121.3996
4.7036                 0.6138763        120.3483        0.4311955       -1.988823        0.4311956       -1.988835        0.6138765        120.3483
4.705                  0.6136283        119.3106        0.4259746       -2.821041        0.4259746       -2.821041        0.6136284        119.3106
4.7064                 0.6132355        118.2866        0.4207566       -3.636589        0.4207566       -3.636589        0.6132356        118.2866
4.7078                 0.6127085        117.2765        0.4155565       -4.435238        0.4155565       -4.435265        0.6127086        117.2765
4.7092                 0.6120589        116.2803        0.4103888       -5.217036        0.4103888       -5.217035         0.612059        116.2803
4.7106                  0.611298        115.2981        0.4052673       -5.982194        0.4052673       -5.982201         0.611298        115.2981
4.712                  0.6104374        114.3297        0.4002047       -6.731353        0.4002047       -6.731358        0.6104375        114.3297
4.7134                 0.6094888        113.3749        0.3952126       -7.465372        0.3952126       -7.465375        0.6094889        113.3749
4.7148                 0.6084636        112.4332         0.390301       -8.185391         0.390301       -8.185394        0.6084637        112.4333
4.7162                 0.6073729        111.5044        0.3854781       -8.892805        0.3854781       -8.892807        0.6073731        111.5045
4.7176                 0.6062273        110.5879        0.3807502       -9.589232        0.3807503       -9.589233        0.6062274         110.588
4.719                  0.6050367        109.6831        0.3761216       -10.27648        0.3761217       -10.27647        0.6050369        109.6831
4.7204                 0.6038102        108.7891        0.3715945       -10.95648        0.3715945       -10.95648        0.6038103        108.7892
4.7218                  0.602556        107.9053        0.3671686       -11.63129        0.3671687       -11.63129        0.6025562        107.9053
4.7232                 0.6012812        107.0306        0.3628419         -12.303        0.3628419         -12.303        0.6012814        107.0306
4.7246                 0.5999916        106.1643        0.3586101       -12.97368        0.3586102       -12.97367        0.5999918        106.1643
4.726                  0.5986917        105.3051        0.3544672       -13.64534        0.3544673       -13.64534        0.5986919        105.3051
4.7274                 0.5973849        104.4522        0.3504053       -14.31987        0.3504054       -14.31987        0.5973851        104.4522
4.7288                 0.5960729        103.6044        0.3464152         -14.999        0.3464153         -14.999        0.5960731        103.6044
4.7302                 0.5947563        102.7607        0.3424863       -15.68423        0.3424864       -15.68423        0.5947565        102.7607
4.7316                 0.5934341          101.92        0.3386074        -16.3768        0.3386075        -16.3768        0.5934343        101.9201
4.733                  0.5921041        101.0815        0.3347664       -17.07767        0.3347665       -17.07768        0.5921043        101.0815
4.7344                 0.5907628        100.2441        0.3309513       -17.78749        0.3309514       -17.78749         0.590763        100.2441
4.7358                 0.5894054        99.40692        0.3271498       -18.50654          0.32715       -18.50654        0.5894057        99.40694
4.7372                 0.5880265         98.5692        0.3233504        -19.2348        0.3233505       -19.23481        0.5880268        98.56923
4.7386                 0.5866195        97.73028         0.319542       -19.97189         0.319542        -19.9719        0.5866198        97.73033
4.74                   0.5851772        96.88957        0.3157145        -20.7171        0.3157146       -20.71711        0.5851775         96.8896
4.7414                 0.5836918        96.04665        0.3118592       -21.46938        0.3118593       -21.46939         0.583692        96.04668
4.7428                 0.5821552        95.20112        0.3079688       -22.22739         0.307969        -22.2274        0.5821554        95.20112
4.7442                 0.5805592        94.35282        0.3040377       -22.98954        0.3040378       -22.98955        0.5805595        94.35285
4.7456                 0.5788959        93.50168        0.3000619       -23.75397         0.300062       -23.75399        0.5788961        93.50171
4.747                  0.5771572        92.64778        0.2960395       -24.51863        0.2960396       -24.51865        0.5771575        92.64781
4.7484                 0.5753359        91.79131        0.2919703       -25.28132        0.2919704       -25.28133         0.575336        91.79134
4.7498                 0.5734251        90.93253        0.2878564       -26.03971        0.2878564       -26.03973        0.5734253        90.93255
4.7512                 0.5714189        90.07192        0.2837014       -26.79143        0.2837015       -26.79145        0.5714191        90.07194
4.7526                 0.5693124        89.20994        0.2795112        -27.5341        0.2795113       -27.53413        0.5693126        89.20997
4.754                  0.5671017        88.34724        0.2752932       -28.26539        0.2752932       -28.26541        0.5671018        88.34729
4.7554                 0.5647839        87.48448        0.2710564       -28.98306        0.2710565       -28.98309        0.5647841        87.48451
4.7568                 0.5623579        86.62235        0.2668112       -29.68509        0.2668113       -29.68511         0.562358        86.62237
4.7582                 0.5598233        85.76167        0.2625693       -30.36966        0.2625694       -30.36967        0.5598234         85.7617
4.7596                 0.5571813        84.90321        0.2583433       -31.03524        0.2583433       -31.03527        0.5571815        84.90324
4.761                  0.5544348        84.04771        0.2541462       -31.68071        0.2541462       -31.68073        0.5544349        84.04773
4.7624                 0.5515873        83.19599        0.2499914       -32.30533        0.2499914       -32.30535        0.5515875        83.19601
4.7638                 0.5486441        82.34872        0.2458925       -32.90883        0.2458925       -32.90885        0.5486442        82.34875
4.7652                 0.5456114        81.50657        0.2418625       -33.49148        0.2418625        -33.4915        0.5456115         81.5066
4.7666                 0.5424965        80.67013        0.2379137       -34.05407        0.2379137       -34.05409        0.5424966        80.67015
4.768                  0.5393073        79.83989        0.2340574       -34.59797        0.2340573       -34.59799        0.5393074        79.83992
4.7694                  0.536053        79.01617        0.2303034       -35.12514        0.2303034       -35.12515        0.5360531         79.0162
4.7708                 0.5327428        78.19928          0.22666       -35.63805          0.22666       -35.63806        0.5327429        78.19931
4.7722                 0.5293861        77.38922        0.2231335       -36.13976        0.2231335       -36.13976        0.5293862        77.38925
4.7736                  0.525993        76.58601        0.2197279       -36.63375        0.2197279       -36.63375        0.5259931        76.58603
4.775                   0.522573        75.78938        0.2164451       -37.12392        0.2164451       -37.12393        0.5225731        75.78941
4.7764                 0.5191351          74.999        0.2132844        -37.6145        0.2132844        -37.6145        0.5191353        74.99905
4.7778                 0.5156882         74.2143        0.2102429       -38.10989        0.2102429       -38.10989        0.5156884        74.21433
