! TOUCHSTONE file generated by CST MICROWAVE STUDIO
! Date and time: Sat Nov 30 13:11:02 2024
! Project name: test_tuning.cst
! Parameters = {airCoaxOuterDiameter=3; chamferAngle=45; chamferWidth=24; connectorLength=10; drillingHoleDiameter=4.1; feedLength=60; flareDiameter=130; flareLength=70; gratingDistance=0; gratingGap=1.90274; outletLength=30; polarizerLength=134; probe1Diameter=1.3; probe1Distance=18.5; probe1Length=12; probe2Diameter=1.3; probe2Distance=0; probe2Length=12; probeLength=12; smaInnerDiameter=1.3; smaOuterDiameter=4.1; transitionCoefficient=1.33; waveguideFeedLength=30; waveguideSide=50; waveguideThickness=3; wireCount=25; wireDiameter=1.17699}
! Header version: 2024
! Port assignment regex: !\s*Touchstone port\s*([0-9]+)\s*=\s*(CST MWS port|CST DES external port|CST DES block port)\s*(.+)\s* \(\"(.*)\"\)(\s*mode\s*([0-9]+))?.*
! Touchstone port assignment:
! Touchstone port 1 = CST MWS port 1 ("Input1")
! Touchstone port 2 = CST MWS port 2 ("Input2")
# GHz S MA R 50
4.6                    0.4075523       -175.6635        0.5630273        57.82164        0.5630272        57.82158        0.4075524       -175.6633
4.6014                 0.4117522       -176.1341        0.5627525        57.01947        0.5627523        57.01941        0.4117525        -176.134
4.6028                 0.4158577       -176.6002        0.5623785        56.21689        0.5623783        56.21685        0.4158581          -176.6
4.6042                 0.4198774       -177.0596        0.5619102        55.41394        0.5619101         55.4139        0.4198781       -177.0595
4.6056                 0.4238227       -177.5107        0.5613518        54.61051        0.5613517        54.61049        0.4238235       -177.5106
4.607                  0.4277073       -177.9522        0.5607067        53.80644        0.5607065        53.80641        0.4277082       -177.9521
4.6084                  0.431547       -178.3828        0.5599772        53.00142        0.5599771         53.0014        0.4315479       -178.3827
4.6098                 0.4353592        -178.802        0.5591643        52.19515        0.5591642        52.19515        0.4353602       -178.8019
4.6112                 0.4391629       -179.2094        0.5582678        51.38729        0.5582679        51.38728        0.4391639       -179.2094
4.6126                 0.4429778       -179.6052        0.5572865        50.57747        0.5572865        50.57748        0.4429788       -179.6052
4.614                  0.4468242       -179.9899        0.5562175        49.76538        0.5562177        49.76538        0.4468252       -179.9899
4.6154                 0.4507221        179.6357        0.5550568        48.95074        0.5550571        48.95075         0.450723        179.6357
4.6168                 0.4546912        179.2702        0.5537995        48.13335        0.5537997        48.13336         0.454692        179.2701
4.6182                   0.45875         178.912        0.5524393        47.31314        0.5524396        47.31315        0.4587507        178.9119
4.6196                 0.4629154        178.5591        0.5509694        46.49013        0.5509699        46.49014         0.462916         178.559
4.621                  0.4672024        178.2093        0.5493825        45.66449        0.5493829         45.6645        0.4672029        178.2092
4.6224                 0.4716235        177.8602        0.5476707        44.83659        0.5476713        44.83659        0.4716238        177.8601
4.6238                 0.4761884        177.5091        0.5458265        44.00691        0.5458271        44.00692        0.4761885         177.509
4.6252                 0.4809038        177.1533        0.5438423        43.17617        0.5438429        43.17617        0.4809038        177.1532
4.6266                 0.4857732        176.7902        0.5417111        42.34524        0.5417117        42.34524        0.4857729        176.7901
4.628                  0.4907968         176.417        0.5394269        41.51517        0.5394276        41.51518        0.4907963        176.4169
4.6294                 0.4959711        176.0313        0.5369849        40.68723        0.5369856        40.68722        0.4959705        176.0311
4.6308                 0.5012897        175.6305        0.5343813        39.86279        0.5343822        39.86277        0.5012888        175.6304
4.6322                 0.5067426        175.2126        0.5316147        39.04343        0.5316156        39.04341        0.5067417        175.2125
4.6336                 0.5123172        174.7756        0.5286848        38.23085        0.5286857        38.23082        0.5123161        174.7755
4.635                  0.5179979        174.3179         0.525594        37.42686        0.5255949        37.42683        0.5179966        174.3178
4.6364                 0.5237668        173.8381        0.5223467        36.63337        0.5223476        36.63333        0.5237655        173.8381
4.6378                 0.5296042        173.3354        0.5189495        35.85234        0.5189503         35.8523        0.5296028        173.3353
4.6392                 0.5354885         172.809        0.5154115        35.08577        0.5154123        35.08571        0.5354869         172.809
4.6406                  0.541397        172.2587        0.5117444        34.33563        0.5117452        34.33557        0.5413955        172.2587
4.642                  0.5473065        171.6845         0.507962        33.60386        0.5079628        33.60379        0.5473049        171.6845
4.6434                  0.553193        171.0866        0.5040807        32.89232        0.5040814        32.89225        0.5531916        171.0866
4.6448                 0.5590332        170.4657        0.5001186        32.20272        0.5001192        32.20264        0.5590317        170.4657
4.6462                 0.5648037        169.8226         0.496096         31.5366        0.4960967        31.53652        0.5648023        169.8227
4.6476                 0.5704822        169.1584         0.492035         30.8953        0.4920355        30.89521        0.5704809        169.1584
4.649                  0.5760475        168.4743        0.4879586        30.27986        0.4879591        30.27976        0.5760463        168.4744
4.6504                 0.5814797        167.7717        0.4838913        29.69104        0.4838917        29.69094        0.5814787        167.7718
4.6518                 0.5867609        167.0522        0.4798578        29.12924        0.4798582        29.12913          0.58676        167.0523
4.6532                 0.5918746        166.3174        0.4758833        28.59448        0.4758837        28.59438        0.5918739        166.3175
4.6546                 0.5968066         165.569        0.4719924        28.08638        0.4719927        28.08628        0.5968062        165.5691
4.656                  0.6015449        164.8087         0.468209        27.60412        0.4682093        27.60401        0.6015445        164.8088
4.6574                 0.6060792        164.0382        0.4645558        27.14643         0.464556        27.14632         0.606079        164.0383
4.6588                 0.6104019        163.2592        0.4610536        26.71161        0.4610537        26.71151        0.6104018        163.2593
4.6602                 0.6145073        162.4735        0.4577209        26.29754        0.4577209        26.29744        0.6145073        162.4736
4.6616                 0.6183919        161.6826        0.4545736        25.90169        0.4545736        25.90159         0.618392        161.6826
4.663                   0.622054         160.888        0.4516246        25.52118        0.4516246        25.52108        0.6220543        160.8881
4.6644                  0.625494        160.0911        0.4488833        25.15282        0.4488831        25.15273        0.6254944        160.0912
4.6658                  0.628714        159.2934        0.4463552        24.79321         0.446355        24.79312        0.6287145        159.2934
4.6672                 0.6317175        158.4959        0.4440425        24.43877        0.4440423        24.43868        0.6317179         158.496
4.6686                 0.6345092        157.6999        0.4419432        24.08584        0.4419429        24.08576        0.6345098        157.6999
4.67                   0.6370955        156.9061        0.4400515         23.7308        0.4400513        23.73073         0.637096        156.9061
4.6714                 0.6394831        156.1155        0.4383582        23.37012        0.4383579        23.37005        0.6394837        156.1155
4.6728                 0.6416797        155.3288        0.4368503        23.00045          0.43685        23.00038        0.6416803        155.3288
4.6742                 0.6436933        154.5464         0.435512         22.6187        0.4355117        22.61865        0.6436939        154.5464
4.6756                 0.6455322        153.7689        0.4343247        22.22215        0.4343244         22.2221        0.6455329        153.7689
4.677                   0.647205        152.9965        0.4332674        21.80842        0.4332671        21.80837        0.6472055        152.9965
4.6784                 0.6487197        152.2295        0.4323175        21.37561        0.4323173        21.37556        0.6487201        152.2294
4.6798                 0.6500842        151.4679        0.4314515        20.92224        0.4314512        20.92221        0.6500845        151.4679
4.6812                 0.6513058        150.7119        0.4306447        20.44736        0.4306444        20.44733        0.6513062        150.7119
4.6826                 0.6523917        149.9613        0.4298727        19.95046        0.4298725        19.95043        0.6523918        149.9613
4.684                  0.6533477        149.2161        0.4291115        19.43152        0.4291113        19.43149        0.6533479        149.2161
4.6854                 0.6541794        148.4761         0.428338        18.89095        0.4283377        18.89093        0.6541795        148.4761
4.6868                 0.6548915        147.7412        0.4275303        18.32963          0.42753        18.32961        0.6548914        147.7411
4.6882                 0.6554878         147.011        0.4266685        17.74876        0.4266683        17.74874        0.6554876         147.011
4.6896                 0.6559714        146.2856        0.4257349        17.14991        0.4257347        17.14989        0.6559711        146.2855
4.691                  0.6563447        145.5646        0.4247141        16.53492        0.4247139        16.53491        0.6563444        145.5646
4.6924                 0.6566096        144.8479        0.4235933         15.9059        0.4235932        15.90589        0.6566092        144.8479
4.6938                 0.6567672        144.1354        0.4223628        15.26511        0.4223627         15.2651        0.6567667        144.1354
4.6952                 0.6568184        143.4271        0.4210156        14.61496        0.4210155        14.61495        0.6568179         143.427
4.6966                 0.6567636        142.7227        0.4195476        13.95792        0.4195475        13.95791        0.6567632        142.7227
4.698                  0.6566035        142.0224        0.4179579        13.29649        0.4179578        13.29649        0.6566031        142.0224
4.6994                 0.6563381        141.3262        0.4162481        12.63316        0.4162481        12.63315        0.6563377        141.3262
4.7008                 0.6559677        140.6342         0.414423        11.97031        0.4144229         11.9703        0.6559673        140.6342
4.7022                 0.6554932        139.9465        0.4124894         11.3102        0.4124893         11.3102        0.6554929        139.9465
4.7036                 0.6549153        139.2633        0.4104568        10.65494        0.4104567        10.65494        0.6549152        139.2633
4.705                  0.6542359        138.5848        0.4083363        10.00639        0.4083362        10.00639        0.6542357        138.5849
4.7064                 0.6534563        137.9113        0.4061412        9.366167        0.4061411        9.366164        0.6534562        137.9114
4.7078                 0.6525795        137.2431        0.4038855        8.735598        0.4038854        8.735597        0.6525795        137.2431
4.7092                 0.6516086        136.5803        0.4015847        8.115689        0.4015847        8.115688        0.6516086        136.5803
4.7106                 0.6505472        135.9233        0.3992546          7.5071        0.3992545          7.5071        0.6505475        135.9233
4.712                  0.6494002        135.2722         0.396911        6.910124         0.396911        6.910125        0.6494004        135.2722
4.7134                 0.6481724        134.6273        0.3945696        6.324736        0.3945696        6.324736        0.6481729        134.6273
4.7148                 0.6468698        133.9888        0.3922455         5.75045        0.3922454        5.750454        0.6468702        133.9888
4.7162                 0.6454982        133.3566        0.3899525        5.186511        0.3899524        5.186516        0.6454989        133.3567
4.7176                 0.6440644         132.731        0.3877031        4.631791         0.387703        4.631797         0.644065         132.731
4.719                   0.642575        132.1118        0.3855079        4.084866        0.3855079        4.084872        0.6425757        132.1118
4.7204                 0.6410371        131.4989        0.3833758        3.544043        0.3833758        3.544051        0.6410378        131.4989
4.7218                 0.6394572        130.8922        0.3813133        3.007417        0.3813133        3.007425         0.639458        130.8922
4.7232                 0.6378421        130.2914        0.3793244        2.472917        0.3793244        2.472926        0.6378429        130.2914
4.7246                 0.6361979         129.696        0.3774108        1.938375        0.3774108        1.938385        0.6361986         129.696
4.726                  0.6345302        129.1057        0.3755718        1.401582        0.3755718        1.401593         0.634531        129.1057
4.7274                  0.632844        128.5199        0.3738042       0.8603585        0.3738042       0.8603696        0.6328446        128.5199
4.7288                 0.6311433        127.9381        0.3721025       0.3126149        0.3721026       0.3126262        0.6311439         127.938
4.7302                 0.6294312        127.3596        0.3704594      -0.2435879        0.3704594      -0.2435766        0.6294318        127.3595
4.7316                 0.6277098        126.7836        0.3688654      -0.8099829        0.3688655      -0.8099714        0.6277103        126.7835
4.733                    0.62598        126.2095        0.3673098       -1.388052          0.36731        -1.38804        0.6259804        126.2094
4.7344                 0.6242414        125.6366        0.3657807       -1.978985        0.3657809       -1.978974        0.6242417        125.6365
4.7358                 0.6224927        125.0641        0.3642653       -2.583655        0.3642654       -2.583645        0.6224929         125.064
4.7372                 0.6207311        124.4913        0.3627504       -3.202597        0.3627505       -3.202588        0.6207312        124.4912
4.7386                 0.6189528        123.9175        0.3612227       -3.835999        0.3612228       -3.835992        0.6189528        123.9174
4.74                    0.617153        123.3421        0.3596693       -4.483706        0.3596695       -4.483699        0.6171529        123.3421
4.7414                  0.615326        122.7647        0.3580781       -5.145227        0.3580783       -5.145222        0.6153258        122.7646
4.7428                 0.6134652        122.1846        0.3564377       -5.819757        0.3564379       -5.819753        0.6134649        122.1845
4.7442                 0.6115634        121.6016        0.3547382         -6.5062        0.3547384       -6.506199        0.6115631        121.6015
4.7456                 0.6096131        121.0154        0.3529712       -7.203205        0.3529714       -7.203206        0.6096127        121.0153
4.747                  0.6076064        120.4258        0.3511301       -7.909204        0.3511303       -7.909206        0.6076058        120.4258
4.7484                 0.6055353        119.8329        0.3492101       -8.622451        0.3492104       -8.622455        0.6055347        119.8328
4.7498                 0.6033922        119.2366        0.3472087       -9.341066        0.3472089       -9.341072        0.6033915        119.2366
4.7512                 0.6011695        118.6374        0.3451252       -10.06309        0.3451254        -10.0631        0.6011689        118.6373
4.7526                 0.5988606        118.0353         0.342961       -10.78655        0.3429613       -10.78656          0.59886        118.0353
4.754                  0.5964593        117.4309          0.34072       -11.50945        0.3407201       -11.50946        0.5964587        117.4309
4.7554                 0.5939604        116.8247        0.3384074       -12.22991        0.3384076       -12.22993        0.5939598        116.8247
4.7568                 0.5913598        116.2173        0.3360308       -12.94616         0.336031       -12.94618        0.5913591        116.2173
4.7582                 0.5886543        115.6094        0.3335992        -13.6566        0.3335994       -13.65662        0.5886538        115.6094
4.7596                 0.5858424        115.0016         0.331123       -14.35984        0.3311232       -14.35986        0.5858419        115.0016
4.761                  0.5829234        114.3948        0.3286139        -15.0548        0.3286141       -15.05482         0.582923        114.3948
4.7624                 0.5798983        113.7896        0.3260843       -15.74067        0.3260845       -15.74069         0.579898        113.7896
4.7638                 0.5767691        113.1869        0.3235472         -16.417        0.3235474       -16.41702        0.5767689        113.1869
4.7652                 0.5735395        112.5874        0.3210159       -17.08371         0.321016       -17.08373        0.5735391        112.5875
4.7666                 0.5702135        111.9918        0.3185032       -17.74111        0.3185034       -17.74114        0.5702134        111.9918
4.768                  0.5667971        111.4006        0.3160219       -18.38993         0.316022       -18.38996         0.566797        111.4007
4.7694                 0.5632966        110.8145        0.3135834       -19.03128        0.3135835       -19.03131        0.5632965        110.8145
4.7708                 0.5597192        110.2338        0.3111982       -19.66667        0.3111983       -19.66669        0.5597193        110.2338
4.7722                 0.5560727        109.6589        0.3088752       -20.29796        0.3088753       -20.29799        0.5560728        109.6589
4.7736                 0.5523648        109.0899        0.3066217       -20.92738        0.3066218       -20.92741        0.5523649        109.0899
4.775                  0.5486037        108.5268        0.3044427       -21.55739        0.3044428       -21.55742        0.5486039        108.5268
4.7764                 0.5447972        107.9696        0.3023413        -22.1907        0.3023414       -22.19073        0.5447974        107.9696
4.7778                 0.5409526        107.4181        0.3003182       -22.83017        0.3003183        -22.8302        0.5409529        107.4181
