! TOUCHSTONE file generated by CST MICROWAVE STUDIO
! Date and time: Sat Nov 30 13:11:02 2024
! Project name: test_tuning.cst
! Parameters = {airCoaxOuterDiameter=3; chamferAngle=45; chamferWidth=24; connectorLength=10; drillingHoleDiameter=4.1; feedLength=60; flareDiameter=130; flareLength=70; gratingDistance=0; gratingGap=1.90274; outletLength=30; polarizerLength=134; probe1Diameter=1.3; probe1Distance=18; probe1Length=12; probe2Diameter=1.3; probe2Distance=0; probe2Length=12; probeLength=12; smaInnerDiameter=1.3; smaOuterDiameter=4.1; transitionCoefficient=1.33; waveguideFeedLength=30; waveguideSide=50; waveguideThickness=3; wireCount=25; wireDiameter=1.17699}
! Header version: 2024
! Port assignment regex: !\s*Touchstone port\s*([0-9]+)\s*=\s*(CST MWS port|CST DES external port|CST DES block port)\s*(.+)\s* \(\"(.*)\"\)(\s*mode\s*([0-9]+))?.*
! Touchstone port assignment:
! Touchstone port 1 = CST MWS port 1 ("Input1")
! Touchstone port 2 = CST MWS port 2 ("Input2")
# GHz S MA R 50
4.6                    0.3929614       -174.7347        0.5658892        58.42783        0.5658907        58.42777        0.3929595       -174.7346
4.6014                 0.3972938       -175.2205        0.5657695        57.63168         0.565771        57.63162         0.397292       -175.2203
4.6028                 0.4015386       -175.7005        0.5655721        56.83407        0.5655737          56.834        0.4015369       -175.7004
4.6042                 0.4057059        -176.173           0.5653        56.03468        0.5653017         56.0346        0.4057044       -176.1729
4.6056                 0.4098085       -176.6363        0.5649555        55.23312        0.5649572        55.23303         0.409807       -176.6362
4.607                   0.413861       -177.0893         0.564539        54.42894        0.5645407        54.42884        0.4138595       -177.0892
4.6084                 0.4178801       -177.5312          0.56405        53.62165        0.5640516        53.62155        0.4178787       -177.5311
4.6098                 0.4218839       -177.9614        0.5634862        52.81079        0.5634879        52.81068        0.4218826       -177.9613
4.6112                 0.4258915       -178.3801        0.5628441        51.99587        0.5628458        51.99575        0.4258902         -178.38
4.6126                 0.4299226       -178.7875        0.5621189        51.17649        0.5621205        51.17637        0.4299214       -178.7874
4.614                   0.433997       -179.1845        0.5613041        50.35233        0.5613057        50.35221        0.4339959       -179.1844
4.6154                 0.4381342       -179.5723        0.5603925        49.52315         0.560394        49.52303        0.4381331       -179.5721
4.6168                 0.4423526       -179.9524        0.5593755        48.68888         0.559377        48.68874        0.4423515       -179.9523
4.6182                 0.4466693        179.6733        0.5582444        47.84955        0.5582459         47.8494        0.4466683        179.6734
4.6196                 0.4510997        179.3026        0.5569895        47.00538        0.5569909        47.00523        0.4510987        179.3027
4.621                  0.4556569        178.9331         0.555601        46.15678        0.5556024        46.15661        0.4556558        178.9332
4.6224                 0.4603512        178.5622        0.5540695        45.30431        0.5540708        45.30414        0.4603502        178.5623
4.6238                 0.4651905        178.1873        0.5523857        44.44877        0.5523869        44.44859        0.4651894        178.1874
4.6252                 0.4701789        177.8056         0.550541        43.59112        0.5505422        43.59093        0.4701778        177.8057
4.6266                 0.4753179        177.4145        0.5485283        42.73252        0.5485294        42.73232        0.4753168        177.4146
4.628                  0.4806054        177.0113        0.5463414        41.87429        0.5463424        41.87409        0.4806043        177.0114
4.6294                  0.486036        176.5937        0.5439756        41.01796        0.5439765        41.01775        0.4860348        176.5938
4.6308                 0.4916012        176.1593        0.5414285        40.16517        0.5414292        40.16497        0.4916001        176.1594
4.6322                 0.4972897        175.7063        0.5386994        39.31774        0.5387002        39.31752        0.4972885        175.7064
4.6336                  0.503087        175.2328          0.53579        38.47755        0.5357906        38.47733        0.5030858        175.2329
4.635                  0.5089767        174.7375        0.5327043         37.6466        0.5327048        37.64639        0.5089756        174.7376
4.6364                   0.51494        174.2194        0.5294488        36.82693        0.5294491        36.82672        0.5149389        174.2195
4.6378                 0.5209565        173.6777        0.5260324        36.02061        0.5260327        36.02039        0.5209554        173.6778
4.6392                 0.5270046         173.112        0.5224668         35.2297        0.5224669        35.22948        0.5270035        173.1121
4.6406                 0.5330614        172.5222        0.5187658         34.4562        0.5187658        34.45599        0.5330605        172.5223
4.642                  0.5391042        171.9086        0.5149458        33.70203        0.5149456        33.70182        0.5391033        171.9087
4.6434                 0.5451098        171.2717        0.5110253        32.96899        0.5110251        32.96879        0.5451089        171.2718
4.6448                 0.5510552        170.6122        0.5070248        32.25869        0.5070245        32.25849        0.5510544        170.6123
4.6462                 0.5569182        169.9311        0.5029665        31.57254        0.5029662        31.57233        0.5569176        169.9313
4.6476                 0.5626779        169.2296         0.498874        30.91168        0.4988736        30.91149        0.5626774        169.2298
4.649                  0.5683141        168.5092        0.4947722        30.27697        0.4947717        30.27679        0.5683137        168.5093
4.6504                 0.5738086        167.7711         0.490686        29.66894        0.4906855        29.66875        0.5738082        167.7713
4.6518                 0.5791444        167.0171        0.4866414        29.08772        0.4866406        29.08755        0.5791442        167.0173
4.6532                  0.584307        166.2488        0.4826633        28.53308        0.4826626        28.53291        0.5843069         166.249
4.6546                 0.5892834        165.4679        0.4787764        28.00436        0.4787757         28.0042        0.5892834         165.468
4.656                  0.5940627         164.676        0.4750041        27.50047        0.4750033        27.50032        0.5940628        164.6762
4.6574                 0.5986365        163.8749        0.4713681         27.0199        0.4713673        27.01976        0.5986367        163.8751
4.6588                 0.6029979        163.0663        0.4678879        26.56073         0.467887         26.5606        0.6029983        163.0665
4.6602                 0.6071425        162.2517        0.4645803        26.12063        0.4645794        26.12051        0.6071431        162.2519
4.6616                 0.6110679        161.4327        0.4614594        25.69693        0.4614585        25.69682        0.6110684        161.4328
4.663                  0.6147729        160.6107        0.4585357        25.28666        0.4585348        25.28656        0.6147736        160.6108
4.6644                 0.6182588         159.787        0.4558164        24.88659        0.4558155        24.88649        0.6182595        159.7871
4.6658                  0.621528         158.963        0.4533048        24.49332        0.4533039        24.49323        0.6215287        158.9631
4.6672                 0.6245842        158.1396        0.4510006        24.10335        0.4509997        24.10327        0.6245849        158.1397
4.6686                 0.6274327        157.3179        0.4488995        23.71319        0.4488986        23.71312        0.6274334         157.318
4.67                   0.6300791        156.4987        0.4469938         23.3194        0.4469929        23.31933          0.63008        156.4988
4.6714                 0.6325306        155.6828        0.4452721        22.91868        0.4452713        22.91862        0.6325313        155.6829
4.6728                 0.6347941        154.8708        0.4437201        22.50798        0.4437193        22.50793        0.6347949        154.8709
4.6742                 0.6368772        154.0632        0.4423207        22.08454        0.4423198        22.08449         0.636878        154.0632
4.6756                 0.6387879        153.2602        0.4410542        21.64595        0.4410534         21.6459        0.6387886        153.2603
4.677                  0.6405335        152.4623        0.4398994        21.19019        0.4398986        21.19015        0.6405341        152.4623
4.6784                 0.6421215        151.6695        0.4388335        20.71569        0.4388328        20.71566        0.6421222        151.6695
4.6798                 0.6435592         150.882        0.4378331        20.22133        0.4378324         20.2213        0.6435596         150.882
4.6812                 0.6448528        150.0996        0.4368745        19.70643        0.4368738        19.70641        0.6448533        150.0996
4.6826                 0.6460085        149.3225        0.4359341        19.17079        0.4359334        19.17077        0.6460089        149.3225
4.684                  0.6470315        148.5504        0.4349891        18.61462        0.4349884        18.61461        0.6470319        148.5504
4.6854                 0.6479265        147.7833        0.4340181        18.03856        0.4340174        18.03855        0.6479268        147.7833
4.6868                 0.6486974         147.021         0.433001        17.44363        0.4330003        17.44362        0.6486977         147.021
4.6882                 0.6493473        146.2633        0.4319198        16.83116        0.4319192        16.83116        0.6493475        146.2634
4.6896                 0.6498789        145.5101        0.4307589        16.20282        0.4307583        16.20281         0.649879        145.5102
4.691                  0.6502938        144.7613         0.429505        15.56048        0.4295044        15.56048        0.6502939        144.7613
4.6924                 0.6505938        144.0167        0.4281474        14.90623        0.4281468        14.90624        0.6505939        144.0167
4.6938                 0.6507796        143.2763        0.4266784        14.24232        0.4266779        14.24232        0.6507797        143.2763
4.6952                 0.6508521          142.54        0.4250932        13.57106        0.4250927        13.57107        0.6508521          142.54
4.6966                 0.6508116        141.8078        0.4233896        12.89484        0.4233891        12.89485        0.6508118        141.8078
4.698                  0.6506588        141.0798        0.4215684        12.21601        0.4215678        12.21602        0.6506589        141.0799
4.6994                  0.650394        140.3562        0.4196327        11.53688        0.4196323         11.5369        0.6503942        140.3563
4.7008                  0.650018         139.637        0.4175887        10.85968        0.4175882         10.8597        0.6500182        139.6371
4.7022                 0.6495319        138.9225        0.4154444        10.18645        0.4154439        10.18647         0.649532        138.9225
4.7036                 0.6489371        138.2128        0.4132099        9.519073        0.4132095        9.519099        0.6489374        138.2129
4.705                  0.6482356        137.5083        0.4108973        8.859194        0.4108969        8.859223        0.6482359        137.5083
4.7064                   0.64743        136.8091        0.4085198        8.208198        0.4085194         8.20823        0.6474303        136.8092
4.7078                 0.6465233        136.1156        0.4060917        7.567175        0.4060914        7.567209        0.6465237        136.1157
4.7092                 0.6455195        135.4281        0.4036281          6.9369        0.4036278        6.936937        0.6455201        135.4281
4.7106                 0.6444232        134.7467        0.4011443        6.317832         0.401144        6.317859        0.6444239        134.7468
4.712                  0.6432396        134.0718        0.3986555        5.710021        0.3986553        5.710048        0.6432403        134.0718
4.7134                 0.6419742        133.4034        0.3961763        5.113254        0.3961761        5.113309         0.641975        133.4035
4.7148                 0.6406334        132.7418        0.3937207        4.526931        0.3937205        4.526972        0.6406342        132.7419
4.7162                 0.6392239         132.087        0.3913011        3.950131         0.391301        3.950171        0.6392247        132.0871
4.7176                 0.6377526         131.439        0.3889287        3.381632        0.3889286        3.381672        0.6377535        131.4391
4.719                  0.6362268        130.7978        0.3866126        2.819943        0.3866125        2.819983        0.6362277        130.7979
4.7204                 0.6346534        130.1632          0.38436        2.263349        0.3843599        2.263387        0.6346544        130.1633
4.7218                 0.6330396        129.5349        0.3821759        1.709953        0.3821759        1.709989        0.6330406         129.535
4.7232                  0.631392        128.9127        0.3800631        1.157735        0.3800631        1.157769         0.631393        128.9127
4.7246                 0.6297167         128.296        0.3780218       0.6046113        0.3780218        0.604643        0.6297178         128.296
4.726                  0.6280196        127.6844        0.3760501      0.04849116        0.3760501      0.04851953        0.6280205        127.6844
4.7274                 0.6263051        127.0773        0.3741437       -0.512659        0.3741438      -0.5126339        0.6263061        127.0773
4.7288                 0.6245773        126.4741        0.3722965       -1.080759        0.3722966       -1.080738        0.6245782        126.4741
4.7302                  0.622839        125.8742        0.3705004       -1.657562        0.3705005       -1.657544        0.6228398        125.8741
4.7316                 0.6210919        125.2766        0.3687457       -2.244602        0.3687459       -2.244589        0.6210926        125.2766
4.733                  0.6193365        124.6808        0.3670216       -2.843159        0.3670218       -2.843152        0.6193372        124.6808
4.7344                 0.6175723        124.0859        0.3653162       -3.454224        0.3653163        -3.45422        0.6175729        124.0859
4.7358                 0.6157972        123.4912        0.3636171       -4.078474        0.3636172       -4.078476        0.6157977        123.4912
4.7372                 0.6140082         122.896        0.3619116       -4.716263        0.3619117       -4.716269        0.6140085        122.8959
4.7386                 0.6122012        122.2996        0.3601873       -5.367613        0.3601874       -5.367624        0.6122015        122.2995
4.74                    0.610371        121.7013        0.3584321       -6.032226        0.3584323        -6.03224        0.6103712        121.7012
4.7414                 0.6085115        121.1006        0.3566349       -6.709484         0.356635       -6.709505        0.6085116        121.1006
4.7428                 0.6066159        120.4971        0.3547855        -7.39849        0.3547857       -7.398514         0.606616        120.4971
4.7442                 0.6046769        119.8905        0.3528753       -8.098071        0.3528754       -8.098099        0.6046768        119.8905
4.7456                 0.6026866        119.2804        0.3508969       -8.806832         0.350897       -8.806863        0.6026864        119.2804
4.747                  0.6006369        118.6668        0.3488451       -9.523182        0.3488452       -9.523215        0.6006367        118.6668
4.7484                 0.5985201        118.0497        0.3467164       -10.24537        0.3467165       -10.24541        0.5985198        118.0497
4.7498                 0.5963282        117.4291        0.3445093       -10.97156        0.3445092        -10.9716        0.5963279        117.4291
4.7512                 0.5940541        116.8053        0.3422241       -11.69984        0.3422241       -11.69988        0.5940537        116.8053
4.7526                 0.5916909        116.1787        0.3398634       -12.42828        0.3398633       -12.42833        0.5916904        116.1787
4.754                  0.5892327        115.5497        0.3374316       -13.15502        0.3374316       -13.15506        0.5892322        115.5497
4.7554                 0.5866744        114.9189         0.334935       -13.87825         0.334935       -13.87829        0.5866739        114.9189
4.7568                 0.5840121        114.2868        0.3323816       -14.59632        0.3323815       -14.59636        0.5840117        114.2868
4.7582                 0.5812432        113.6542        0.3297807       -15.30777        0.3297805       -15.30781        0.5812428        113.6543
4.7596                  0.578366        113.0218         0.327143       -16.01137        0.3271428       -16.01141        0.5783656        113.0219
4.761                  0.5753803        112.3904        0.3244801       -16.70615        0.3244799       -16.70619          0.57538        112.3904
4.7624                 0.5722874        111.7607        0.3218043       -17.39148        0.3218041       -17.39152        0.5722871        111.7608
4.7638                 0.5690895        111.1335        0.3191285       -18.06705        0.3191283       -18.06708        0.5690893        111.1336
4.7652                 0.5657904        110.5096        0.3164652       -18.73294        0.3164649       -18.73297        0.5657903        110.5097
4.7666                 0.5623949        109.8895         0.313827       -19.38959        0.3138266       -19.38962        0.5623948        109.8897
4.768                  0.5589087        109.2741        0.3112254       -20.03787        0.3112251       -20.03789        0.5589087        109.2742
4.7694                 0.5553386        108.6637        0.3086716       -20.67901        0.3086713       -20.67902        0.5553387        108.6638
4.7708                 0.5516918        108.0588        0.3061749       -21.31461        0.3061745       -21.31462        0.5516921        108.0589
4.7722                 0.5479764        107.4596        0.3037433       -21.94665        0.3037429       -21.94665        0.5479768        107.4597
4.7736                 0.5442003        106.8664         0.301383       -22.57737        0.3013826       -22.57737        0.5442008        106.8666
4.775                  0.5403717        106.2792        0.2990982       -23.20931        0.2990979        -23.2093        0.5403723        106.2793
4.7764                 0.5364985        105.6978        0.2968911       -23.84518        0.2968907       -23.84517        0.5364992        105.6979
4.7778                 0.5325882        105.1219        0.2947614       -24.48784        0.2947611       -24.48782        0.5325889        105.1221
