! TOUCHSTONE file generated by CST MICROWAVE STUDIO
! Date and time: Sat Nov 30 13:11:03 2024
! Project name: test_tuning.cst
! Parameters = {airCoaxOuterDiameter=3; chamferAngle=45; chamferWidth=24; connectorLength=10; drillingHoleDiameter=4.1; feedLength=60; flareDiameter=130; flareLength=70; gratingDistance=0; gratingGap=1.90274; outletLength=30; polarizerLength=134; probe1Diameter=1.3; probe1Distance=20; probe1Length=12; probe2Diameter=1.3; probe2Distance=0; probe2Length=12; probeLength=12; smaInnerDiameter=1.3; smaOuterDiameter=4.1; transitionCoefficient=1.33; waveguideFeedLength=30; waveguideSide=50; waveguideThickness=3; wireCount=25; wireDiameter=1.17699}
! Header version: 2024
! Port assignment regex: !\s*Touchstone port\s*([0-9]+)\s*=\s*(CST MWS port|CST DES external port|CST DES block port)\s*(.+)\s* \(\"(.*)\"\)(\s*mode\s*([0-9]+))?.*
! Touchstone port assignment:
! Touchstone port 1 = CST MWS port 1 ("Input1")
! Touchstone port 2 = CST MWS port 2 ("Input2")
# GHz S MA R 50
4.6                    0.4434645       -177.8163        0.5558203        56.97188          0.55582        56.97185        0.4434648       -177.8163
4.6014                 0.4477444       -178.2168        0.5557603        56.15559        0.5557599        56.15556        0.4477446       -178.2168
4.6028                 0.4519494       -178.6257        0.5555325         55.3314        0.5555322        55.33138        0.4519497       -178.6257
4.6042                   0.45607       -179.0411        0.5551307        54.50067        0.5551304        54.50064        0.4560703       -179.0411
4.6056                  0.460099       -179.4607        0.5545502        53.66474        0.5545499        53.66472        0.4600994       -179.4607
4.607                  0.4640326       -179.8826        0.5537881        52.82502        0.5537876        52.82501        0.4640331       -179.8826
4.6084                 0.4678699        179.6957        0.5528428         51.9829        0.5528426        51.98288        0.4678704        179.6957
4.6098                 0.4716135        179.2763        0.5517149        51.13972        0.5517146         51.1397         0.471614        179.2763
4.6112                 0.4752691        178.8611        0.5504059        50.29681        0.5504055         50.2968        0.4752697        178.8611
4.6126                  0.478846        178.4522        0.5489185        49.45545        0.5489181        49.45545        0.4788467        178.4522
4.614                  0.4823567         178.051         0.547257        48.61686        0.5472565        48.61686        0.4823574         178.051
4.6154                 0.4858164        177.6591        0.5454264        47.78216        0.5454259        47.78216         0.485817        177.6591
4.6168                 0.4892427        177.2774        0.5434325        46.95244        0.5434321        46.95244        0.4892434        177.2773
4.6182                 0.4926558        176.9064        0.5412819        46.12868        0.5412815        46.12868        0.4926565        176.9064
4.6196                 0.4960772        176.5466        0.5389817        45.31179        0.5389813        45.31179        0.4960779        176.5465
4.621                  0.4995295        176.1975        0.5365394        44.50261        0.5365389        44.50262        0.4995302        176.1975
4.6224                 0.5030359        175.8586        0.5339624        43.70191        0.5339619        43.70192        0.5030366        175.8586
4.6238                 0.5066193        175.5288        0.5312584        42.91039        0.5312581         42.9104          0.50662        175.5288
4.6252                 0.5103016        175.2066        0.5284354        42.12868        0.5284351        42.12869        0.5103022        175.2066
4.6266                 0.5141032          174.89        0.5255008        41.35737        0.5255004        41.35738        0.5141038          174.89
4.628                  0.5180422        174.5768         0.522462        40.59703        0.5224617        40.59704        0.5180428        174.5768
4.6294                 0.5221341        174.2644        0.5193264        39.84817        0.5193261        39.84819        0.5221347        174.2644
4.6308                 0.5263909        173.9501        0.5161012        39.11132        0.5161009        39.11133        0.5263915          173.95
4.6322                  0.530821        173.6309        0.5127931        38.38695        0.5127928        38.38697        0.5308214        173.6308
4.6336                 0.5354282        173.3038         0.509409         37.6756        0.5094088        37.67562        0.5354285        173.3037
4.635                  0.5402123        172.9658        0.5059558        36.97778        0.5059556         36.9778        0.5402126        172.9657
4.6364                 0.5451687         172.614        0.5024402        36.29403        0.5024399        36.29405         0.545169        172.6139
4.6378                 0.5502884        172.2457         0.498869        35.62491        0.4988688        35.62494        0.5502887        172.2456
4.6392                  0.555558        171.8584        0.4952495        34.97102        0.4952493        34.97104        0.5555582        171.8583
4.6406                 0.5609601        171.4499        0.4915891        34.33296        0.4915889        34.33299        0.5609602        171.4498
4.642                  0.5664736        171.0184        0.4878956        33.71136        0.4878954        33.71138        0.5664738        171.0183
4.6434                 0.5720748        170.5624        0.4841775        33.10686        0.4841773        33.10689         0.572075        170.5623
4.6448                 0.5777367        170.0808        0.4804438         32.5201        0.4804436        32.52013        0.5777368        170.0808
4.6462                 0.5834306        169.5731        0.4767043         31.9517        0.4767041        31.95172        0.5834306         169.573
4.6476                 0.5891262        169.0389        0.4729694        31.40222        0.4729692        31.40225        0.5891264        169.0389
4.649                  0.5947926        168.4786        0.4692502        30.87219        0.4692501        30.87222        0.5947927        168.4786
4.6504                 0.6003985        167.8926        0.4655587        30.36205        0.4655586        30.36208        0.6003986        167.8926
4.6518                 0.6059129        167.2819        0.4619075         29.8721        0.4619074        29.87213        0.6059131        167.2819
4.6532                 0.6113062        166.6476        0.4583097        29.40253        0.4583096        29.40255        0.6113064        166.6476
4.6546                   0.61655        165.9914        0.4547789        28.95334        0.4547788        28.95337        0.6165502        165.9914
4.656                  0.6216179        165.3151        0.4513291        28.52433         0.451329        28.52436        0.6216182         165.315
4.6574                 0.6264859        164.6204        0.4479741        28.11508         0.447974        28.11511        0.6264862        164.6204
4.6588                 0.6311326        163.9096         0.444728        27.72492        0.4447279        27.72495         0.631133        163.9096
4.6602                 0.6355402         163.185        0.4416041        27.35293         0.441604        27.35295        0.6355405         163.185
4.6616                 0.6396933        162.4487        0.4386152        26.99787        0.4386152        26.99789        0.6396937        162.4487
4.663                  0.6435805        161.7033        0.4357731        26.65826        0.4357731        26.65828        0.6435809        161.7033
4.6644                 0.6471936        160.9509        0.4330883        26.33232        0.4330882        26.33234         0.647194        160.9509
4.6658                 0.6505281        160.1939        0.4305696          26.018        0.4305696        26.01802        0.6505286        160.1939
4.6672                 0.6535827        159.4345        0.4282243        25.71301        0.4282243        25.71303        0.6535832        159.4345
4.6686                 0.6563596        158.6749        0.4260572        25.41487        0.4260572        25.41489          0.65636        158.6749
4.67                   0.6588637         157.917         0.424071        25.12088         0.424071         25.1209        0.6588642         157.917
4.6714                 0.6611033        157.1627        0.4222659        24.82827        0.4222658        24.82828        0.6611039        157.1626
4.6728                 0.6630891        156.4135        0.4206394        24.53417        0.4206394        24.53419        0.6630897        156.4135
4.6742                  0.664834        155.6711        0.4191865        24.23572        0.4191865        24.23573        0.6648346        155.6711
4.6756                 0.6663528        154.9366        0.4178996        23.93012        0.4178995        23.93013        0.6663533        154.9366
4.677                  0.6676619         154.211        0.4167685        23.61468        0.4167684        23.61469        0.6676624         154.211
4.6784                 0.6687787        153.4952        0.4157807         23.2869        0.4157806        23.28692        0.6687792        153.4952
4.6798                 0.6697212        152.7897        0.4149215        22.94453        0.4149215        22.94455        0.6697217        152.7896
4.6812                 0.6705079        152.0947        0.4141745         22.5856        0.4141745        22.58561        0.6705084        152.0947
4.6826                 0.6711567        151.4105        0.4135217        22.20844        0.4135216        22.20845        0.6711572        151.4105
4.684                  0.6716852         150.737        0.4129438        21.81179        0.4129438        21.81181        0.6716856        150.7369
4.6854                 0.6721097        150.0737        0.4124212        21.39474        0.4124211        21.39476        0.6721101        150.0737
4.6868                 0.6724456        149.4202        0.4119333        20.95679        0.4119334         20.9568         0.672446        149.4202
4.6882                 0.6727063         148.776        0.4114603        20.49782        0.4114603        20.49783        0.6727067        148.7759
4.6896                 0.6729036        148.1401        0.4109822         20.0181        0.4109822        20.01812        0.6729038        148.1401
4.691                  0.6730469        147.5118        0.4104803        19.51829        0.4104803        19.51831        0.6730472        147.5118
4.6924                 0.6731439        146.8902        0.4099371        18.99937        0.4099371        18.99939        0.6731441        146.8901
4.6938                 0.6731996        146.2742        0.4093364        18.46264        0.4093364        18.46266        0.6731999        146.2742
4.6952                 0.6732174        145.6629        0.4086641        17.90968        0.4086642         17.9097        0.6732176        145.6629
4.6966                  0.673198        145.0554        0.4079082        17.34231        0.4079083        17.34232        0.6731982        145.0554
4.698                  0.6731406        144.4509        0.4070589        16.76252        0.4070589        16.76254        0.6731407        144.4509
4.6994                 0.6730422        143.8485        0.4061087        16.17248        0.4061088         16.1725        0.6730425        143.8484
4.7008                 0.6728989        143.2475        0.4050531        15.57443        0.4050531        15.57444         0.672899        143.2474
4.7022                 0.6727049        142.6474        0.4038896        14.97067        0.4038897        14.97069         0.672705        142.6473
4.7036                 0.6724538        142.0477        0.4026186        14.36351        0.4026186        14.36352        0.6724538        142.0477
4.705                  0.6721385        141.4482        0.4012429        13.75519        0.4012429         13.7552        0.6721387        141.4482
4.7064                  0.671752        140.8488        0.3997676        13.14787        0.3997676        13.14788        0.6717522        140.8488
4.7078                 0.6712871        140.2495           0.3982        12.54358        0.3982001        12.54358        0.6712872        140.2495
4.7092                 0.6707367        139.6504        0.3965495        11.94414        0.3965495        11.94414        0.6707369        139.6504
4.7106                 0.6700951        139.0519         0.394827        11.35116         0.394827        11.35116        0.6700952        139.0519
4.712                  0.6693569        138.4544        0.3930449        10.76601        0.3930449        10.76601        0.6693571        138.4544
4.7134                 0.6685184        137.8582        0.3912165        10.18973        0.3912166        10.18973        0.6685185        137.8582
4.7148                 0.6675768        137.2642        0.3893563        9.623074        0.3893563        9.623018        0.6675771        137.2642
4.7162                 0.6665313        136.6728        0.3874786        9.066382        0.3874786        9.066382        0.6665315        136.6728
4.7176                 0.6653825        136.0847        0.3855978          8.5198        0.3855979        8.519793        0.6653828        136.0847
4.719                  0.6641323        135.5007        0.3837281        7.982986        0.3837281        7.982979        0.6641326        135.5007
4.7204                 0.6627848        134.9213        0.3818828        7.455299        0.3818828        7.455291        0.6627851        134.9213
4.7218                 0.6613448        134.3472        0.3800737        6.935768        0.3800737        6.935761        0.6613451        134.3472
4.7232                 0.6598193        133.7789        0.3783116        6.423116        0.3783115        6.423109        0.6598196        133.7789
4.7246                 0.6582159        133.2169        0.3766052        5.915795        0.3766051        5.915789        0.6582163        133.2169
4.726                  0.6565432        132.6614        0.3749614        5.412035        0.3749613         5.41203        0.6565436        132.6614
4.7274                 0.6548109        132.1127        0.3733848        4.909893        0.3733847         4.90989        0.6548112        132.1127
4.7288                 0.6530286        131.5709        0.3718778        4.407309        0.3718777        4.407308         0.653029        131.5709
4.7302                 0.6512063        131.0358        0.3704403        3.902171        0.3704402        3.902173        0.6512067        131.0358
4.7316                 0.6493537        130.5073        0.3690702        3.392376          0.36907         3.39238        0.6493541        130.5073
4.733                    0.64748         129.985        0.3677628        2.875895        0.3677626        2.875902        0.6474804         129.985
4.7344                 0.6455937        129.4683        0.3665117        2.350832        0.3665116        2.350842        0.6455941        129.4683
4.7358                  0.643702        128.9567        0.3653086        1.815478        0.3653084        1.815492        0.6437023        128.9566
4.7372                 0.6418108        128.4493        0.3641435        1.268363        0.3641433        1.268381        0.6418112        128.4493
4.7386                 0.6399247        127.9453        0.3630053       0.7082924        0.3630052       0.7083145        0.6399251        127.9453
4.74                   0.6380465        127.4439        0.3618821       0.1343798         0.361882       0.1344058        0.6380469        127.4439
4.7414                  0.636177         126.944        0.3607614      -0.4539349        0.3607613      -0.4539052        0.6361773         126.944
4.7428                 0.6343153        126.4447        0.3596305       -1.056874        0.3596304       -1.056841        0.6343157        126.4447
4.7442                 0.6324589         125.945         0.358477       -1.674322        0.3584769       -1.674285        0.6324593         125.945
4.7456                 0.6306032         125.444         0.357289       -2.305836        0.3572889       -2.305797        0.6306036         125.444
4.747                  0.6287421        124.9409        0.3560558       -2.950666        0.3560557       -2.950624        0.6287426        124.9409
4.7484                 0.6268681        124.4349        0.3547675       -3.607777        0.3547675       -3.607732        0.6268685        124.4349
4.7498                 0.6249723        123.9254        0.3534161       -4.275885        0.3534161        -4.27584        0.6249727        123.9254
4.7512                 0.6230448        123.4118        0.3519951       -4.953498         0.351995       -4.953451        0.6230453        123.4118
4.7526                 0.6210754        122.8939        0.3504997       -5.638957        0.3504997        -5.63891        0.6210759        122.8939
4.754                   0.619053        122.3714        0.3489274        -6.33048        0.3489275       -6.330434        0.6190534        122.3714
4.7554                 0.6169666        121.8444        0.3472777       -7.026223        0.3472778       -7.026177         0.616967        121.8444
4.7568                 0.6148057         121.313         0.345552       -7.724323        0.3455521       -7.724278        0.6148061         121.313
4.7582                 0.6125599        120.7776         0.343754       -8.422952        0.3437541       -8.422909        0.6125604        120.7775
4.7596                 0.6102203        120.2385         0.341889       -9.120374        0.3418892       -9.120332        0.6102208        120.2385
4.761                  0.6077785        119.6966        0.3399644       -9.814993        0.3399646       -9.814955         0.607779        119.6966
4.7624                 0.6052278        119.1524        0.3379889       -10.50541        0.3379891       -10.50538        0.6052283        119.1524
4.7638                 0.6025631         118.607        0.3359728       -11.19047         0.335973       -11.19044        0.6025635        118.6069
4.7652                 0.5997808        118.0611        0.3339273       -11.86928        0.3339275       -11.86925        0.5997813        118.0611
4.7666                 0.5968794        117.5158        0.3318645        -12.5413        0.3318647       -12.54128        0.5968799        117.5158
4.768                  0.5938589        116.9722        0.3297967       -13.20632        0.3297969        -13.2063        0.5938594        116.9722
4.7694                 0.5907215        116.4313        0.3277366        -13.8645        0.3277368       -13.86449        0.5907219        116.4312
4.7708                 0.5874707         115.894        0.3256963       -14.51641        0.3256965        -14.5164        0.5874713         115.894
4.7722                 0.5841122        115.3613        0.3236874       -15.16299        0.3236876       -15.16299        0.5841127        115.3613
4.7736                  0.580653         114.834        0.3217204       -15.80557        0.3217206       -15.80557        0.5806535         114.834
4.775                   0.577101        114.3129        0.3198045       -16.44584        0.3198047       -16.44584        0.5771015        114.3129
4.7764                 0.5734656        113.7986        0.3179473        -17.0858        0.3179475       -17.08581        0.5734661        113.7986
4.7778                 0.5697565        113.2915        0.3161544       -17.72775        0.3161546       -17.72776         0.569757        113.2915
