! TOUCHSTONE file generated by CST MICROWAVE STUDIO
! Date and time: Sat Nov 30 13:11:00 2024
! Project name: test_tuning.cst
! Parameters = {airCoaxOuterDiameter=3; chamferAngle=45; chamferWidth=24; connectorLength=10; drillingHoleDiameter=4.1; feedLength=60; flareDiameter=130; flareLength=70; gratingDistance=0; gratingGap=1.90274; outletLength=30; polarizerLength=134; probe1Diameter=1.3; probe1Distance=16; probe1Length=12; probe2Diameter=1.3; probe2Distance=0; probe2Length=12; probeLength=12; smaInnerDiameter=1.3; smaOuterDiameter=4.1; transitionCoefficient=1.33; waveguideFeedLength=30; waveguideSide=50; waveguideThickness=3; wireCount=25; wireDiameter=1.17699}
! Header version: 2024
! Port assignment regex: !\s*Touchstone port\s*([0-9]+)\s*=\s*(CST MWS port|CST DES external port|CST DES block port)\s*(.+)\s* \(\"(.*)\"\)(\s*mode\s*([0-9]+))?.*
! Touchstone port assignment:
! Touchstone port 1 = CST MWS port 1 ("Input1")
! Touchstone port 2 = CST MWS port 2 ("Input2")
# GHz S MA R 50
4.6                     0.320031       -170.2485        0.5816383        61.92951        0.5816401        61.92953        0.3200295       -170.2486
4.6014                 0.3249501       -170.7332        0.5824764        61.13089        0.5824782        61.13089        0.3249485       -170.7333
4.6028                 0.3298956       -171.2084        0.5832881        60.32298        0.5832899        60.32297         0.329894       -171.2085
4.6042                 0.3348822       -171.6748        0.5840653        59.50483         0.584067         59.5048        0.3348805       -171.6749
4.6056                 0.3399243       -172.1338        0.5847977        58.67559        0.5847995        58.67555        0.3399227       -172.1339
4.607                  0.3450358        -172.587        0.5854737        57.83457        0.5854753        57.83453        0.3450341        -172.587
4.6084                 0.3502293       -173.0361        0.5860797         56.9812        0.5860812        56.98115        0.3502277       -173.0362
4.6098                 0.3555164       -173.4833        0.5866009        56.11511        0.5866024        56.11506        0.3555147       -173.4834
4.6112                 0.3609069       -173.9308        0.5870218        55.23612        0.5870232        55.23605        0.3609052       -173.9309
4.6126                 0.3664088       -174.3809         0.587326        54.34426        0.5873273        54.34418        0.3664071        -174.381
4.614                  0.3720282       -174.8361        0.5874969        53.43977        0.5874981        53.43969        0.3720266        -174.836
4.6154                  0.377769       -175.2985        0.5875178        52.52314        0.5875189        52.52306        0.3777675       -175.2985
4.6168                  0.383633       -175.7707        0.5873724        51.59507        0.5873734        51.59498        0.3836315       -175.7706
4.6182                 0.3896197       -176.2547        0.5870453        50.65644        0.5870462        50.65636        0.3896183       -176.2547
4.6196                 0.3957264       -176.7527        0.5865221        49.70841         0.586523        49.70831         0.395725       -176.7526
4.621                  0.4019481       -177.2665        0.5857897        48.75228        0.5857905        48.75217        0.4019469       -177.2664
4.6224                  0.408278       -177.7978         0.584837        47.78955        0.5848376        47.78945        0.4082769       -177.7977
4.6238                 0.4147074       -178.3479        0.5836545         46.8219        0.5836551         46.8218        0.4147064       -178.3478
4.6252                 0.4212257        -178.918        0.5822351        45.85114        0.5822356        45.85105        0.4212249       -178.9179
4.6266                 0.4278212       -179.5091        0.5805742        44.87923        0.5805747        44.87914        0.4278204        -179.509
4.628                  0.4344804        179.8783        0.5786697        43.90818        0.5786701         43.9081        0.4344798        179.8784
4.6294                 0.4411892        179.2437        0.5765222        42.94014        0.5765224        42.94005        0.4411888        179.2439
4.6308                 0.4479327        178.5871        0.5741349        41.97724        0.5741351        41.97716        0.4479324        178.5873
4.6322                 0.4546954        177.9086        0.5715139        41.02169        0.5715141        41.02161        0.4546952        177.9087
4.6336                 0.4614614        177.2084        0.5686682        40.07565        0.5686683        40.07558        0.4614613        177.2085
4.635                  0.4682149         176.487        0.5656094        39.14127        0.5656095        39.14121         0.468215        176.4871
4.6364                 0.4749402        175.7452        0.5623517        38.22062        0.5623516        38.22055        0.4749403        175.7453
4.6378                 0.4816219        174.9837        0.5589115        37.31564        0.5589115        37.31558        0.4816222        174.9837
4.6392                 0.4882451        174.2034         0.555308        36.42818        0.5553079        36.42813        0.4882455        174.2034
4.6406                 0.4947957        173.4054        0.5515619        35.55989        0.5515617        35.55984        0.4947961        173.4054
4.642                  0.5012602        172.5907        0.5476956        34.71223        0.5476955        34.71219        0.5012608        172.5907
4.6434                 0.5076262        171.7605        0.5437333        33.88643        0.5437333        33.88639        0.5076268        171.7606
4.6448                  0.513882         170.916           0.5397        33.08346        0.5396998        33.08343        0.5138826         170.916
4.6462                 0.5200172        170.0584        0.5356212          32.304         0.535621        32.30397        0.5200179        170.0584
4.6476                 0.5260224        169.1888        0.5315228        31.54841        0.5315227        31.54838        0.5260231        169.1888
4.649                   0.531889        168.3083        0.5274306        30.81672        0.5274305        30.81671        0.5318896        168.3083
4.6504                 0.5376097        167.4182        0.5233694        30.10864        0.5233694        30.10863        0.5376103        167.4182
4.6518                 0.5431783        166.5195        0.5193635        29.42349        0.5193635        29.42348        0.5431789        166.5195
4.6532                 0.5485892        165.6132        0.5154353        28.76026        0.5154352        28.76025        0.5485898        165.6132
4.6546                  0.553838        164.7003        0.5116051        28.11758        0.5116052        28.11757        0.5538386        164.7003
4.656                  0.5589212        163.7818        0.5078915        27.49377        0.5078916        27.49376        0.5589216        163.7817
4.6574                 0.5638357        162.8584        0.5043101        26.88683        0.5043101        26.88683         0.563836        162.8583
4.6588                 0.5685792        161.9308        0.5008735        26.29451        0.5008735        26.29451        0.5685796        161.9308
4.6602                 0.5731502        160.9999        0.4975913        25.71433        0.4975914        25.71433        0.5731504        160.9999
4.6616                 0.5775473        160.0663        0.4944699        25.14364          0.49447        25.14364        0.5775474        160.0662
4.663                  0.5817695        159.1305        0.4915121        24.57968        0.4915121        24.57968        0.5817695        159.1304
4.6644                 0.5858162        158.1929        0.4887173        24.01964        0.4887174        24.01964        0.5858163        158.1928
4.6658                 0.5896869        157.2541        0.4860818        23.46071         0.486082        23.46071        0.5896868        157.2541
4.6672                 0.5933812        156.3146        0.4835987        22.90016        0.4835988        22.90016         0.593381        156.3145
4.6686                 0.5968987        155.3746        0.4812578         22.3354        0.4812579         22.3354        0.5968985        155.3745
4.67                   0.6002389        154.4344        0.4790467        21.76402        0.4790469        21.76402        0.6002388        154.4344
4.6714                 0.6034016        153.4945        0.4769506        21.18386        0.4769508        21.18385        0.6034014        153.4944
4.6728                 0.6063863         152.555        0.4749525        20.59302        0.4749527        20.59301        0.6063859        152.5549
4.6742                  0.609192        151.6163        0.4730344        19.98994        0.4730346        19.98994        0.6091917        151.6163
4.6756                 0.6118182        150.6787        0.4711769        19.37339        0.4711771        19.37338        0.6118179        150.6786
4.677                  0.6142643        149.7424        0.4693601        18.74248        0.4693603        18.74248         0.614264        149.7423
4.6784                 0.6165293        148.8077        0.4675641        18.09672        0.4675643        18.09671        0.6165289        148.8077
4.6798                 0.6186124         147.875        0.4657692        17.43592        0.4657694        17.43591        0.6186122         147.875
4.6812                 0.6205133        146.9446        0.4639565        16.76026        0.4639566        16.76026        0.6205129        146.9446
4.6826                 0.6222309        146.0169         0.462108        16.07026        0.4621082        16.07025        0.6222307        146.0169
4.684                  0.6237654        145.0922        0.4602075        15.36671        0.4602076        15.36671        0.6237652        145.0922
4.6854                 0.6251165        144.1711        0.4582402         14.6507        0.4582403         14.6507        0.6251164        144.1711
4.6868                 0.6262847        143.2538        0.4561934        13.92354        0.4561935        13.92354        0.6262846        143.2538
4.6882                 0.6272708        142.3409        0.4540566        13.18675        0.4540567        13.18674        0.6272708        142.3409
4.6896                 0.6280762         141.433        0.4518216        12.44199        0.4518217        12.44199        0.6280763         141.433
4.691                   0.628703        140.5304        0.4494825        11.69107        0.4494826        11.69108        0.6287032        140.5304
4.6924                 0.6291537        139.6338         0.447036        10.93589        0.4470361         10.9359        0.6291539        139.6338
4.6938                 0.6294318        138.7437        0.4444812        10.17836        0.4444812        10.17837        0.6294321        138.7437
4.6952                 0.6295412        137.8605        0.4418195        9.420422        0.4418196         9.42043        0.6295416        137.8605
4.6966                 0.6294872        136.9848        0.4390545        8.663954        0.4390546        8.663965        0.6294877        136.9848
4.698                  0.6292751        136.1172        0.4361922        7.910776        0.4361922        7.910789        0.6292758        136.1172
4.6994                 0.6289118        135.2581        0.4332402        7.162585        0.4332403          7.1626        0.6289126        135.2581
4.7008                 0.6284044        134.4079         0.430208        6.420935        0.4302081        6.420952         0.628405        134.4079
4.7022                 0.6277608        133.5671        0.4271066        5.687191        0.4271067         5.68721        0.6277616         133.567
4.7036                 0.6269896        132.7359        0.4239478        4.962516        0.4239481        4.962535        0.6269905        132.7358
4.705                  0.6261002        131.9146        0.4207449        4.247826         0.420745        4.247848        0.6261011        131.9146
4.7064                 0.6251024        131.1035        0.4175111        3.543788        0.4175113         3.54381        0.6251031        131.1034
4.7078                 0.6240057        130.3026        0.4142602        2.850788        0.4142604        2.850811        0.6240066        130.3025
4.7092                 0.6228209        129.5119        0.4110056        2.168932        0.4110058        2.168956        0.6228217        129.5119
4.7106                  0.621558        128.7315        0.4077604        1.498035        0.4077606        1.498058        0.6215589        128.7314
4.712                  0.6202275         127.961        0.4045369       0.8376267        0.4045371       0.8376502        0.6202283        127.9609
4.7134                 0.6188394        127.2002        0.4013463       0.1869621        0.4013466       0.1869852        0.6188401        127.2001
4.7148                 0.6174032        126.4487        0.3981986      -0.4549609        0.3981989      -0.4549385        0.6174038        126.4486
4.7162                 0.6159283         125.706        0.3951019       -1.089378        0.3951022       -1.089357        0.6159288        125.7059
4.7176                 0.6144226        124.9715        0.3920628       -1.717724        0.3920631       -1.717705        0.6144231        124.9714
4.719                   0.612894        124.2446         0.389086       -2.341598        0.3890863       -2.341581        0.6128944        124.2445
4.7204                 0.6113488        123.5245         0.386174       -2.962717        0.3861744       -2.962702        0.6113491        123.5244
4.7218                 0.6097924        122.8103        0.3833274       -3.582868        0.3833278       -3.582855        0.6097926        122.8102
4.7232                 0.6082291        122.1012        0.3805449       -4.203863        0.3805454       -4.203853        0.6082291        122.1011
4.7246                 0.6066614        121.3962        0.3778232       -4.827483        0.3778236       -4.827476        0.6066615        121.3961
4.726                  0.6050911        120.6944        0.3751569       -5.455434        0.3751573       -5.455431        0.6050911        120.6943
4.7274                 0.6035184        119.9949        0.3725394       -6.089297        0.3725399       -6.089295        0.6035182        119.9947
4.7288                 0.6019418        119.2966        0.3699626       -6.730479         0.369963       -6.730481        0.6019416        119.2964
4.7302                 0.6003589        118.5986         0.367417        -7.38019        0.3674174       -7.380197        0.6003586        118.5985
4.7316                 0.5987659        117.9002        0.3648925         -8.0394        0.3648929       -8.039407        0.5987655        117.9001
4.733                  0.5971579        117.2004        0.3623784       -8.708808        0.3623787       -8.708821        0.5971574        117.2003
4.7344                 0.5955287        116.4985        0.3598634       -9.388852        0.3598639       -9.388864        0.5955282        116.4984
4.7358                 0.5938717         115.794        0.3573368       -10.07966        0.3573372       -10.07968        0.5938712        115.7939
4.7372                 0.5921792        115.0862        0.3547879        -10.7811        0.3547883       -10.78112        0.5921786        115.0861
4.7386                  0.590443        114.3748        0.3522066       -11.49272         0.352207       -11.49274        0.5904424        114.3747
4.74                   0.5886546        113.6595        0.3495839       -12.21382        0.3495842       -12.21385         0.588654        113.6594
4.7414                 0.5868054          112.94        0.3469117       -12.94345        0.3469121       -12.94348        0.5868048        112.9399
4.7428                 0.5848868        112.2164        0.3441835       -13.68041        0.3441839       -13.68044        0.5848862        112.2163
4.7442                 0.5828905        111.4887        0.3413942       -14.42331        0.3413945       -14.42334        0.5828898        111.4886
4.7456                 0.5808085        110.7572        0.3385402        -15.1706        0.3385405       -15.17063        0.5808078        110.7571
4.747                  0.5786334        110.0222        0.3356199       -15.92059        0.3356203       -15.92062        0.5786327        110.0221
4.7484                 0.5763589        109.2841        0.3326334        -16.6715        0.3326337       -16.67154        0.5763582         109.284
4.7498                 0.5739794        108.5435        0.3295825       -17.42152        0.3295828       -17.42155        0.5739787        108.5434
4.7512                 0.5714904         107.801        0.3264709        -18.1688        0.3264711       -18.16884        0.5714897        107.8009
4.7526                 0.5688886        107.0573        0.3233038       -18.91158         0.323304       -18.91162         0.568888        107.0573
4.754                   0.566172        106.3131        0.3200883       -19.64815        0.3200885       -19.64819        0.5661714        106.3131
4.7554                 0.5633399        105.5694        0.3168326       -20.37696        0.3168328       -20.37699        0.5633393        105.5693
4.7568                 0.5603929        104.8268        0.3135464       -21.09663        0.3135466       -21.09666        0.5603923        104.8268
4.7582                  0.557333        104.0862        0.3102402         -21.806        0.3102404       -21.80604        0.5573324        104.0861
4.7596                 0.5541634        103.3484        0.3069254       -22.50421        0.3069256       -22.50424        0.5541629        103.3484
4.761                  0.5508888        102.6142         0.303614       -23.19065        0.3036142       -23.19069        0.5508882        102.6141
4.7624                 0.5475145        101.8842        0.3003179       -23.86512        0.3003181       -23.86515         0.547514        101.8842
4.7638                 0.5440475        101.1592        0.2970492       -24.52772        0.2970493       -24.52776         0.544047        101.1591
4.7652                 0.5404952        100.4395        0.2938194       -25.17897        0.2938196         -25.179        0.5404947        100.4395
4.7666                 0.5368658        99.72574        0.2906395       -25.81976        0.2906397       -25.81979        0.5368652        99.72572
4.768                   0.533168        99.01814        0.2875193       -26.45139        0.2875195       -26.45142        0.5331674        99.01811
4.7694                 0.5294108        98.31689        0.2844674       -27.07552        0.2844676       -27.07555        0.5294102        98.31683
4.7708                 0.5256033        97.62195         0.281491       -27.69417        0.2814912       -27.69421        0.5256027        97.62192
4.7722                 0.5217545        96.93324        0.2785953       -28.30968        0.2785954       -28.30971        0.5217538        96.93319
4.7736                 0.5178727        96.25045        0.2757838       -28.92464         0.275784       -28.92468        0.5178721        96.25037
4.775                  0.5139662         95.5731        0.2730581       -29.54188        0.2730583       -29.54192        0.5139655        95.57307
4.7764                 0.5100418        94.90065        0.2704176       -30.16436        0.2704177        -30.1644        0.5100411         94.9006
4.7778                 0.5061058        94.23232        0.2678595       -30.79511        0.2678596       -30.79514        0.5061051        94.23229
