! TOUCHSTONE file generated by CST MICROWAVE STUDIO
! Date and time: Sat Nov 30 13:11:59 2024
! Project name: test_tuning.cst
! Parameters = {airCoaxOuterDiameter=3; chamferAngle=45; chamferWidth=24; connectorLength=10; drillingHoleDiameter=4.1; feedLength=60; flareDiameter=130; flareLength=70; gratingDistance=0; gratingGap=1.90274; outletLength=30; polarizerLength=134; probe1Diameter=1.3; probe1Distance=14; probe1Length=9; probe2Diameter=1.3; probe2Distance=0; probe2Length=9; probeLength=9; smaInnerDiameter=1.3; smaOuterDiameter=4.1; transitionCoefficient=1.33; waveguideFeedLength=30; waveguideSide=50; waveguideThickness=3; wireCount=25; wireDiameter=1.17699}
! Header version: 2024
! Port assignment regex: !\s*Touchstone port\s*([0-9]+)\s*=\s*(CST MWS port|CST DES external port|CST DES block port)\s*(.+)\s* \(\"(.*)\"\)(\s*mode\s*([0-9]+))?.*
! Touchstone port assignment:
! Touchstone port 1 = CST MWS port 1 ("Input1")
! Touchstone port 2 = CST MWS port 2 ("Input2")
# GHz S MA R 50
4.6                    0.5562034        103.7091        0.4751808        168.8757        0.4751811        168.8757        0.5562047         103.709
4.6014                  0.539821        102.6686        0.4900902        167.4886        0.4900904        167.4886         0.539822        102.6685
4.6028                 0.5217855        101.6334        0.5054795        165.9609        0.5054796        165.9609        0.5217863        101.6332
4.6042                 0.5020575        100.6254        0.5212209        164.2928        0.5212211        164.2927        0.5020581        100.6253
4.6056                 0.4806246         99.6721        0.5371778        162.4864         0.537178        162.4864        0.4806248        99.67196
4.607                  0.4575058        98.80793         0.553207        160.5458        0.5532072        160.5458        0.4575058        98.80779
4.6084                 0.4327564        98.07684        0.5691618        158.4763        0.5691618        158.4763        0.4327561        98.07671
4.6098                  0.406475        97.53586        0.5848938        156.2844        0.5848937        156.2843        0.4064744        97.53573
4.6112                 0.3788124        97.26032        0.6002554        153.9772        0.6002554        153.9772        0.3788117        97.26022
4.6126                 0.3499875        97.35182        0.6151022        151.5627         0.615102        151.5626        0.3499866        97.35175
4.614                  0.3203091         97.9497         0.629294        149.0489        0.6292939        149.0489        0.3203081        97.94965
4.6154                 0.2902144        99.24803        0.6426973        146.4443        0.6426971        146.4442        0.2902133        99.24805
4.6168                 0.2603297        101.5184        0.6551866        143.7573        0.6551864        143.7573        0.2603286        101.5185
4.6182                 0.2315697         105.134        0.6666458        140.9965        0.6666456        140.9964        0.2315687        105.1342
4.6196                 0.2052836        110.5726        0.6769694        138.1702        0.6769692        138.1701        0.2052828        110.5729
4.621                  0.1834186        118.3261        0.6860642        135.2867        0.6860639        135.2866        0.1834181        118.3266
4.6224                 0.1685247        128.5805        0.6938488        132.3541        0.6938484         132.354        0.1685247         128.581
4.6238                 0.1631972        140.6616        0.7002556        129.3803        0.7002552        129.3802        0.1631978        140.6621
4.6252                 0.1688066         152.873        0.7052305        126.3729        0.7052302        126.3729        0.1688078        152.8734
4.6266                 0.1845966        163.4258        0.7087336        123.3395        0.7087331        123.3395        0.1845982         163.426
4.628                  0.2083091         171.487        0.7107388        120.2874        0.7107384        120.2873        0.2083109        171.4871
4.6294                  0.237476        177.1548         0.711234        117.2234        0.7112334        117.2234        0.2374779        177.1548
4.6308                 0.2701166       -179.0967        0.7102201        114.1544        0.7102195        114.1544        0.2701185       -179.0967
4.6322                 0.3048164       -176.7794        0.7077113        111.0872        0.7077106        111.0871        0.3048182       -176.7796
4.6336                 0.3405901       -175.5057        0.7037337        108.0279        0.7037331        108.0279        0.3405919       -175.5059
4.635                  0.3767398        -174.992        0.6983254        104.9832        0.6983246        104.9831        0.3767414       -174.9922
4.6364                 0.4127546       -175.0363        0.6915345         101.959        0.6915338        101.9589        0.4127561       -175.0365
4.6378                 0.4482477        -175.494        0.6834192        98.96144        0.6834185        98.96143         0.448249       -175.4942
4.6392                 0.4829174       -176.2607        0.6740466        95.99667        0.6740458        95.99666        0.4829186       -176.2609
4.6406                 0.5165239       -177.2593        0.6634915        93.07066        0.6634907        93.07065        0.5165249       -177.2595
4.642                  0.5488736       -178.4321        0.6518361        90.18947        0.6518354        90.18947        0.5488745       -178.4323
4.6434                 0.5798109        -179.735        0.6391687        87.35923        0.6391679        87.35921        0.5798117       -179.7351
4.6448                 0.6092109        178.8666         0.625583        84.58609        0.6255822        84.58609        0.6092114        178.8665
4.6462                 0.6369758        177.3999        0.6111777         81.8764        0.6111768        81.87639        0.6369763        177.3998
4.6476                 0.6630322         175.887        0.5960552        79.23659        0.5960544        79.23659        0.6630326        175.8869
4.649                  0.6873286        174.3461        0.5803219        76.67323        0.5803211        76.67324        0.6873289         174.346
4.6504                 0.7098339        172.7922        0.5640864        74.19309        0.5640856        74.19309        0.7098342        172.7922
4.6518                 0.7305365        171.2382        0.5474598        71.80295        0.5474589        71.80298        0.7305368        171.2382
4.6532                  0.749443         169.695        0.5305545        69.50975        0.5305538        69.50976        0.7494433         169.695
4.6546                 0.7665771        168.1721        0.5134841        67.32033        0.5134833        67.32036        0.7665773        168.1721
4.656                   0.781979        166.6777        0.4963619        65.24146        0.4963611        65.24148        0.7819793        166.6777
4.6574                 0.7957045        165.2191        0.4793005        63.27954        0.4792997        63.27959        0.7957049         165.219
4.6588                  0.807824        163.8025        0.4624107        61.44055          0.46241        61.44061        0.8078243        163.8025
4.6602                 0.8184212        162.4334        0.4458005        59.72968        0.4457999        59.72973        0.8184217        162.4334
4.6616                  0.827592        161.1165        0.4295733        58.15104        0.4295727         58.1511        0.8275925        161.1165
4.663                  0.8354432        159.8556        0.4138266         56.7074        0.4138261        56.70746        0.8354439        159.8556
4.6644                 0.8420907        158.6539        0.3986507        55.39975        0.3986501        55.39983        0.8420915        158.6539
4.6658                 0.8476575        157.5136        0.3841258          54.227        0.3841254        54.22707        0.8476583        157.5136
4.6672                 0.8522719        156.4362        0.3703213        53.18558        0.3703209        53.18566        0.8522727        156.4362
4.6686                 0.8560649        155.4222        0.3572928        52.26926        0.3572925        52.26935        0.8560659        155.4221
4.67                   0.8591683        154.4713         0.345081        51.46899        0.3450807        51.46908        0.8591694        154.4712
4.6714                 0.8617114        153.5821        0.3337099         50.7729        0.3337097          50.773        0.8617124        153.5821
4.6728                 0.8638186        152.7527        0.3231859        50.16664        0.3231858        50.16674        0.8638198        152.7527
4.6742                 0.8656073          151.98        0.3134975        49.63374        0.3134973        49.63383        0.8656084          151.98
4.6756                  0.867185        151.2603        0.3046155        49.15627        0.3046154        49.15637        0.8671861        151.2602
4.677                  0.8686472        150.5889        0.2964944        48.71573        0.2964943        48.71582        0.8686482        150.5889
4.6784                 0.8700753         149.961        0.2890745        48.29382        0.2890745         48.2939        0.8700764        149.9609
4.6798                 0.8715364         149.371        0.2822845         47.8734        0.2822845        47.87349        0.8715374        149.3709
4.6812                 0.8730807        148.8132        0.2760445        47.43929        0.2760446        47.43937        0.8730819        148.8131
4.6826                 0.8747429        148.2818        0.2702699        46.97884        0.2702699        46.97892        0.8747439        148.2817
4.684                  0.8765412        147.7712        0.2648742        46.48246        0.2648743        46.48252         0.876542        147.7711
4.6854                 0.8784787         147.276        0.2597732        45.94375        0.2597733        45.94379        0.8784795        147.2759
4.6868                 0.8805452        146.7913        0.2548869        45.35958         0.254887        45.35962        0.8805459        146.7912
4.6882                 0.8827181        146.3129        0.2501428        44.72994        0.2501429        44.72999        0.8827185        146.3128
4.6896                  0.884965        145.8371        0.2454771        44.05769        0.2454772        44.05774        0.8849655         145.837
4.691                  0.8872465         145.361        0.2408363        43.34814        0.2408364        43.34816         0.887247        145.3609
4.6924                 0.8895176        144.8826         0.236178        42.60869         0.236178        42.60872         0.889518        144.8826
4.6938                 0.8917313        144.4008         0.231471        41.84846         0.231471        41.84849        0.8917318        144.4007
4.6952                 0.8938401        143.9149        0.2266955        41.07786        0.2266955        41.07787        0.8938405        143.9148
4.6966                  0.895799        143.4252        0.2218427        40.30812        0.2218427        40.30815        0.8957993        143.4252
4.698                  0.8975664        142.9327        0.2169138        39.55107        0.2169138        39.55108        0.8975669        142.9326
4.6994                 0.8991073        142.4386        0.2119195        38.81859        0.2119195        38.81861        0.8991078        142.4386
4.7008                 0.9003932        141.9449        0.2068788        38.12239        0.2068787        38.12241        0.9003937        141.9449
4.7022                  0.901404        141.4538        0.2018176        37.47355        0.2018175        37.47358        0.9014044        141.4538
4.7036                  0.902128        140.9677        0.1967678        36.88215        0.1967678        36.88217        0.9021285        140.9676
4.705                  0.9025633         140.489        0.1917656        36.35682        0.1917655        36.35685        0.9025637         140.489
4.7064                 0.9027161        140.0203        0.1868496        35.90443        0.1868495        35.90446        0.9027167        140.0203
4.7078                 0.9026019         139.564        0.1820598        35.52954        0.1820598        35.52959        0.9026025        139.5639
4.7092                 0.9022437        139.1221        0.1774355        35.23414        0.1774354        35.23419        0.9022445        139.1221
4.7106                 0.9016719        138.6967        0.1730134        35.01724        0.1730133        35.01729        0.9016728        138.6966
4.712                  0.9009225        138.2891        0.1688262        34.87466        0.1688261        34.87474        0.9009233         138.289
4.7134                 0.9000356        137.9004        0.1649009        34.79915        0.1649008        34.79921        0.9000365        137.9004
4.7148                 0.8990543        137.5312        0.1612572        34.78025        0.1612572        34.78034        0.8990554        137.5312
4.7162                 0.8980231        137.1815        0.1579067        34.80492        0.1579067        34.80498         0.898024        137.1815
4.7176                 0.8969856        136.8509         0.154852        34.85797         0.154852        34.85803        0.8969866        136.8509
4.719                  0.8959835        136.5384        0.1520865        34.92293        0.1520865        34.92301        0.8959844        136.5383
4.7204                 0.8950545        136.2425         0.149595        34.98296         0.149595        34.98302        0.8950555        136.2424
4.7218                 0.8942319        135.9614        0.1473538        35.02171        0.1473538        35.02177        0.8942329        135.9613
4.7232                 0.8935421        135.6928        0.1453328        35.02434        0.1453328        35.02439        0.8935429        135.6927
4.7246                 0.8930047        135.4343        0.1434964        34.97824        0.1434965         34.9783        0.8930055        135.4342
4.726                  0.8926315        135.1833        0.1418058        34.87352        0.1418059        34.87357        0.8926323        135.1832
4.7274                 0.8924264        134.9371        0.1402203        34.70355        0.1402203        34.70358        0.8924271         134.937
4.7288                 0.8923859        134.6931        0.1386994        34.46492        0.1386995        34.46498        0.8923862         134.693
4.7302                 0.8924979        134.4487        0.1372045        34.15753        0.1372046        34.15755        0.8924983        134.4486
4.7316                 0.8927449        134.2018        0.1357002         33.7842        0.1357003        33.78423        0.8927452        134.2017
4.733                  0.8931027        133.9505        0.1341552        33.35053        0.1341553        33.35055        0.8931028        133.9504
4.7344                 0.8935429        133.6932        0.1325438         32.8644        0.1325438        32.86443        0.8935429        133.6931
4.7358                 0.8940336        133.4288        0.1308456        32.33564        0.1308457        32.33566        0.8940336        133.4287
4.7372                 0.8945409        133.1566        0.1290467         31.7756        0.1290468        31.77562        0.8945409        133.1565
4.7386                 0.8950309        132.8765        0.1271394        31.19672        0.1271394        31.19674        0.8950307        132.8765
4.74                   0.8954699        132.5888         0.125122         30.6122         0.125122        30.61223        0.8954695        132.5887
4.7414                  0.895827        132.2941         0.122999        30.03556         0.122999        30.03558        0.8958266         132.294
4.7428                 0.8960745        131.9934        0.1207804        29.48032        0.1207805        29.48035        0.8960741        131.9934
4.7442                  0.896189        131.6881        0.1184815        28.95963        0.1184815        28.95966        0.8961887        131.6881
4.7456                 0.8961526        131.3798        0.1161217         28.4858        0.1161217        28.48583        0.8961523        131.3798
4.747                   0.895953        131.0704        0.1137246        28.06994        0.1137246        28.06998        0.8959527        131.0703
4.7484                 0.8955842        130.7615        0.1113162        27.72145        0.1113162        27.72149        0.8955838        130.7615
4.7498                 0.8950463        130.4553        0.1089249        27.44755        0.1089248         27.4476         0.895046        130.4553
4.7512                 0.8943457        130.1535        0.1065794        27.25281        0.1065794        27.25286        0.8943456        130.1535
4.7526                 0.8934949        129.8579        0.1043084        27.13868        0.1043084        27.13874        0.8934947        129.8579
4.754                  0.8925111        129.5701        0.1021391        27.10312        0.1021391        27.10318         0.892511          129.57
4.7554                 0.8914165        129.2912        0.1000956        27.14039        0.1000956        27.14047        0.8914165        129.2911
4.7568                 0.8902366        129.0223       0.09819817        27.24103       0.09819819        27.24111        0.8902367        129.0223
4.7582                 0.8889995         128.764       0.09646205        27.39207       0.09646209        27.39215        0.8889998         128.764
4.7596                 0.8877349        128.5167       0.09489658        27.57755       0.09489664        27.57763        0.8877351        128.5167
4.761                  0.8864722        128.2801       0.09350466        27.77934       0.09350473        27.77941        0.8864725        128.2801
4.7624                 0.8852401        128.0539       0.09228259        27.97808       0.09228268        27.97815        0.8852405        128.0538
4.7638                 0.8840652         127.837       0.09122029        28.15437        0.0912204        28.15444        0.8840656         127.837
4.7652                 0.8829705        127.6285       0.09030187        28.28988       0.09030198        28.28995         0.882971        127.6284
4.7666                 0.8819752        127.4267        0.0895065        28.36839       0.08950662        28.36845        0.8819756        127.4266
4.768                  0.8810935          127.23       0.08880966         28.3766        0.0888098        28.37665         0.881094          127.23
4.7694                 0.8803339        127.0366       0.08818434        28.30474       0.08818447        28.30478        0.8803344        127.0366
4.7708                 0.8796996        126.8446       0.08760242        28.14681       0.08760255        28.14684        0.8797001        126.8446
4.7722                 0.8791875        126.6521       0.08703593        27.90063       0.08703607        27.90064         0.879188         126.652
4.7736                 0.8787893        126.4572       0.08645828        27.56765       0.08645842        27.56765        0.8787898        126.4571
4.775                  0.8784912        126.2582       0.08584515        27.15262       0.08584528        27.15261        0.8784917        126.2582
4.7764                 0.8782747        126.0538       0.08517536        26.66316       0.08517549        26.66314        0.8782752        126.0537
4.7778                 0.8781179        125.8427       0.08443148        26.10932       0.08443159        26.10929        0.8781183        125.8427
