! TOUCHSTONE file generated by CST MICROWAVE STUDIO
! Date and time: Sat Nov 30 13:12:01 2024
! Project name: test_tuning.cst
! Parameters = {airCoaxOuterDiameter=3; chamferAngle=45; chamferWidth=24; connectorLength=10; drillingHoleDiameter=4.1; feedLength=60; flareDiameter=130; flareLength=70; gratingDistance=0; gratingGap=1.90274; outletLength=30; polarizerLength=134; probe1Diameter=1.3; probe1Distance=14; probe1Length=12.5; probe2Diameter=1.3; probe2Distance=0; probe2Length=12.5; probeLength=12.5; smaInnerDiameter=1.3; smaOuterDiameter=4.1; transitionCoefficient=1.33; waveguideFeedLength=30; waveguideSide=50; waveguideThickness=3; wireCount=25; wireDiameter=1.17699}
! Header version: 2024
! Port assignment regex: !\s*Touchstone port\s*([0-9]+)\s*=\s*(CST MWS port|CST DES external port|CST DES block port)\s*(.+)\s* \(\"(.*)\"\)(\s*mode\s*([0-9]+))?.*
! Touchstone port assignment:
! Touchstone port 1 = CST MWS port 1 ("Input1")
! Touchstone port 2 = CST MWS port 2 ("Input2")
# GHz S MA R 50
4.6                    0.2504257       -155.4502        0.5830242        56.84036        0.5830246        56.84032        0.2504268       -155.4502
4.6014                 0.2552539       -156.1236        0.5852335        56.06177        0.5852338        56.06173        0.2552551       -156.1235
4.6028                 0.2602142       -156.7995        0.5873988        55.26331        0.5873991        55.26326        0.2602155       -156.7995
4.6042                 0.2653087        -157.481        0.5894981         54.4449        0.5894982        54.44485        0.2653101       -157.4809
4.6056                 0.2705378       -158.1707        0.5915093        53.60672        0.5915094        53.60665        0.2705394       -158.1706
4.607                  0.2759004       -158.8711        0.5934103        52.74918        0.5934103        52.74911         0.275902       -158.8711
4.6084                 0.2813939       -159.5846        0.5951794        51.87301        0.5951792        51.87295        0.2813956       -159.5846
4.6098                 0.2870141       -160.3131        0.5967956        50.97913        0.5967956        50.97907        0.2870159       -160.3131
4.6112                 0.2927558       -161.0583        0.5982397        50.06869        0.5982395        50.06862        0.2927576       -161.0584
4.6126                 0.2986123       -161.8216        0.5994933        49.14304         0.599493        49.14297        0.2986141       -161.8217
4.614                  0.3045762       -162.6042        0.6005402        48.20372        0.6005399        48.20365         0.304578       -162.6043
4.6154                  0.310639        -163.407        0.6013662        47.25241        0.6013658        47.25234        0.3106407       -163.4071
4.6168                 0.3167914       -164.2304        0.6019594        46.29094         0.601959        46.29088         0.316793       -164.2305
4.6182                 0.3230236       -165.0748        0.6023105        45.32122        0.6023099        45.32116        0.3230253        -165.075
4.6196                 0.3293256       -165.9404        0.6024125        44.34527        0.6024119         44.3452        0.3293272       -165.9405
4.621                  0.3356869        -166.827        0.6022615        43.36512        0.6022608        43.36506        0.3356884       -166.8272
4.6224                 0.3420968       -167.7345        0.6018562        42.38287        0.6018555        42.38281        0.3420982       -167.7347
4.6238                 0.3485447       -168.6624        0.6011981        41.40058        0.6011974        41.40053         0.348546       -168.6625
4.6252                 0.3550201       -169.6101        0.6002914        40.42032        0.6002906        40.42027        0.3550213       -169.6102
4.6266                 0.3615125        -170.577        0.5991431        39.44409        0.5991423        39.44404        0.3615136       -170.5772
4.628                  0.3680118       -171.5625        0.5977627        38.47381        0.5977618        38.47376        0.3680129       -171.5627
4.6294                 0.3745083       -172.5657        0.5961621         37.5113        0.5961612        37.51126        0.3745094       -172.5659
4.6308                 0.3809926        -173.586        0.5943555        36.55826        0.5943546        36.55823        0.3809935       -173.5861
4.6322                 0.3874554       -174.6223        0.5923591        35.61624        0.5923582        35.61621        0.3874563       -174.6224
4.6336                 0.3938882        -175.674        0.5901909         34.6866          0.59019        34.68657        0.3938891       -175.6741
4.635                  0.4002828       -176.7402        0.5878703        33.77052        0.5878692        33.77051        0.4002837       -176.7403
4.6364                 0.4066313       -177.8201        0.5854177        32.86898        0.5854167        32.86897        0.4066321       -177.8202
4.6378                 0.4129264        -178.913        0.5828547        31.98271        0.5828536        31.98271        0.4129272       -178.9131
4.6392                 0.4191609        179.9818        0.5802031        31.11221        0.5802022        31.11221        0.4191617        179.9818
4.6406                 0.4253282        178.8651         0.577485        30.25772        0.5774841        30.25772         0.425329        178.8651
4.642                  0.4314218        177.7375        0.5747222        29.41921        0.5747213        29.41922        0.4314226        177.7375
4.6434                 0.4374356        176.5996        0.5719359        28.59641         0.571935        28.59643        0.4374364        176.5995
4.6448                 0.4433635        175.4519        0.5691463        27.78876        0.5691455        27.78879        0.4433644        175.4518
4.6462                 0.4491997        174.2949        0.5663723        26.99549        0.5663715        26.99552        0.4492007        174.2949
4.6476                 0.4549386        173.1292        0.5636313        26.21553        0.5636305        26.21556        0.4549396        173.1291
4.649                  0.4605743         171.955        0.5609386        25.44763        0.5609378        25.44767        0.4605753         171.955
4.6504                 0.4661012        170.7729        0.5583075        24.69034        0.5583067        24.69038        0.4661023        170.7729
4.6518                 0.4715137        169.5832        0.5557489          23.942        0.5557482        23.94204        0.4715148        169.5832
4.6532                 0.4768058        168.3863        0.5532709        23.20085        0.5532704        23.20089         0.476807        168.3863
4.6546                 0.4819718        167.1825        0.5508797          22.465        0.5508791        22.46505         0.481973        167.1824
4.656                  0.4870056         165.972        0.5485779        21.73252        0.5485774        21.73257        0.4870068         165.972
4.6574                 0.4919011        164.7553        0.5463661        21.00143        0.5463657        21.00148        0.4919024        164.7553
4.6588                 0.4966521        163.5327         0.544242        20.26979        0.5442416        20.26984        0.4966535        163.5327
4.6602                 0.5012524        162.3045        0.5422008         19.5357        0.5422005        19.53574        0.5012537        162.3045
4.6616                 0.5056954        161.0711        0.5402355        18.79735        0.5402352         18.7974        0.5056967         161.071
4.663                  0.5099748        159.8328        0.5383369        18.05309        0.5383366        18.05313        0.5099761        159.8328
4.6644                 0.5140841        158.5902         0.536494        17.30138        0.5364938        17.30143        0.5140854        158.5901
4.6658                  0.518017        157.3435        0.5346942        16.54092        0.5346941        16.54096        0.5180183        157.3434
4.6672                 0.5217671        156.0933        0.5329237        15.77059        0.5329237        15.77063        0.5217685        156.0932
4.6686                 0.5253286        154.8402        0.5311679        14.98949        0.5311678        14.98952        0.5253299        154.8401
4.67                   0.5286955        153.5846        0.5294112        14.19697        0.5294111          14.197        0.5286967        153.5845
4.6714                 0.5318623        152.3272        0.5276381        13.39261         0.527638        13.39265        0.5318635        152.3272
4.6728                 0.5348242        151.0687        0.5258332        12.57624        0.5258332        12.57627        0.5348253        151.0686
4.6742                 0.5375764        149.8097        0.5239813        11.74792        0.5239813        11.74795        0.5375775        149.8096
4.6756                  0.540115        148.5508         0.522068        10.90792         0.522068        10.90794         0.540116        148.5507
4.677                  0.5424368         147.293        0.5200798        10.05674        0.5200799        10.05676        0.5424378        147.2929
4.6784                 0.5445392         146.037        0.5180045         9.19506        0.5180045        9.195078          0.54454        146.0369
4.6798                 0.5464204        144.7835         0.515831        8.323749         0.515831        8.323765        0.5464212        144.7834
4.6812                 0.5480797        143.5334        0.5135501        7.443823        0.5135501        7.443835        0.5480803        143.5333
4.6826                 0.5495169        142.2876        0.5111543        6.556423        0.5111542        6.556433        0.5495175        142.2875
4.684                  0.5507332        141.0469        0.5086374          5.6628        0.5086374        5.662807        0.5507337        141.0468
4.6854                 0.5517306        139.8122        0.5059957        4.764285        0.5059956        4.764289         0.551731        139.8121
4.6868                 0.5525122        138.5843        0.5032271        3.862261         0.503227        3.862263        0.5525125        138.5843
4.6882                  0.553082        137.3641        0.5003314         2.95814        0.5003314        2.958141        0.5530822         137.364
4.6896                 0.5534453        136.1524        0.4973102        2.053337        0.4973102        2.053336        0.5534454        136.1523
4.691                  0.5536083        134.9499        0.4941668        1.149241        0.4941667        1.149239        0.5536083        134.9498
4.6924                 0.5535779        133.7574        0.4909064       0.2471942        0.4909063       0.2471903        0.5535779        133.7573
4.6938                 0.5533624        132.5755        0.4875354      -0.6515347        0.4875353      -0.6515394        0.5533624        132.5754
4.6952                 0.5529709        131.4049        0.4840617        -1.54577        0.4840616       -1.545776        0.5529707        131.4049
4.6966                 0.5524129        130.2461        0.4804944       -2.434454        0.4804943        -2.43446        0.5524127        130.2461
4.698                   0.551699        129.0996        0.4768434       -3.316662        0.4768432       -3.316669        0.5516988        129.0995
4.6994                 0.5508402        127.9656        0.4731194       -4.191623        0.4731192       -4.191631        0.5508399        127.9656
4.7008                 0.5498481        126.8446        0.4693335       -5.058732        0.4693333       -5.058738        0.5498479        126.8446
4.7022                 0.5487346        125.7365        0.4654973       -5.917556        0.4654971       -5.917583        0.5487343        125.7365
4.7036                 0.5475116        124.6415        0.4616221       -6.767852        0.4616219        -6.76788        0.5475113        124.6416
4.705                  0.5461913        123.5595        0.4577192       -7.609598        0.4577189       -7.609598         0.546191        123.5595
4.7064                 0.5447856        122.4902        0.4537992       -8.442864        0.4537989       -8.442863        0.5447854        122.4903
4.7078                 0.5433063        121.4334        0.4498721       -9.268021        0.4498719       -9.268048        0.5433061        121.4334
4.7092                 0.5417644        120.3885        0.4459472       -10.08555         0.445947       -10.08555        0.5417643        120.3885
4.7106                 0.5401708         119.355        0.4420323       -10.89612        0.4420321       -10.89612        0.5401707         119.355
4.712                  0.5385352        118.3322        0.4381344       -11.70054        0.4381341       -11.70054        0.5385351        118.3322
4.7134                 0.5368667        117.3193        0.4342588       -12.49974        0.4342585       -12.49974        0.5368666        117.3193
4.7148                 0.5351732        116.3153        0.4304095       -13.29477        0.4304093       -13.29477        0.5351732        116.3154
4.7162                 0.5334614        115.3194        0.4265891       -14.08673        0.4265889       -14.08673        0.5334614        115.3194
4.7176                 0.5317371        114.3304        0.4227986       -14.87679        0.4227984       -14.87679        0.5317371        114.3305
4.719                  0.5300044        113.3472        0.4190374       -15.66611        0.4190372       -15.66611        0.5300046        113.3473
4.7204                 0.5282663        112.3687        0.4153036       -16.45587        0.4153034       -16.45587        0.5282665        112.3688
4.7218                 0.5265245        111.3937         0.411594       -17.24715        0.4115938       -17.24716        0.5265247        111.3938
4.7232                 0.5247789        110.4211        0.4079042       -18.04101        0.4079039       -18.04101        0.5247792        110.4212
4.7246                 0.5230287        109.4496        0.4042286       -18.83834        0.4042284       -18.83834         0.523029        109.4497
4.726                  0.5212712        108.4782        0.4005611       -19.63995        0.4005608       -19.63995        0.5212716        108.4783
4.7274                 0.5195031        107.5059        0.3968945       -20.44646        0.3968943       -20.44646        0.5195035         107.506
4.7288                 0.5177195        106.5315        0.3932217       -21.25834        0.3932214       -21.25834        0.5177199        106.5316
4.7302                 0.5159148        105.5543        0.3895348       -22.07586        0.3895346       -22.07586        0.5159152        105.5544
4.7316                 0.5140826        104.5734        0.3858265        -22.8991        0.3858262        -22.8991         0.514083        104.5735
4.733                  0.5122156        103.5883        0.3820893       -23.72792        0.3820891       -23.72792        0.5122159        103.5884
4.7344                 0.5103062        102.5982        0.3783165         -24.562        0.3783163         -24.562        0.5103066        102.5983
4.7358                 0.5083467        101.6029        0.3745019       -25.40081        0.3745016       -25.40081        0.5083471         101.603
4.7372                 0.5063288         100.602          0.37064       -26.24363        0.3706397       -26.24363        0.5063291        100.6021
4.7386                 0.5042445        99.59548        0.3667266       -27.08956        0.3667263       -27.08956        0.5042449        99.59556
4.74                   0.5020862         98.5832        0.3627585       -27.93755        0.3627583       -27.93754        0.5020865        98.58328
4.7414                 0.4998463         97.5654        0.3587338       -28.78639        0.3587335       -28.78638        0.4998466        97.56546
4.7428                  0.497518        96.54224         0.354652       -29.63476        0.3546517       -29.63475        0.4975183        96.54232
4.7442                 0.4950953        95.51421        0.3505138       -30.48126        0.3505136       -30.48125        0.4950956        95.51429
4.7456                 0.4925729        94.48175        0.3463216       -31.32441        0.3463213       -31.32439        0.4925732         94.4818
4.747                  0.4899464        93.44547         0.342079        -32.1627        0.3420788       -32.16269        0.4899467        93.44556
4.7484                 0.4872127        92.40602        0.3377911       -32.99463        0.3377908       -32.99463        0.4872129         92.4061
4.7498                 0.4843696        91.36417        0.3334643       -33.81874        0.3334639       -33.81873        0.4843698        91.36427
4.7512                 0.4814162        90.32074        0.3291059       -34.63362        0.3291056       -34.63361        0.4814164         90.3208
4.7526                 0.4783528        89.27654        0.3247248         -35.438        0.3247245       -35.43798         0.478353         89.2766
4.754                   0.475181        88.23241        0.3203303       -36.23071          0.32033       -36.23069        0.4751812        88.23252
4.7554                 0.4719036        87.18929        0.3159328       -37.01083        0.3159325        -37.0108        0.4719038        87.18934
4.7568                 0.4685245        86.14793         0.311543       -37.77758        0.3115427       -37.77756        0.4685246        86.14802
4.7582                 0.4650487        85.10918         0.307172        -38.5305        0.3071717       -38.53047        0.4650488        85.10926
4.7596                 0.4614823        84.07374        0.3028308       -39.26937        0.3028306       -39.26933        0.4614825        84.07382
4.761                  0.4578324        83.04234        0.2985305       -39.99428        0.2985302       -39.99425        0.4578325        83.04239
4.7624                 0.4541067        82.01546        0.2942814       -40.70566        0.2942811       -40.70562        0.4541068        82.01556
4.7638                 0.4503136        80.99368        0.2900933       -41.40426        0.2900931       -41.40422        0.4503139        80.99376
4.7652                 0.4464623         79.9772        0.2859753       -42.09118         0.285975       -42.09114        0.4464625        79.97728
4.7666                 0.4425618        78.96629        0.2819348       -42.76785        0.2819346        -42.7678         0.442562        78.96637
4.768                  0.4386217        77.96094        0.2779785       -43.43601        0.2779782       -43.43596         0.438622        77.96102
4.7694                 0.4346513        76.96104        0.2741111       -44.09773        0.2741108       -44.09768        0.4346515        76.96112
4.7708                 0.4306597        75.96629        0.2703357       -44.75533        0.2703355       -44.75527          0.43066        75.96637
4.7722                 0.4266557        74.97619        0.2666541       -45.41133        0.2666539       -45.41128         0.426656        74.97624
4.7736                 0.4226474        73.99011        0.2630657       -46.06847        0.2630655       -46.06841        0.4226477        73.99016
4.775                  0.4186421        73.00717        0.2595685       -46.72955        0.2595683        -46.7295        0.4186424        73.00725
4.7764                 0.4146463        72.02641        0.2561585       -47.39747        0.2561584       -47.39741        0.4146466        72.02652
4.7778                 0.4106653        71.04676        0.2528303       -48.07509        0.2528302       -48.07503        0.4106655        71.04681
