! TOUCHSTONE file generated by CST MICROWAVE STUDIO
! Date and time: Sat Nov 30 13:11:59 2024
! Project name: test_tuning.cst
! Parameters = {airCoaxOuterDiameter=3; chamferAngle=45; chamferWidth=24; connectorLength=10; drillingHoleDiameter=4.1; feedLength=60; flareDiameter=130; flareLength=70; gratingDistance=0; gratingGap=1.90274; outletLength=30; polarizerLength=134; probe1Diameter=1.3; probe1Distance=14; probe1Length=9.5; probe2Diameter=1.3; probe2Distance=0; probe2Length=9.5; probeLength=9.5; smaInnerDiameter=1.3; smaOuterDiameter=4.1; transitionCoefficient=1.33; waveguideFeedLength=30; waveguideSide=50; waveguideThickness=3; wireCount=25; wireDiameter=1.17699}
! Header version: 2024
! Port assignment regex: !\s*Touchstone port\s*([0-9]+)\s*=\s*(CST MWS port|CST DES external port|CST DES block port)\s*(.+)\s* \(\"(.*)\"\)(\s*mode\s*([0-9]+))?.*
! Touchstone port assignment:
! Touchstone port 1 = CST MWS port 1 ("Input1")
! Touchstone port 2 = CST MWS port 2 ("Input2")
# GHz S MA R 50
4.6                    0.3561512         95.1377        0.5697567        147.9381        0.5697574         147.938        0.3561517        95.13744
4.6014                 0.3366074        94.97738        0.5818811        146.3167        0.5818819        146.3166        0.3366079        94.97712
4.6028                 0.3161562        95.03546         0.594001        144.6071         0.594002        144.6071        0.3161567        95.03518
4.6042                 0.2949095        95.39002        0.6060175        142.8107        0.6060185        142.8107        0.2949099        95.38969
4.6056                 0.2730353        96.14541        0.6178286        140.9298        0.6178296        140.9298        0.2730357        96.14507
4.607                  0.2507789        97.44265        0.6293314        138.9675        0.6293322        138.9675        0.2507792        97.44229
4.6084                 0.2284943        99.47275        0.6404233        136.9275        0.6404244        136.9275        0.2284945        99.47235
4.6098                 0.2066944        102.4916        0.6510042        134.8141        0.6510053        134.8141        0.2066943        102.4911
4.6112                 0.1861219        106.8271         0.660977        132.6323        0.6609781        132.6322        0.1861217        106.8266
4.6126                 0.1678407        112.8522        0.6702501         130.387        0.6702513         130.387        0.1678403        112.8517
4.614                  0.1532989        120.8637        0.6787374        128.0838        0.6787385        128.0838        0.1532983        120.8632
4.6154                 0.1442325        130.8046        0.6863602        125.7284        0.6863615        125.7284        0.1442317        130.8042
4.6168                  0.142216        141.9384        0.6930479        123.3264        0.6930491        123.3263         0.142215        141.9381
4.6182                 0.1479419        152.9215        0.6987383        120.8837        0.6987395        120.8836        0.1479408        152.9213
4.6196                 0.1608554        162.4823        0.7033787        118.4062        0.7033799        118.4061        0.1608543        162.4822
4.621                  0.1795575        170.0195        0.7069263        115.8996        0.7069275        115.8995        0.1795564        170.0194
4.6224                 0.2024896        175.5659        0.7093481        113.3699        0.7093493        113.3698        0.2024886        175.5659
4.6238                 0.2283345        179.4473        0.7106214        110.8228        0.7106225        110.8227        0.2283336        179.4473
4.6252                 0.2560985       -177.9666        0.7107334        108.2639        0.7107345        108.2638        0.2560977       -177.9666
4.6266                 0.2850564       -176.3607        0.7096814        105.6988        0.7096825        105.6987        0.2850557       -176.3606
4.628                  0.3146759        -175.492        0.7074724        103.1329        0.7074733        103.1328        0.3146752       -175.4919
4.6294                 0.3445559       -175.1799        0.7041225        100.5718        0.7041233        100.5717        0.3445553       -175.1798
4.6308                 0.3743859        -175.291        0.6996566        98.02059        0.6996573        98.02048        0.3743854       -175.2909
4.6322                 0.4039181       -175.7264        0.6941082        95.48453        0.6941089        95.48441        0.4039177       -175.7264
4.6336                 0.4329509       -176.4118        0.6875184        92.96868         0.687519        92.96855        0.4329505       -176.4118
4.635                  0.4613172       -177.2906        0.6799353        90.47806        0.6799357        90.47792        0.4613168       -177.2906
4.6364                 0.4888779        -178.319        0.6714136        88.01759        0.6714139        88.01749        0.4888775        -178.319
4.6378                 0.5155166       -179.4626        0.6620138        85.59219         0.662014        85.59205        0.5155162       -179.4626
4.6392                 0.5411369         179.306        0.6518017        83.20658        0.6518018        83.20644        0.5411366         179.306
4.6406                 0.5656602        178.0091        0.6408474        80.86549        0.6408475        80.86536        0.5656598        178.0091
4.642                  0.5890235        176.6649        0.6292252        78.57359        0.6292251        78.57346        0.5890232        176.6649
4.6434                 0.6111792        175.2885        0.6170123        76.33541         0.617012        76.33528        0.6111789        175.2885
4.6448                 0.6320935        173.8927        0.6042886        74.15537        0.6042882        74.15524        0.6320933        173.8927
4.6462                 0.6517458        172.4881        0.5911359         72.0378        0.5911354        72.03768        0.6517457        172.4881
4.6476                 0.6701282        171.0841        0.5776371        69.98682        0.5776365        69.98671        0.6701281        171.0841
4.649                  0.6872447        169.6886        0.5638758        68.00632        0.5638752        68.00621        0.6872445        169.6886
4.6504                 0.7031103        168.3085        0.5499353        66.09995        0.5499346        66.09984        0.7031102        168.3085
4.6518                 0.7177512        166.9496        0.5358978        64.27093        0.5358971        64.27082        0.7177511        166.9496
4.6532                 0.7312027         165.617        0.5218439        62.52209        0.5218431        62.52202        0.7312027         165.617
4.6546                 0.7435096        164.3152        0.5078515        60.85576        0.5078505        60.85567        0.7435097        164.3152
4.656                   0.754725        163.0478        0.4939948        59.27356        0.4939939         59.2735        0.7547251        163.0478
4.6574                 0.7649085        161.8179         0.480344        57.77644         0.480343         57.7764        0.7649088        161.8179
4.6588                 0.7741266        160.6277        0.4669637        56.36453        0.4669627         56.3645        0.7741269        160.6277
4.6602                   0.78245        159.4792        0.4539123        55.03701        0.4539115        55.03699        0.7824505        159.4792
4.6616                 0.7899535        158.3735        0.4412416        53.79209        0.4412407        53.79209         0.789954        158.3735
4.663                  0.7967139        157.3113        0.4289949        52.62699         0.428994        52.62701        0.7967145        157.3113
4.6644                 0.8028088        156.2926        0.4172073         51.5379        0.4172065        51.53792        0.8028096        156.2926
4.6658                 0.8083154        155.3168        0.4059051        50.51997        0.4059043        50.52002        0.8083162        155.3168
4.6672                 0.8133087         154.383        0.3951049        49.56754        0.3951042         49.5676        0.8133096         154.383
4.6686                 0.8178607        153.4896        0.3848141        48.67414        0.3848136        48.67421        0.8178616        153.4896
4.67                   0.8220382        152.6347        0.3750312         47.8327        0.3750307        47.83278        0.8220393        152.6347
4.6714                  0.825903        151.8159        0.3657454        47.03582        0.3657451        47.03591        0.8259042        151.8159
4.6728                 0.8295093        151.0306        0.3569386        46.27597        0.3569383        46.27607        0.8295107        151.0306
4.6742                 0.8329048        150.2759        0.3485854        45.54576        0.3485853        45.54586        0.8329059        150.2759
4.6756                 0.8361281        149.5488        0.3406548         44.8382        0.3406547        44.83831        0.8361294        149.5488
4.677                  0.8392105        148.8462        0.3331112        44.14697        0.3331112        44.14708        0.8392118        148.8461
4.6784                 0.8421748         148.165        0.3259164        43.46655        0.3259166        43.46666        0.8421761         148.165
4.6798                 0.8450358        147.5024        0.3190307        42.79246        0.3190309        42.79256         0.845037        147.5023
4.6812                 0.8478008        146.8555        0.3124142        42.12131        0.3124145        42.12141        0.8478021        146.8554
4.6826                 0.8504708        146.2219        0.3060286        41.45089        0.3060289        41.45099         0.850472        146.2218
4.684                   0.853041        145.5994        0.2998378         40.7802        0.2998382        40.78028        0.8530421        145.5993
4.6854                 0.8555019        144.9863        0.2938095         40.1093          0.29381        40.10937        0.8555029        144.9862
4.6868                 0.8578407        144.3811        0.2879156        39.43935        0.2879161        39.43941        0.8578415         144.381
4.6882                  0.860042        143.7829        0.2821329         38.7724        0.2821334        38.77245        0.8600428        143.7828
4.6896                 0.8620899         143.191        0.2764433        38.11128        0.2764438        38.11131        0.8620906        143.1909
4.691                  0.8639684        142.6053        0.2708341        37.45941        0.2708347        37.45942        0.8639689        142.6051
4.6924                 0.8656628        142.0258        0.2652981        36.82063        0.2652986        36.82063        0.8656632        142.0257
4.6938                 0.8671606         141.453        0.2598327        36.19899        0.2598333        36.19899        0.8671609        141.4529
4.6952                 0.8684524        140.8876        0.2544405        35.59859         0.254441        35.59856        0.8684525        140.8874
4.6966                  0.869532        140.3304        0.2491276         35.0233        0.2491281        35.02326        0.8695321        140.3303
4.698                  0.8703983        139.7825        0.2439039        34.47664        0.2439044        34.47659        0.8703982        139.7824
4.6994                 0.8710538        139.2451        0.2387818        33.96159        0.2387823        33.96152        0.8710536         139.245
4.7008                 0.8715057        138.7193        0.2337756        33.48036         0.233776        33.48028        0.8715055        138.7192
4.7022                  0.871766        138.2061        0.2289004        33.03429        0.2289007        33.03421        0.8717655         138.206
4.7036                 0.8718499        137.7065        0.2241714        32.62375        0.2241717        32.62365        0.8718495        137.7064
4.705                  0.8717771        137.2215        0.2196031        32.24798        0.2196033        32.24789        0.8717766        137.2214
4.7064                 0.8715701        136.7515         0.215208        31.90517        0.2152082        31.90507        0.8715695        136.7514
4.7078                 0.8712535         136.297        0.2109964        31.59237        0.2109966        31.59226        0.8712529        136.2969
4.7092                 0.8708538        135.8582        0.2069755        31.30563        0.2069756        31.30552        0.8708528        135.8581
4.7106                 0.8703971        135.4348         0.203149        31.04014         0.203149        31.04001        0.8703962        135.4347
4.712                  0.8699104        135.0263        0.1995165        30.79036        0.1995165        30.79022        0.8699097        135.0263
4.7134                  0.869419        134.6322        0.1960738        30.55032        0.1960738        30.55021        0.8694182        134.6322
4.7148                 0.8689458        134.2513        0.1928127        30.31387        0.1928127        30.31376        0.8689452        134.2513
4.7162                 0.8685113        133.8825        0.1897214        30.07493        0.1897213        30.07484        0.8685107        133.8825
4.7176                 0.8681323        133.5242        0.1867848        29.82782        0.1867847        29.82774        0.8681318        133.5242
4.719                  0.8678213        133.1749        0.1839852        29.56753        0.1839851        29.56745        0.8678207        133.1749
4.7204                 0.8675866        132.8329        0.1813029         29.2898        0.1813028        29.28972        0.8675861        132.8329
4.7218                 0.8674318        132.4965        0.1787173        28.99153        0.1787172        28.99144        0.8674315        132.4965
4.7232                  0.867356         132.164        0.1762071         28.6707         0.176207        28.67061        0.8673558         132.164
4.7246                 0.8673537        131.8337        0.1737516        28.32651        0.1737515        28.32645        0.8673536        131.8337
4.726                  0.8674154        131.5043        0.1713313        27.95947        0.1713312        27.95942        0.8674154        131.5043
4.7274                 0.8675277        131.1742        0.1689286        27.57124        0.1689285        27.57118        0.8675279        131.1742
4.7288                 0.8676746        130.8426        0.1665281        27.16456         0.166528         27.1645        0.8676749        130.8426
4.7302                 0.8678377        130.5086        0.1641174        26.74319        0.1641173        26.74316        0.8678381        130.5086
4.7316                  0.867997        130.1717        0.1616873        26.31173        0.1616872        26.31164        0.8679975        130.1717
4.733                  0.8681322        129.8315        0.1592321        25.87528         0.159232        25.87525        0.8681328        129.8315
4.7344                 0.8682229        129.4882        0.1567494        25.43966        0.1567493        25.43964        0.8682237        129.4882
4.7358                 0.8682503        129.1421        0.1542403        25.01073        0.1542402         25.0107         0.868251         129.142
4.7372                 0.8681967        128.7936        0.1517093        24.59443        0.1517093        24.59441        0.8681975        128.7936
4.7386                 0.8680476        128.4436        0.1491639        24.19654        0.1491638        24.19651        0.8680484        128.4435
4.74                   0.8677911         128.093        0.1466141        23.82236         0.146614        23.82234        0.8677919         128.093
4.7414                 0.8674188        127.7429        0.1440722        23.47657        0.1440722        23.47655        0.8674197        127.7429
4.7428                 0.8669265        127.3946        0.1415524        23.16296        0.1415523        23.16295        0.8669274        127.3945
4.7442                 0.8663137        127.0491        0.1390695        22.88424        0.1390694        22.88423        0.8663146         127.049
4.7456                 0.8655837        126.7077        0.1366392        22.64184        0.1366391        22.64182        0.8655846        126.7076
4.747                   0.864744        126.3715        0.1342766        22.43577        0.1342765        22.43576        0.8647449        126.3714
4.7484                 0.8638052        126.0416        0.1319959        22.26454        0.1319959        22.26454        0.8638061        126.0415
4.7498                 0.8627813        125.7188        0.1298099        22.12514        0.1298099        22.12513        0.8627821        125.7187
4.7512                 0.8616887        125.4039        0.1277289        22.01303        0.1277288        22.01302        0.8616894        125.4038
4.7526                 0.8605458        125.0972        0.1257604        21.92234        0.1257604        21.92234        0.8605464        125.0971
4.754                   0.859372         124.799         0.123909        21.84606         0.123909        21.84606        0.8593725         124.799
4.7554                 0.8581872        124.5093        0.1221756        21.77631        0.1221756        21.77631        0.8581877        124.5092
4.7568                 0.8570112        124.2277        0.1205577        21.70473        0.1205576        21.70474        0.8570116        124.2277
4.7582                 0.8558623        123.9538        0.1190491        21.62288        0.1190491        21.62288        0.8558625        123.9537
4.7596                 0.8547571        123.6866        0.1176408         21.5226        0.1176408         21.5226        0.8547573        123.6865
4.761                  0.8537097        123.4253        0.1163205        21.39644        0.1163205        21.39645        0.8537098        123.4252
4.7624                  0.852731        123.1686        0.1150739        21.23802        0.1150739        21.23802        0.8527311        123.1685
4.7638                 0.8518285        122.9153        0.1138849        21.04225        0.1138849        21.04225        0.8518284        122.9152
4.7652                 0.8510059        122.6639        0.1127365        20.80562        0.1127365        20.80562        0.8510057        122.6638
4.7666                 0.8502626        122.4131        0.1116114        20.52624        0.1116114        20.52623        0.8502625        122.4131
4.768                  0.8495947        122.1615        0.1104926        20.20393        0.1104926        20.20392        0.8495945        122.1614
4.7694                 0.8489939        121.9078        0.1093643        19.84019        0.1093643        19.84018        0.8489937        121.9077
4.7708                 0.8484487        121.6508        0.1082122        19.43806        0.1082122        19.43804        0.8484484        121.6507
4.7722                 0.8479445        121.3895        0.1070242        19.00201        0.1070242        19.00199        0.8479442        121.3895
4.7736                 0.8474646        121.1232        0.1057906        18.53776        0.1057907        18.53774        0.8474642        121.1231
4.775                  0.8469898        120.8512        0.1045046        18.05205        0.1045047        18.05202        0.8469894        120.8512
4.7764                 0.8465006        120.5733        0.1031624         17.5524        0.1031624        17.55237        0.8465002        120.5733
4.7778                 0.8459768        120.2894        0.1017631        17.04691        0.1017631        17.04687        0.8459764        120.2893
