! TOUCHSTONE file generated by CST MICROWAVE STUDIO
! Date and time: Sat Nov 30 13:11:59 2024
! Project name: test_tuning.cst
! Parameters = {airCoaxOuterDiameter=3; chamferAngle=45; chamferWidth=24; connectorLength=10; drillingHoleDiameter=4.1; feedLength=60; flareDiameter=130; flareLength=70; gratingDistance=0; gratingGap=1.90274; outletLength=30; polarizerLength=134; probe1Diameter=1.3; probe1Distance=14; probe1Length=8.5; probe2Diameter=1.3; probe2Distance=0; probe2Length=8.5; probeLength=8.5; smaInnerDiameter=1.3; smaOuterDiameter=4.1; transitionCoefficient=1.33; waveguideFeedLength=30; waveguideSide=50; waveguideThickness=3; wireCount=25; wireDiameter=1.17699}
! Header version: 2024
! Port assignment regex: !\s*Touchstone port\s*([0-9]+)\s*=\s*(CST MWS port|CST DES external port|CST DES block port)\s*(.+)\s* \(\"(.*)\"\)(\s*mode\s*([0-9]+))?.*
! Touchstone port assignment:
! Touchstone port 1 = CST MWS port 1 ("Input1")
! Touchstone port 2 = CST MWS port 2 ("Input2")
# GHz S MA R 50
4.6                     0.745836        119.3843        0.3287198       -169.0638        0.3287203       -169.0638        0.7458371        119.3842
4.6014                 0.7411857        118.3269        0.3418837       -169.2307        0.3418843       -169.2307        0.7411866        118.3268
4.6028                   0.73481        117.1537        0.3568595        -169.628          0.35686        -169.628         0.734811        117.1536
4.6042                 0.7264206        115.8744         0.373521       -170.2886        0.3735215       -170.2886        0.7264216        115.8743
4.6056                  0.715757        114.5012         0.391693        -171.232        0.3916935        -171.232        0.7157578        114.5012
4.607                  0.7025909        113.0491         0.411163       -172.4656        0.4111635       -172.4656        0.7025917         113.049
4.6084                 0.6867328        111.5357        0.4316921       -173.9868        0.4316926       -173.9868        0.6867337        111.5356
4.6098                 0.6680353        109.9821        0.4530248       -175.7856        0.4530252       -175.7856         0.668036         109.982
4.6112                 0.6463969        108.4132        0.4748961       -177.8471        0.4748966       -177.8471        0.6463976        108.4131
4.6126                 0.6217676        106.8588        0.4970379        179.8469        0.4970383        179.8469        0.6217683        106.8587
4.614                  0.5941522        105.3552        0.5191832        177.3161        0.5191837        177.3161        0.5941529        105.3552
4.6154                 0.5636173        103.9479        0.5410699        174.5807        0.5410704        174.5807        0.5636181        103.9479
4.6168                 0.5302981         102.695        0.5624438         171.661        0.5624442        171.6609        0.5302989        102.6949
4.6182                 0.4944094        101.6726        0.5830608        168.5763        0.5830612        168.5763        0.4944101        101.6725
4.6196                 0.4562621        100.9838        0.6026898        165.3453        0.6026903        165.3453        0.4562629        100.9837
4.621                  0.4162908        100.7716        0.6211151        161.9857        0.6211155        161.9857        0.4162916        100.7715
4.6224                 0.3750994        101.2399        0.6381379        158.5141        0.6381383        158.5141        0.3751003        101.2399
4.6238                 0.3335419        102.6852        0.6535791        154.9464        0.6535795        154.9464        0.3335428        102.6851
4.6252                 0.2928635        105.5392        0.6672809        151.2971        0.6672812        151.2971        0.2928643        105.5391
4.6266                 0.2549382        110.4071        0.6791083        147.5803        0.6791086        147.5802         0.254939         110.407
4.628                  0.2226031        118.0162        0.6889505        143.8088        0.6889508        143.8088        0.2226039        118.0161
4.6294                 0.1998542        128.8391        0.6967218        139.9952        0.6967222        139.9951        0.1998548        128.8388
4.6308                 0.1910742        142.1917        0.7023618        136.1508        0.7023624        136.1508        0.1910746        142.1914
4.6322                    0.1986        155.7415        0.7058358        132.2868        0.7058361        132.2868        0.1986001        155.7412
4.6336                 0.2208199        167.0016        0.7071331        128.4135        0.7071337        128.4135        0.2208197        167.0013
4.635                  0.2536278        175.0542        0.7062676        124.5407         0.706268        124.5406        0.2536275         175.054
4.6364                 0.2929917       -179.7266         0.703275        120.6777        0.7032754        120.6777        0.2929913       -179.7268
4.6378                 0.3359727       -176.6166        0.6982114        116.8336         0.698212        116.8336        0.3359722       -176.6167
4.6392                 0.3806192       -174.9889        0.6911526        113.0171        0.6911531         113.017        0.3806187        -174.989
4.6406                 0.4256377       -174.3921        0.6821901        109.2364        0.6821907        109.2363        0.4256372       -174.3922
4.642                  0.4701426       -174.5171        0.6714305        105.4998         0.671431        105.4997         0.470142       -174.5171
4.6434                 0.5135039       -175.1527        0.6589927        101.8154        0.6589933        101.8154        0.5135035       -175.1528
4.6448                 0.5552592       -176.1527        0.6450066         98.1915        0.6450071        98.19147        0.5552587       -176.1527
4.6462                 0.5950618       -177.4134        0.6296106        94.63635        0.6296111        94.63632        0.5950614       -177.4134
4.6476                 0.6326512       -178.8595        0.6129507        91.15852        0.6129513        91.15849        0.6326508       -178.8596
4.649                  0.6678337        179.5649        0.5951789        87.76692        0.5951794        87.76688        0.6678332        179.5648
4.6504                 0.7004703        177.9023        0.5764518        84.47096        0.5764523        84.47091          0.70047        177.9023
4.6518                 0.7304695        176.1862        0.5569301        81.28055        0.5569306        81.28051        0.7304692        176.1861
4.6532                 0.7577806        174.4429        0.5367772        78.20623        0.5367776        78.20618        0.7577804        174.4428
4.6546                 0.7823905         172.694         0.516159        75.25925        0.5161595         75.2592        0.7823902         172.694
4.656                  0.8043198        170.9574        0.4952432         72.4515        0.4952436        72.45144        0.8043196        170.9574
4.6574                  0.823621        169.2482        0.4741981        69.79547        0.4741985        69.79542        0.8236209        169.2481
4.6588                 0.8403759        167.5791        0.4531926        67.30416         0.453193        67.30408        0.8403758        167.5791
4.6602                 0.8546934        165.9614        0.4323945        64.99072        0.4323948        64.99064        0.8546931        165.9614
4.6616                 0.8667072        164.4046        0.4119696        62.86812        0.4119699        62.86805        0.8667071        164.4045
4.663                  0.8765746        162.9169        0.3920801        60.94857        0.3920804        60.94848        0.8765744        162.9168
4.6644                 0.8844724        161.5052        0.3728822        59.24269        0.3728825         59.2426        0.8844722        161.5051
4.6658                 0.8905952        160.1751        0.3545236        57.75856        0.3545238        57.75845        0.8905949         160.175
4.6672                 0.8951513         158.931        0.3371396        56.50054        0.3371397        56.50043        0.8951509         158.931
4.6686                 0.8983588        157.7759        0.3208493        55.46797        0.3208494        55.46785        0.8983584        157.7758
4.67                   0.9004421        156.7111        0.3057512        54.65396        0.3057512        54.65384        0.9004415         156.711
4.6714                 0.9016258        155.7366        0.2919177        54.04432        0.2919177        54.04419        0.9016252        155.7365
4.6728                 0.9021307        154.8506        0.2793912        53.61709        0.2793911        53.61696          0.90213        154.8506
4.6742                 0.9021674        154.0499          0.26818        53.34267        0.2681798        53.34255        0.9021666        154.0498
4.6756                 0.9019323        153.3294        0.2582564        53.18507        0.2582562        53.18493        0.9019313        153.3294
4.677                  0.9016014        152.6829        0.2495569         53.1038        0.2495566        53.10368        0.9016006        152.6829
4.6784                 0.9013275        152.1026        0.2419851        53.05676        0.2419848        53.05665        0.9013265        152.1026
4.6798                 0.9012349          151.58        0.2354167        53.00323        0.2354164        53.00312        0.9012341        151.5799
4.6812                 0.9014191        151.1055        0.2297075        52.90677        0.2297072        52.90668        0.9014181        151.1054
4.6826                 0.9019442        150.6695        0.2247013        52.73759         0.224701         52.7375        0.9019431        150.6695
4.684                  0.9028435        150.2624        0.2202391        52.47391        0.2202387        52.47383        0.9028426        150.2624
4.6854                 0.9041222        149.8751        0.2161666        52.10253        0.2161663        52.10247        0.9041213        149.8751
4.6868                 0.9057583        149.4991        0.2123415        51.61853        0.2123411        51.61848        0.9057575        149.4991
4.6882                 0.9077084        149.1271        0.2086377        51.02436        0.2086374        51.02431        0.9077077        149.1271
4.6896                 0.9099109        148.7531        0.2049491        50.32867        0.2049488        50.32862        0.9099102        148.7531
4.691                  0.9122912        148.3724        0.2011909        49.54506        0.2011906        49.54502        0.9122906        148.3724
4.6924                 0.9147673        147.9819        0.1973001        48.69079        0.1972997        48.69077        0.9147669         147.982
4.6938                 0.9172541        147.5799        0.1932348        47.78575        0.1932345        47.78573        0.9172538        147.5799
4.6952                  0.919668        147.1658        0.1889732        46.85148        0.1889729        46.85147         0.919668        147.1658
4.6966                 0.9219315        146.7405        0.1845118        45.91044        0.1845115        45.91043        0.9219315        146.7406
4.698                  0.9239757        146.3058        0.1798632        44.98533         0.179863        44.98532        0.9239759        146.3059
4.6994                  0.925744        145.8643        0.1750544        44.09849        0.1750542        44.09849        0.9257441        145.8643
4.7008                 0.9271926        145.4191        0.1701242         43.2714        0.1701239        43.27138        0.9271928        145.4191
4.7022                 0.9282929        144.9738         0.165121        42.52393        0.1651207        42.52393        0.9282932        144.9738
4.7036                 0.9290313        144.5324        0.1601003        41.87387        0.1601001        41.87387        0.9290317        144.5324
4.705                  0.9294093        144.0984        0.1551226        41.33597        0.1551224        41.33597        0.9294097        144.0984
4.7064                 0.9294424        143.6757        0.1502501        40.92125        0.1502499        40.92125        0.9294429        143.6757
4.7078                 0.9291586        143.2674        0.1455445        40.63607        0.1455443        40.63607        0.9291592        143.2674
4.7092                 0.9285973        142.8763        0.1410637         40.4813        0.1410635        40.48132        0.9285977        142.8763
4.7106                 0.9278059        142.5048        0.1368594        40.45174        0.1368592        40.45177        0.9278066        142.5047
4.712                  0.9268392        142.1543        0.1329741        40.53571        0.1329739        40.53571        0.9268396        142.1542
4.7134                 0.9257545        141.8257        0.1294385        40.71523        0.1294383        40.71525        0.9257551        141.8256
4.7148                 0.9246111        141.5191          0.12627        40.96684        0.1262698         40.9669        0.9246117         141.519
4.7162                 0.9234661        141.2339        0.1234715         41.2629        0.1234713        41.26296        0.9234666        141.2339
4.7176                  0.922373        140.9688        0.1210313        41.57339        0.1210312        41.57344        0.9223734        140.9688
4.719                  0.9213785        140.7219         0.118924        41.86812        0.1189238        41.86818        0.9213789        140.7219
4.7204                  0.920522        140.4908        0.1171124        42.11901        0.1171122        42.11906        0.9205223        140.4907
4.7218                 0.9198329        140.2726        0.1155502        42.30176          0.11555        42.30187        0.9198334        140.2725
4.7232                  0.919331        140.0643        0.1141851        42.39753         0.114185        42.39764        0.9193314        140.0643
4.7246                 0.9190252        139.8628        0.1129621        42.39349         0.112962         42.3936        0.9190256        139.8628
4.726                   0.918914        139.6649        0.1118266         42.2832        0.1118265        42.28328        0.9189142        139.6649
4.7274                 0.9189861        139.4679        0.1107268        42.06617        0.1107267        42.06628        0.9189864        139.4678
4.7288                 0.9192222        139.2689        0.1096161        41.74731        0.1096161        41.74739        0.9192225        139.2689
4.7302                 0.9195953        139.0659        0.1084547        41.33602        0.1084548         41.3361        0.9195956        139.0658
4.7316                 0.9200729        138.8571        0.1072106        40.84528        0.1072106        40.84539        0.9200733         138.857
4.733                  0.9206196        138.6413        0.1058599        40.29082        0.1058599        40.29088          0.92062        138.6412
4.7344                 0.9211976        138.4178        0.1043872        39.69017        0.1043873        39.69023        0.9211977        138.4177
4.7358                 0.9217693        138.1865        0.1027856        39.06209        0.1027857        39.06214        0.9217694        138.1865
4.7372                 0.9222992        137.9478        0.1010556        38.42591        0.1010557        38.42597        0.9222994        137.9478
4.7386                 0.9227553        137.7024       0.09920531        37.80084       0.09920542        37.80086        0.9227554        137.7024
4.74                   0.9231099        137.4516       0.09724902        37.20552       0.09724913        37.20552          0.92311        137.4515
4.7414                 0.9233413        137.1967       0.09520659        36.65752       0.09520671        36.65752        0.9233413        137.1966
4.7428                 0.9234339        136.9394        0.0931024        36.17263       0.09310252        36.17263        0.9234338        136.9394
4.7442                 0.9233789        136.6816        0.0909642        35.76455        0.0909643        35.76453        0.9233786        136.6815
4.7456                 0.9231739         136.425        0.0888219         35.4441       0.08882201        35.44405        0.9231736        136.4249
4.747                  0.9228233        136.1713       0.08670634        35.21857       0.08670642        35.21851        0.9228228        136.1712
4.7484                  0.922337        135.9222       0.08464789        35.09127       0.08464797         35.0912        0.9223367        135.9221
4.7498                 0.9217306        135.6791       0.08267508        35.06103       0.08267513        35.06095        0.9217299         135.679
4.7512                 0.9210233        135.4431       0.08081327        35.12188       0.08081329        35.12179        0.9210228         135.443
4.7526                 0.9202378        135.2151       0.07908337        35.26306       0.07908337        35.26297        0.9202371         135.215
4.754                  0.9193986        134.9955       0.07750082        35.46942       0.07750081        35.46933        0.9193978        134.9955
4.7554                  0.918531        134.7847       0.07607478        35.72209       0.07607476        35.72199        0.9185301        134.7846
4.7568                 0.9176596        134.5823       0.07480775         35.9996       0.07480768        35.99952         0.917659        134.5823
4.7582                 0.9168082         134.388       0.07369547        36.27929       0.07369539         36.2792        0.9168073         134.388
4.7596                 0.9159974        134.2011       0.07272753        36.53874       0.07272744        36.53866        0.9159966        134.2011
4.761                  0.9152443        134.0205       0.07188809        36.75724       0.07188798        36.75717        0.9152436        134.0205
4.7624                 0.9145631         133.845       0.07115703        36.91707       0.07115692        36.91701        0.9145623         133.845
4.7638                 0.9139623        133.6734       0.07051131        37.00437       0.07051119        37.00433        0.9139617        133.6735
4.7652                 0.9134467        133.5044       0.06992635        37.00971       0.06992622        37.00968        0.9134463        133.5044
4.7666                 0.9130166        133.3365        0.0693774        36.92816       0.06937728        36.92814        0.9130162        133.3365
4.768                  0.9126677        133.1685       0.06884076        36.75918       0.06884064        36.75919        0.9126674        133.1686
4.7694                 0.9123916        132.9993       0.06829475        36.50623       0.06829463        36.50623        0.9123917        132.9993
4.7708                 0.9121775        132.8277       0.06772054        36.17606       0.06772043        36.17609        0.9121778        132.8278
4.7722                 0.9120113        132.6531       0.06710267        35.77827       0.06710257         35.7783        0.9120116        132.6531
4.7736                 0.9118773        132.4747       0.06642944         35.3245       0.06642935        35.32453        0.9118778        132.4748
4.775                  0.9117588        132.2922       0.06569299        34.82788       0.06569291        34.82792        0.9117593        132.2923
4.7764                 0.9116388        132.1056       0.06488934        34.30248       0.06488927        34.30252        0.9116395        132.1056
4.7778                 0.9115007        131.9147        0.0640182        33.76273       0.06401814        33.76277        0.9115016        131.9147
