! TOUCHSTONE file generated by CST MICROWAVE STUDIO
! Date and time: Sat Nov 30 13:12:01 2024
! Project name: test_tuning.cst
! Parameters = {airCoaxOuterDiameter=3; chamferAngle=45; chamferWidth=24; connectorLength=10; drillingHoleDiameter=4.1; feedLength=60; flareDiameter=130; flareLength=70; gratingDistance=0; gratingGap=1.90274; outletLength=30; polarizerLength=134; probe1Diameter=1.3; probe1Distance=14; probe1Length=13; probe2Diameter=1.3; probe2Distance=0; probe2Length=13; probeLength=13; smaInnerDiameter=1.3; smaOuterDiameter=4.1; transitionCoefficient=1.33; waveguideFeedLength=30; waveguideSide=50; waveguideThickness=3; wireCount=25; wireDiameter=1.17699}
! Header version: 2024
! Port assignment regex: !\s*Touchstone port\s*([0-9]+)\s*=\s*(CST MWS port|CST DES external port|CST DES block port)\s*(.+)\s* \(\"(.*)\"\)(\s*mode\s*([0-9]+))?.*
! Touchstone port assignment:
! Touchstone port 1 = CST MWS port 1 ("Input1")
! Touchstone port 2 = CST MWS port 2 ("Input2")
# GHz S MA R 50
4.6                    0.2946423       -146.3635        0.5511961        44.39179        0.5511966        44.39178        0.2946423       -146.3635
4.6014                 0.2981151        -147.012        0.5534589        43.68949        0.5534594        43.68948        0.2981153       -147.0119
4.6028                 0.3016958       -147.6724        0.5556601         42.9669        0.5556606        42.96687        0.3016961       -147.6724
4.6042                 0.3053814       -148.3465        0.5577782        42.22449        0.5577786        42.22446        0.3053818       -148.3464
4.6056                 0.3091681       -149.0355        0.5597919        41.46308        0.5597923        41.46304        0.3091686       -149.0354
4.607                  0.3130514       -149.7405        0.5616811        40.68367        0.5616813        40.68364        0.3130521       -149.7405
4.6084                 0.3170262       -150.4628        0.5634266        39.88755        0.5634268        39.88751         0.317027       -150.4628
4.6098                 0.3210868       -151.2031        0.5650113        39.07618        0.5650116        39.07613        0.3210877       -151.2031
4.6112                 0.3252271       -151.9621        0.5664199        38.25121        0.5664201        38.25116        0.3252282       -151.9621
4.6126                 0.3294408       -152.7404        0.5676391        37.41444        0.5676392        37.41438        0.3294419       -152.7404
4.614                  0.3337212       -153.5382        0.5686579        36.56779        0.5686578        36.56774        0.3337223       -153.5383
4.6154                 0.3380613        -154.356        0.5694679         35.7133        0.5694677        35.71326        0.3380626        -154.356
4.6168                 0.3424544       -155.1938        0.5700633        34.85307        0.5700632        34.85302        0.3424557       -155.1939
4.6182                 0.3468934       -156.0517        0.5704414        33.98921        0.5704412        33.98917        0.3468948       -156.0518
4.6196                 0.3513714       -156.9296        0.5706017        33.12387        0.5706014        33.12383        0.3513729       -156.9297
4.621                  0.3558816       -157.8274        0.5705467        32.25917        0.5705464        32.25914        0.3558831       -157.8276
4.6224                 0.3604172       -158.7451        0.5702819        31.39718        0.5702814        31.39715        0.3604187       -158.7452
4.6238                 0.3649715       -159.6822        0.5698149        30.53989        0.5698144        30.53987         0.364973       -159.6823
4.6252                 0.3695379       -160.6386        0.5691564        29.68919        0.5691557        29.68917        0.3695393       -160.6387
4.6266                 0.3741099        -161.614        0.5683189        28.84685        0.5683182        28.84684        0.3741114       -161.6142
4.628                  0.3786812       -162.6081        0.5673174        28.01446        0.5673167        28.01445        0.3786827       -162.6083
4.6294                 0.3832455       -163.6207        0.5661687        27.19345         0.566168        27.19345        0.3832469       -163.6209
4.6308                 0.3877965       -164.6514        0.5648913        26.38502        0.5648906        26.38503        0.3877978       -164.6516
4.6322                 0.3923279       -165.6999        0.5635049        25.59016        0.5635042        25.59018        0.3923293       -165.7001
4.6336                 0.3968337       -166.7659        0.5620305        24.80963        0.5620297        24.80966         0.396835       -166.7661
4.635                  0.4013076       -167.8493        0.5604895        24.04389        0.5604888        24.04392        0.4013088       -167.8495
4.6364                 0.4057431       -168.9496        0.5589036        23.29316        0.5589029         23.2932        0.4057444       -168.9498
4.6378                 0.4101341       -170.0666        0.5572948        22.55734         0.557294         22.5574        0.4101353       -170.0668
4.6392                 0.4144739          -171.2        0.5556841        21.83611        0.5556834        21.83617        0.4144751       -171.2003
4.6406                  0.418756       -172.3497        0.5540923        21.12879        0.5540917        21.12885        0.4187571       -172.3499
4.642                  0.4229735       -173.5153        0.5525386        20.43446         0.552538        20.43454        0.4229747       -173.5155
4.6434                 0.4271196       -174.6965        0.5510407        19.75196        0.5510402        19.75204        0.4271206       -174.6967
4.6448                  0.431187       -175.8932        0.5496148        19.07984        0.5496143        19.07993         0.431188       -175.8934
4.6462                 0.4351685       -177.1048        0.5482746        18.41646        0.5482743        18.41655        0.4351695       -177.1051
4.6476                 0.4390567       -178.3313        0.5470318        17.75998        0.5470315        17.76007        0.4390576       -178.3315
4.649                  0.4428438       -179.5722        0.5458953        17.10841         0.545895        17.10851        0.4428448       -179.5725
4.6504                 0.4465223        179.1728        0.5448712        16.45964        0.5448711        16.45975        0.4465232        179.1725
4.6518                 0.4500842        177.9041        0.5439633        15.81151        0.5439632        15.81161        0.4500851        177.9039
4.6532                 0.4535216        176.6221        0.5431721        15.16179        0.5431722         15.1619        0.4535225        176.6219
4.6546                 0.4568268        175.3274        0.5424957         14.5083        0.5424959        14.50841        0.4568276        175.3272
4.656                  0.4599918        174.0203        0.5419295        13.84889        0.5419297          13.849        0.4599926        174.0201
4.6574                 0.4630088        172.7015         0.541466        13.18153        0.5414663        13.18163        0.4630096        172.7013
4.6588                 0.4658704        171.3715        0.5410958        12.50431        0.5410961         12.5044        0.4658712        171.3713
4.6602                 0.4685692         170.031        0.5408072        11.81547        0.5408076        11.81557          0.46857        170.0308
4.6616                 0.4710981        168.6807        0.5405868        11.11349        0.5405873        11.11358        0.4710988        168.6805
4.663                  0.4734504        167.3212        0.5404195        10.39702          0.54042         10.3971        0.4734512         167.321
4.6644                   0.47562        165.9533        0.5402891        9.664956        0.5402897        9.665037        0.4756208        165.9532
4.6658                 0.4776013        164.5779        0.5401785        8.916454        0.5401791        8.916531        0.4776019        164.5777
4.6672                 0.4793889        163.1958        0.5400701        8.150896        0.5400708        8.150966        0.4793895        163.1956
4.6686                 0.4809785        161.8078         0.539946        7.367917        0.5399467        7.367982        0.4809792        161.8076
4.67                   0.4823663        160.4148        0.5397885        6.567391        0.5397892         6.56745         0.482367        160.4147
4.6714                 0.4835495        159.0179        0.5395801        5.749424        0.5395809        5.749477        0.4835502        159.0177
4.6728                 0.4845259        157.6179        0.5393042        4.914335        0.5393049        4.914382        0.4845266        157.6177
4.6742                 0.4852943        156.2157        0.5389449        4.062645        0.5389456        4.062686        0.4852949        156.2156
4.6756                 0.4858542        154.8125        0.5384877        3.195052        0.5384885        3.195087        0.4858547        154.8123
4.677                  0.4862063        153.4091        0.5379192        2.312416          0.53792        2.312446        0.4862068        153.4089
4.6784                  0.486352        152.0065        0.5372277        1.415734        0.5372284        1.415758        0.4863526        152.0063
4.6798                 0.4862939        150.6057        0.5364028       0.5061142        0.5364036       0.5061335        0.4862945        150.6055
4.6812                 0.4860354        149.2075        0.5354362      -0.4152426        0.5354369      -0.4152283         0.486036        149.2074
4.6826                  0.485581        147.8131        0.5343211       -1.347069        0.5343218        -1.34706        0.4855816        147.8129
4.684                  0.4849358        146.4231        0.5330525       -2.288054        0.5330532       -2.288049        0.4849364        146.4229
4.6854                 0.4841062        145.0384        0.5316275       -3.236864        0.5316281       -3.236862        0.4841067        145.0382
4.6868                  0.483099        143.6598        0.5300444       -4.192166         0.530045       -4.192167        0.4830995        143.6597
4.6882                 0.4819222         142.288        0.5283038       -5.152645        0.5283043        -5.15265        0.4819227        142.2879
4.6896                 0.4805841        140.9237        0.5264073        -6.11703        0.5264079       -6.117039        0.4805846        140.9236
4.691                  0.4790939        139.5674        0.5243584       -7.084109         0.524359       -7.084118        0.4790944        139.5673
4.6924                 0.4774614        138.2195        0.5221619       -8.052739        0.5221624       -8.052752        0.4774619        138.2194
4.6938                 0.4756965        136.8805        0.5198235       -9.021873         0.519824       -9.021888        0.4756971        136.8804
4.6952                 0.4738098        135.5507        0.5173504       -9.990567        0.5173509       -9.990582        0.4738102        135.5506
4.6966                 0.4718119        134.2302        0.5147502       -10.95799        0.5147506       -10.95799        0.4718124        134.2301
4.698                  0.4697136        132.9191        0.5120313       -11.92343        0.5120317       -11.92346        0.4697141         132.919
4.6994                 0.4675256        131.6172        0.5092027       -12.88633        0.5092031       -12.88636         0.467526        131.6171
4.7008                 0.4652585        130.3245        0.5062734       -13.84624        0.5062738       -13.84629         0.465259        130.3244
4.7022                 0.4629227        129.0407        0.5032527       -14.80291         0.503253       -14.80293        0.4629232        129.0406
4.7036                 0.4605283        127.7652        0.5001495       -15.75609        0.5001498       -15.75612        0.4605287        127.7651
4.705                  0.4580844        126.4975        0.4969726       -16.70584        0.4969729       -16.70584         0.458085        126.4975
4.7064                 0.4556001        125.2371        0.4937301       -17.65221        0.4937305       -17.65224        0.4556006        125.2371
4.7078                 0.4530833        123.9831        0.4904297       -18.59549        0.4904301       -18.59552        0.4530838        123.9831
4.7092                 0.4505414        122.7347        0.4870781       -19.53595        0.4870784       -19.53597         0.450542        122.7346
4.7106                 0.4479806        121.4907        0.4836811        -20.4741        0.4836813       -20.47412        0.4479812        121.4907
4.712                  0.4454064        120.2504        0.4802435       -21.41041        0.4802438       -21.41043         0.445407        120.2503
4.7134                  0.442823        119.0125        0.4767693       -22.34548        0.4767695        -22.3455        0.4428237        119.0124
4.7148                 0.4402338        117.7757         0.473261       -23.27993        0.4732612       -23.27994        0.4402345        117.7757
4.7162                 0.4376409        116.5391        0.4697202       -24.21442        0.4697204       -24.21443        0.4376415         116.539
4.7176                 0.4350453        115.3013        0.4661476        -25.1496        0.4661479       -25.14961         0.435046        115.3012
4.719                  0.4324472        114.0611        0.4625426       -26.08611        0.4625429       -26.08613        0.4324479         114.061
4.7204                 0.4298455        112.8172        0.4589038       -27.02458         0.458904       -27.02459        0.4298462        112.8172
4.7218                 0.4272383        111.5686        0.4552288       -27.96553         0.455229       -27.96554        0.4272391        111.5685
4.7232                 0.4246228         110.314        0.4515146       -28.90945        0.4515147       -28.90946        0.4246236         110.314
4.7246                 0.4219953        109.0525        0.4477575       -29.85672        0.4477577       -29.85674        0.4219961        109.0524
4.726                  0.4193515         107.783        0.4439534       -30.80764        0.4439537       -30.80765        0.4193523        107.7829
4.7274                 0.4166865        106.5046        0.4400981       -31.76235        0.4400983       -31.76237        0.4166873        106.5046
4.7288                  0.413995        105.2166        0.4361868       -32.72091         0.436187       -32.72093        0.4139958        105.2165
4.7302                 0.4112712        103.9183        0.4322151       -33.68323        0.4322154       -33.68323         0.411272        103.9182
4.7316                 0.4085093         102.609        0.4281789       -34.64906        0.4281791       -34.64907        0.4085101        102.6089
4.733                  0.4057034        101.2884        0.4240742       -35.61805        0.4240744       -35.61807        0.4057041        101.2884
4.7344                 0.4028475        99.95616        0.4198977        -36.5897        0.4198978       -36.58971        0.4028483        99.95613
4.7358                 0.3999361        98.61213        0.4156466       -37.56338        0.4156467        -37.5634        0.3999369        98.61204
4.7372                 0.3969639        97.25617        0.4113191       -38.53834        0.4113193       -38.53835        0.3969647        97.25611
4.7386                 0.3939261        95.88838        0.4069143       -39.51371        0.4069144       -39.51372        0.3939268        95.88832
4.74                   0.3908182        94.50893         0.402432       -40.48853        0.4024322       -40.48855        0.3908189        94.50884
4.7414                 0.3876367        93.11809        0.3978736       -41.46176        0.3978738       -41.46177        0.3876374        93.11803
4.7428                 0.3843787        91.71629         0.393241       -42.43228        0.3932412       -42.43229        0.3843794        91.71617
4.7442                 0.3810421         90.3039        0.3885377       -43.39893        0.3885379       -43.39893        0.3810428        90.30384
4.7456                 0.3776257        88.88156        0.3837682        -44.3605        0.3837683       -44.36052        0.3776263         88.8815
4.747                  0.3741292        87.44987        0.3789379       -45.31584        0.3789381       -45.31585        0.3741298        87.44978
4.7484                 0.3705532        86.00941        0.3740536       -46.26375        0.3740537       -46.26376        0.3705537        86.00934
4.7498                 0.3668993        84.56097        0.3691227       -47.20311        0.3691229       -47.20314        0.3668998        84.56091
4.7512                   0.36317        83.10528        0.3641539       -48.13287        0.3641541       -48.13288        0.3631705         83.1052
4.7526                 0.3593688        81.64296        0.3591563       -49.05207        0.3591564       -49.05208        0.3593694        81.64288
4.754                  0.3555001        80.17481        0.3541397       -49.95987          0.35414       -49.95988        0.3555006        80.17475
4.7554                  0.351569        78.70144        0.3491146       -50.85559        0.3491148       -50.85561        0.3515695        78.70138
4.7568                 0.3475815        77.22356        0.3440915       -51.73872        0.3440917       -51.73874        0.3475819        77.22347
4.7582                 0.3435443        75.74169        0.3390811       -52.60896        0.3390813       -52.60898        0.3435447         75.7416
4.7596                 0.3394648        74.25634        0.3340939       -53.46621        0.3340941       -53.46623        0.3394652        74.25625
4.761                  0.3353507        72.76788        0.3291404        -54.3106        0.3291406       -54.31063        0.3353511        72.76779
4.7624                 0.3312104        71.27658        0.3242304       -55.14253        0.3242305       -55.14255        0.3312107        71.27652
4.7638                 0.3270523        69.78268        0.3193728       -55.96262         0.319373       -55.96265        0.3270527        69.78256
4.7652                 0.3228854        68.28606         0.314576       -56.77179        0.3145762       -56.77182        0.3228857        68.28601
4.7666                 0.3187184        66.78666        0.3098473       -57.57118        0.3098475       -57.57121        0.3187187         66.7866
4.768                  0.3145602        65.28414        0.3051926       -58.36219        0.3051928       -58.36222        0.3145605        65.28408
4.7694                 0.3104194        63.77804        0.3006165       -59.14644        0.3006167       -59.14648        0.3104197        63.77798
4.7708                 0.3063045        62.26773        0.2961224       -59.92575        0.2961225       -59.92579        0.3063047        62.26764
4.7722                 0.3022232        60.75224        0.2917119       -60.70213         0.291712       -60.70218        0.3022235        60.75217
4.7736                 0.2981831        59.23067        0.2873852       -61.47772        0.2873853       -61.47777        0.2981834        59.23058
4.775                  0.2941912        57.70174        0.2831411       -62.25475        0.2831412       -62.25479        0.2941915        57.70167
4.7764                 0.2902536        56.16412        0.2789767       -63.03552        0.2789769       -63.03556        0.2902538        56.16403
4.7778                 0.2863757        54.61623        0.2748879       -63.82231         0.274888       -63.82235        0.2863759        54.61615
