! TOUCHSTONE file generated by CST MICROWAVE STUDIO
! Date and time: Sat Nov 30 13:12:00 2024
! Project name: test_tuning.cst
! Parameters = {airCoaxOuterDiameter=3; chamferAngle=45; chamferWidth=24; connectorLength=10; drillingHoleDiameter=4.1; feedLength=60; flareDiameter=130; flareLength=70; gratingDistance=0; gratingGap=1.90274; outletLength=30; polarizerLength=134; probe1Diameter=1.3; probe1Distance=14; probe1Length=11; probe2Diameter=1.3; probe2Distance=0; probe2Length=11; probeLength=11; smaInnerDiameter=1.3; smaOuterDiameter=4.1; transitionCoefficient=1.33; waveguideFeedLength=30; waveguideSide=50; waveguideThickness=3; wireCount=25; wireDiameter=1.17699}
! Header version: 2024
! Port assignment regex: !\s*Touchstone port\s*([0-9]+)\s*=\s*(CST MWS port|CST DES external port|CST DES block port)\s*(.+)\s* \(\"(.*)\"\)(\s*mode\s*([0-9]+))?.*
! Touchstone port assignment:
! Touchstone port 1 = CST MWS port 1 ("Input1")
! Touchstone port 2 = CST MWS port 2 ("Input2")
# GHz S MA R 50
4.6                    0.1543549       -176.0296        0.6396139         91.7977        0.6396141        91.79767        0.1543546       -176.0298
4.6014                 0.1654608       -175.2119        0.6420432         90.6119        0.6420432        90.61188        0.1654604       -175.2121
4.6028                 0.1767494       -174.6305        0.6442797        89.41565        0.6442799        89.41562        0.1767491       -174.6307
4.6042                 0.1881852       -174.2452         0.646322        88.20936        0.6463222        88.20933        0.1881848       -174.2454
4.6056                 0.1997402       -174.0236        0.6481683         86.9933        0.6481684        86.99328        0.1997398       -174.0237
4.607                  0.2113925       -173.9394        0.6498163        85.76771        0.6498163        85.76768        0.2113922       -173.9394
4.6084                 0.2231251       -173.9713        0.6512634        84.53273        0.6512635         84.5327        0.2231247       -173.9713
4.6098                  0.234925        -174.102        0.6525065         83.2885        0.6525065        83.28847        0.2349247        -174.102
4.6112                 0.2467824       -174.3175        0.6535414        82.03505        0.6535415        82.03504        0.2467821       -174.3175
4.6126                 0.2586898       -174.6064        0.6543635        80.77247        0.6543635        80.77246        0.2586897       -174.6064
4.614                  0.2706419       -174.9595        0.6549671        79.50083        0.6549671        79.50081        0.2706418       -174.9595
4.6154                 0.2826342       -175.3691        0.6553457        78.22021        0.6553457        78.22018        0.2826342        -175.369
4.6168                 0.2946637       -175.8292        0.6554922         76.9307        0.6554922        76.93068        0.2946637       -175.8292
4.6182                 0.3067271       -176.3349        0.6553986        75.63254        0.6553986        75.63252        0.3067272       -176.3348
4.6196                 0.3188215       -176.8822        0.6550566        74.32595        0.6550565        74.32594        0.3188217       -176.8821
4.621                  0.3309435       -177.4679         0.654457        73.01129        0.6544569        73.01127        0.3309438       -177.4678
4.6224                 0.3430891       -178.0894        0.6535911        71.68897        0.6535909        71.68897        0.3430895       -178.0894
4.6238                 0.3552531       -178.7447        0.6524494        70.35959        0.6524493        70.35956        0.3552536       -178.7446
4.6252                 0.3674293       -179.4319        0.6510231        69.02379         0.651023        69.02377        0.3674298       -179.4319
4.6266                   0.37961        179.8502        0.6493035        67.68237        0.6493035        67.68234        0.3796106        179.8502
4.628                  0.3917861         179.103         0.647283        66.33627        0.6472829        66.33624        0.3917868         179.103
4.6294                  0.403947        178.3276        0.6449544        64.98653        0.6449542        64.98652        0.4039477        178.3276
4.6308                 0.4160803         177.525        0.6423117        63.63436        0.6423116        63.63436         0.416081         177.525
4.6322                 0.4281721        176.6961        0.6393508         62.2811        0.6393506        62.28109        0.4281729        176.6961
4.6336                 0.4402072         175.842        0.6360685        60.92817        0.6360682        60.92817         0.440208         175.842
4.635                  0.4521689        174.9636        0.6324636        59.57716        0.6324635        59.57716        0.4521697        174.9636
4.6364                 0.4640392         174.062        0.6285371        58.22971         0.628537        58.22972          0.46404         174.062
4.6378                 0.4757991        173.1383        0.6242919        56.88765        0.6242917        56.88764        0.4757999        173.1383
4.6392                 0.4874289        172.1938         0.619733        55.55281        0.6197328        55.55279        0.4874296        172.1937
4.6406                  0.498908        171.2296        0.6148678        54.22712        0.6148676         54.2271        0.4989088        171.2295
4.642                  0.5102157        170.2472        0.6097062        52.91257         0.609706        52.91256        0.5102164        170.2471
4.6434                 0.5213311        169.2479        0.6042603         51.6112          0.60426         51.6112        0.5213319        169.2479
4.6448                 0.5322335        168.2334        0.5985445        50.32506        0.5985443        50.32505        0.5322342        168.2333
4.6462                 0.5429027        167.2051        0.5925757        49.05618        0.5925756        49.05618        0.5429033         167.205
4.6476                 0.5533188        166.1647        0.5863729        47.80658        0.5863727        47.80658        0.5533195        166.1646
4.649                  0.5634634        165.1139        0.5799572        46.57821         0.579957        46.57822         0.563464        165.1138
4.6504                  0.573319        164.0545        0.5733515        45.37298        0.5733513        45.37299        0.5733196        164.0544
4.6518                 0.5828695        162.9881        0.5665806        44.19264        0.5665804        44.19265        0.5828701         162.988
4.6532                 0.5921005        161.9165        0.5596704        43.03883        0.5596703        43.03884         0.592101        161.9165
4.6546                 0.6009995        160.8416        0.5526486        41.91302        0.5526484        41.91302        0.6009999        160.8415
4.656                  0.6095556         159.765        0.5455431        40.81644        0.5455429        40.81645        0.6095559         159.765
4.6574                 0.6177605        158.6886        0.5383826        39.75016        0.5383825        39.75016        0.6177608        158.6885
4.6588                 0.6256077        157.6139        0.5311961         38.7149        0.5311959        38.71492         0.625608        157.6138
4.6602                 0.6330931        156.5426         0.524012        37.71118        0.5240119        37.71118        0.6330932        156.5425
4.6616                 0.6402149        155.4763        0.5168583         36.7391        0.5168582        36.73912        0.6402151        155.4763
4.663                  0.6469736        154.4166        0.5097619        35.79852        0.5097619        35.79852        0.6469738        154.4165
4.6644                  0.653372        153.3647        0.5027482        34.88885        0.5027482        34.88887        0.6533722        153.3647
4.6658                  0.659415        152.3221        0.4958407        34.00923        0.4958407        34.00925        0.6594152        152.3221
4.6672                 0.6651096        151.2899        0.4890606        33.15838        0.4890605        33.15839        0.6651097        151.2899
4.6686                 0.6704644        150.2692        0.4824264        32.33467        0.4824263        32.33469        0.6704647        150.2691
4.67                   0.6754905        149.2609        0.4759537        31.53617        0.4759536        31.53618        0.6754907        149.2608
4.6714                 0.6801997        148.2658         0.469655        30.76061         0.469655        30.76062        0.6801999        148.2657
4.6728                 0.6846056        147.2845        0.4635392        30.00548        0.4635391         30.0055        0.6846058        147.2845
4.6742                 0.6887226        146.3177        0.4576118        29.26808        0.4576118        29.26809        0.6887228        146.3176
4.6756                 0.6925662        145.3656        0.4518746         28.5455        0.4518746        28.54552        0.6925664        145.3655
4.677                  0.6961521        144.4284        0.4463259        27.83481        0.4463259        27.83483        0.6961522        144.4283
4.6784                 0.6994961        143.5062        0.4409607        27.13303        0.4409608        27.13304        0.6994963        143.5061
4.6798                 0.7026144        142.5989        0.4357707        26.43724        0.4357707        26.43725        0.7026147        142.5989
4.6812                 0.7055223        141.7063        0.4307446        25.74466        0.4307447        25.74467        0.7055227        141.7063
4.6826                 0.7082351        140.8281        0.4258688        25.05273        0.4258689        25.05273        0.7082353        140.8281
4.684                  0.7107666        139.9638        0.4211274        24.35911        0.4211274        24.35912        0.7107669        139.9638
4.6854                   0.71313        139.1129        0.4165028        23.66182        0.4165028        23.66183        0.7131304        139.1128
4.6868                 0.7153371        138.2747        0.4119763        22.95923        0.4119764        22.95924        0.7153374        138.2747
4.6882                 0.7173982        137.4486        0.4075286        22.25011        0.4075287        22.25011        0.7173985        137.4486
4.6896                 0.7193225        136.6339        0.4031403        21.53366        0.4031403        21.53366        0.7193228        136.6339
4.691                   0.721117        135.8298        0.3987921        20.80951        0.3987922        20.80952        0.7211175        135.8298
4.6924                 0.7227881        135.0357        0.3944659        20.07774         0.394466        20.07775        0.7227884        135.0356
4.6938                 0.7243394        134.2506        0.3901448        19.33886        0.3901448        19.33886        0.7243398        134.2506
4.6952                 0.7257745        133.4741        0.3858134        18.59376        0.3858134        18.59376        0.7257749        133.4741
4.6966                 0.7270943        132.7054        0.3814585        17.84374        0.3814585        17.84374        0.7270947        132.7054
4.698                  0.7282992         131.944        0.3770692        17.09042        0.3770692        17.09042        0.7282997         131.944
4.6994                 0.7293889        131.1894        0.3726371        16.33574        0.3726372        16.33574        0.7293893        131.1894
4.7008                 0.7303613        130.4412        0.3681568        15.58188        0.3681568        15.58188        0.7303617        130.4412
4.7022                 0.7312145        129.6992        0.3636251        14.83122        0.3636252        14.83122        0.7312148        129.6991
4.7036                 0.7319459         128.963        0.3590422        14.08628        0.3590423        14.08628        0.7319463         128.963
4.705                  0.7325528        128.2327        0.3544107        13.34967        0.3544109        13.34967        0.7325533        128.2326
4.7064                 0.7330328        127.5081        0.3497362          12.624        0.3497363          12.624        0.7330333        127.5081
4.7078                 0.7333837        126.7895        0.3450265        11.91185        0.3450266        11.91184        0.7333841        126.7895
4.7092                 0.7336039        126.0771        0.3402919        11.21567         0.340292        11.21566        0.7336041         126.077
4.7106                 0.7336923        125.3709        0.3355447        10.53775        0.3355448        10.53772        0.7336926        125.3709
4.712                  0.7336493        124.6715        0.3307989        9.880057         0.330799        9.880057        0.7336496        124.6714
4.7134                  0.733476        123.9791        0.3260699        9.244327        0.3260699        9.244328        0.7334762        123.9791
4.7148                 0.7331747        123.2942        0.3213738        8.631948        0.3213739         8.63192         0.733175        123.2942
4.7162                 0.7327489        122.6172        0.3167276        8.043737        0.3167277         8.04371        0.7327492        122.6172
4.7176                 0.7322036        121.9486         0.312148        7.480109        0.3121481        7.480086        0.7322039        121.9486
4.719                  0.7315449        121.2887        0.3076515        6.941002        0.3076516        6.940977        0.7315452        121.2886
4.7204                 0.7307802        120.6378        0.3032537         6.42574        0.3032537        6.425713        0.7307805        120.6378
4.7218                 0.7299178        119.9963        0.2989687        5.933112        0.2989686        5.933084         0.729918        119.9963
4.7232                  0.728967        119.3645        0.2948089        5.461355        0.2948089        5.461325        0.7289673        119.3645
4.7246                  0.727938        118.7425        0.2907847        5.008183        0.2907847        5.008151        0.7279384        118.7424
4.726                  0.7268417        118.1302        0.2869039        4.570832        0.2869039        4.570799         0.726842        118.1302
4.7274                 0.7256889        117.5277        0.2831715        4.146122        0.2831715         4.14609        0.7256892        117.5277
4.7288                 0.7244908        116.9347        0.2795898        3.730548        0.2795897        3.730515        0.7244911        116.9347
4.7302                 0.7232585        116.3511        0.2761578         3.32037        0.2761577        3.320338        0.7232587         116.351
4.7316                 0.7220024        115.7762        0.2728717        2.911733        0.2728716        2.911702        0.7220026        115.7762
4.733                  0.7207322        115.2096        0.2697248        2.500777        0.2697247        2.500747        0.7207325        115.2096
4.7344                 0.7194571        114.6507        0.2667076        2.083763        0.2667075        2.083735        0.7194574        114.6507
4.7358                 0.7181845        114.0987        0.2638083        1.657187        0.2638082        1.657161        0.7181849        114.0987
4.7372                 0.7169208        113.5527        0.2610129         1.21789        0.2610127        1.217866        0.7169211        113.5527
4.7386                 0.7156707        113.0119        0.2583058       0.7631507        0.2583056       0.7631297         0.715671        113.0119
4.74                   0.7144371        112.4753        0.2556702       0.2907695          0.25567        0.290752        0.7144375        112.4753
4.7414                 0.7132215        111.9419        0.2530886      -0.2008739        0.2530884      -0.2008875        0.7132218        111.9419
4.7428                 0.7120231        111.4108        0.2505434      -0.7127776        0.2505431      -0.7127877        0.7120236        111.4108
4.7442                 0.7108399         110.881         0.248017       -1.245299        0.2480168       -1.245305        0.7108402         110.881
4.7456                 0.7096675        110.3516        0.2454928       -1.798148        0.2454925        -1.79815        0.7096679        110.3515
4.747                  0.7085004        109.8217        0.2429552       -2.370408         0.242955       -2.370405        0.7085008        109.8217
4.7484                 0.7073315        109.2905        0.2403903       -2.960562        0.2403901       -2.960555        0.7073319        109.2905
4.7498                 0.7061524        108.7575        0.2377861       -3.566538        0.2377859       -3.566527        0.7061528        108.7575
4.7512                 0.7049537        108.2221        0.2351327        -4.18577        0.2351325       -4.185754        0.7049541        108.2221
4.7526                 0.7037252        107.6839        0.2324226       -4.815252        0.2324224       -4.815232        0.7037256        107.6839
4.754                  0.7024564        107.1426        0.2296509       -5.451622        0.2296507       -5.451599        0.7024568        107.1425
4.7554                 0.7011364        106.5981        0.2268155       -6.091237        0.2268153       -6.091211        0.7011369         106.598
4.7568                 0.6997546        106.0504        0.2239168       -6.730258        0.2239166       -6.730227         0.699755        106.0504
4.7582                 0.6983008        105.4998        0.2209579       -7.364739        0.2209578       -7.364706        0.6983011        105.4998
4.7596                 0.6967653        104.9465        0.2179447       -7.990728        0.2179446       -7.990694        0.6967657        104.9465
4.761                  0.6951398         104.391        0.2148852       -8.604368         0.214885       -8.604332        0.6951402         104.391
4.7624                 0.6934167        103.8339        0.2117898       -9.201991        0.2117897       -9.201955        0.6934171        103.8339
4.7638                 0.6915903        103.2758        0.2086708        -9.78024        0.2086707       -9.780203        0.6915906        103.2758
4.7652                 0.6896562        102.7175        0.2055423       -10.33617        0.2055422       -10.33613        0.6896565        102.7175
4.7666                 0.6876118        102.1598        0.2024196       -10.86736        0.2024195       -10.86732        0.6876122        102.1598
4.768                  0.6854566        101.6035        0.1993187       -11.37202        0.1993187       -11.37198        0.6854569        101.6034
4.7694                 0.6831915        101.0495        0.1962564        -11.8491        0.1962563       -11.84906        0.6831917        101.0494
4.7708                 0.6808193        100.4985        0.1932491       -12.29836        0.1932491       -12.29833        0.6808196        100.4985
4.7722                 0.6783449        99.95153        0.1903129       -12.72047        0.1903129       -12.72044        0.6783452         99.9515
4.7736                 0.6757746        99.40914        0.1874628       -13.11703        0.1874629       -13.11701         0.675775        99.40911
4.775                  0.6731163        98.87206        0.1847124       -13.49062        0.1847125        -13.4906        0.6731166        98.87204
4.7764                  0.670379        98.34085        0.1820732       -13.84475        0.1820732       -13.84473        0.6703791        98.34083
4.7778                 0.6675727        97.81589        0.1795543       -14.18383        0.1795544       -14.18382        0.6675729        97.81586
