! TOUCHSTONE file generated by CST MICROWAVE STUDIO
! Date and time: Sat Nov 30 13:12:01 2024
! Project name: test_tuning.cst
! Parameters = {airCoaxOuterDiameter=3; chamferAngle=45; chamferWidth=24; connectorLength=10; drillingHoleDiameter=4.1; feedLength=60; flareDiameter=130; flareLength=70; gratingDistance=0; gratingGap=1.90274; outletLength=30; polarizerLength=134; probe1Diameter=1.3; probe1Distance=14; probe1Length=11.5; probe2Diameter=1.3; probe2Distance=0; probe2Length=11.5; probeLength=11.5; smaInnerDiameter=1.3; smaOuterDiameter=4.1; transitionCoefficient=1.33; waveguideFeedLength=30; waveguideSide=50; waveguideThickness=3; wireCount=25; wireDiameter=1.17699}
! Header version: 2024
! Port assignment regex: !\s*Touchstone port\s*([0-9]+)\s*=\s*(CST MWS port|CST DES external port|CST DES block port)\s*(.+)\s* \(\"(.*)\"\)(\s*mode\s*([0-9]+))?.*
! Touchstone port assignment:
! Touchstone port 1 = CST MWS port 1 ("Input1")
! Touchstone port 2 = CST MWS port 2 ("Input2")
# GHz S MA R 50
4.6                    0.1991424       -167.5494        0.6246593        78.71144        0.6246576         78.7115        0.1991443       -167.5496
4.6014                 0.2077067       -168.0213         0.626446        77.71951        0.6264444        77.71957        0.2077086       -168.0216
4.6028                 0.2162827       -168.5099        0.6281631        76.71779        0.6281615        76.71786        0.2162846       -168.5101
4.6042                 0.2248797        -169.012        0.6298062         75.7055        0.6298047        75.70556        0.2248816       -169.0123
4.6056                 0.2335081       -169.5258        0.6313689        74.68188        0.6313674        74.68196          0.23351       -169.5261
4.607                  0.2421791       -170.0499        0.6328429        73.64622        0.6328415        73.64631         0.242181       -170.0502
4.6084                 0.2509043       -170.5841        0.6342181        72.59786        0.6342167        72.59796        0.2509061       -170.5844
4.6098                  0.259695       -171.1284        0.6354827        71.53627        0.6354814        71.53637        0.2596968       -171.1287
4.6112                 0.2685622       -171.6836        0.6366232          70.461         0.636622         70.4611        0.2685639       -171.6839
4.6126                 0.2775159       -172.2507        0.6376251        69.37177        0.6376238        69.37189        0.2775176        -172.251
4.614                  0.2865647       -172.8312        0.6384724        68.26845        0.6384713        68.26856        0.2865664       -172.8316
4.6154                 0.2957158       -173.4267        0.6391487        67.15108        0.6391477        67.15119        0.2957173        -173.427
4.6168                  0.304974       -174.0389        0.6396371        66.01987        0.6396361        66.01999        0.3049755       -174.0392
4.6182                 0.3143423       -174.6694        0.6399202        64.87524        0.6399193        64.87538        0.3143438       -174.6697
4.6196                 0.3238211         -175.32        0.6399814        63.71783        0.6399806        63.71796        0.3238226       -175.3204
4.621                  0.3334085       -175.9924        0.6398043        62.54838        0.6398036        62.54852        0.3334098       -175.9927
4.6224                 0.3430999       -176.6879        0.6393732        61.36792        0.6393726        61.36805        0.3431012       -176.6882
4.6238                 0.3528881       -177.4077         0.638674        60.17758        0.6386735        60.17771        0.3528893        -177.408
4.6252                 0.3627636       -178.1528         0.637694         58.9787        0.6376936        58.97883        0.3627647       -178.1532
4.6266                 0.3727145       -178.9241        0.6364222        57.77278        0.6364219        57.77291        0.3727156       -178.9244
4.628                  0.3827266       -179.7218        0.6348498        56.56143        0.6348495        56.56157        0.3827275       -179.7221
4.6294                 0.3927839        179.4537          0.63297        55.34643        0.6329698        55.34657        0.3927848        179.4534
4.6308                 0.4028686        178.6027        0.6307787        54.12964        0.6307787        54.12977        0.4028694        178.6024
4.6322                 0.4129614        177.7254        0.6282744        52.91302        0.6282744        52.91314        0.4129621        177.7251
4.6336                  0.423042        176.8225        0.6254581         51.6986        0.6254582        51.69872        0.4230426        176.8222
4.635                   0.433089        175.8948        0.6223337        50.48844        0.6223339        50.48857        0.4330895        175.8945
4.6364                 0.4430808        174.9433        0.6189079        49.28466        0.6189082        49.28479        0.4430812        174.9431
4.6378                 0.4529952        173.9695        0.6151901        48.08937        0.6151904        48.08949        0.4529955        173.9692
4.6392                 0.4628103        172.9745        0.6111922        46.90463        0.6111925        46.90476        0.4628105        172.9743
4.6406                 0.4725044          171.96        0.6069289        45.73252        0.6069293        45.73263        0.4725046        171.9598
4.642                  0.4820566        170.9277        0.6024173        44.57497        0.6024177        44.57508        0.4820567        170.9275
4.6434                 0.4914467        169.8792        0.5976767        43.43386        0.5976772        43.43397        0.4914467         169.879
4.6448                 0.5006556        168.8164        0.5927285        42.31094        0.5927289        42.31104        0.5006555        168.8162
4.6462                 0.5096656         167.741        0.5875955        41.20781         0.587596         41.2079        0.5096655        167.7408
4.6476                 0.5184604        166.6551        0.5823024        40.12588         0.582303        40.12597        0.5184603        166.6549
4.649                  0.5270254        165.5603        0.5768748        39.06636        0.5768754        39.06644        0.5270252        165.5601
4.6504                 0.5353477        164.4585         0.571339        38.03026        0.5713396        38.03033        0.5353474        164.4584
4.6518                 0.5434162        163.3516        0.5657219        37.01829        0.5657225        37.01836        0.5434161        163.3515
4.6532                 0.5512218        162.2412        0.5600502        36.03094        0.5600509          36.031        0.5512217        162.2411
4.6546                 0.5587573        161.1291        0.5543505         35.0684        0.5543512        35.06845        0.5587571         161.129
4.656                  0.5660174        160.0168        0.5486483        34.13053        0.5486489        34.13058        0.5660172        160.0167
4.6574                 0.5729985        158.9058        0.5429678        33.21693        0.5429685        33.21697        0.5729983        158.9057
4.6588                 0.5796992        157.7975        0.5373322        32.32686        0.5373328        32.32689        0.5796992        157.7974
4.6602                 0.5861196        156.6931        0.5317621        31.45929        0.5317627        31.45932        0.5861196        156.6931
4.6616                 0.5922615        155.5939        0.5262762         30.6129        0.5262768        30.61292        0.5922615        155.5938
4.663                  0.5981281        154.5009        0.5208904         29.7861         0.520891        29.78612        0.5981281        154.5008
4.6644                 0.6037239        153.4149         0.515618        28.97706        0.5156185        28.97707        0.6037239        153.4148
4.6658                 0.6090547        152.3367        0.5104689        28.18373        0.5104694        28.18374        0.6090549        152.3366
4.6672                 0.6141272         151.267        0.5054504        27.40392        0.5054507        27.40393        0.6141274        151.2669
4.6686                 0.6189487        150.2063        0.5005659        26.63532        0.5005662        26.63532         0.618949        150.2062
4.67                   0.6235272        149.1549        0.4958162        25.87553        0.4958165        25.87552        0.6235275        149.1549
4.6714                 0.6278712        148.1132        0.4911987        25.12216         0.491199        25.12215        0.6278715        148.1132
4.6728                 0.6319888        147.0813         0.486708        24.37287        0.4867083        24.37286        0.6319891        147.0812
4.6742                 0.6358886        146.0592        0.4823361        23.62541        0.4823362         23.6254         0.635889        146.0592
4.6756                 0.6395788        145.0469        0.4780721        22.87769        0.4780722        22.87768        0.6395793        145.0469
4.677                  0.6430672        144.0442        0.4739036        22.12781        0.4739037         22.1278        0.6430676        144.0442
4.6784                  0.646361        143.0511        0.4698161        21.37414        0.4698162        21.37413        0.6463615         143.051
4.6798                 0.6494668        142.0671        0.4657943         20.6153        0.4657943         20.6153        0.6494673         142.067
4.6812                 0.6523903         141.092        0.4618214        19.85023        0.4618214        19.85023        0.6523908         141.092
4.6826                 0.6551368        140.1255        0.4578807         19.0782        0.4578807         19.0782        0.6551373        140.1255
4.684                  0.6577103        139.1673        0.4539556        18.29881        0.4539555        18.29881        0.6577108        139.1673
4.6854                 0.6601143         138.217        0.4500296        17.51198        0.4500295        17.51198         0.660115        138.2169
4.6868                 0.6623515        137.2743        0.4460873          16.718        0.4460872          16.718         0.662352        137.2742
4.6882                 0.6644233        136.3389        0.4421146        15.91745        0.4421145        15.91746         0.664424        136.3388
4.6896                 0.6663313        135.4106        0.4380987        15.11123        0.4380986        15.11125        0.6663318        135.4105
4.691                  0.6680756        134.4891        0.4340289        14.30052        0.4340288        14.30053        0.6680762        134.4891
4.6924                 0.6696565        133.5744        0.4298965         13.4867        0.4298964        13.48672        0.6696571        133.5743
4.6938                  0.671074        132.6663         0.425695        12.67143        0.4256949        12.67145        0.6710744        132.6663
4.6952                 0.6723272        131.7649        0.4214203        11.85649        0.4214202        11.85651        0.6723277        131.7649
4.6966                 0.6734162        130.8702        0.4170707        11.04381        0.4170706        11.04384        0.6734166        130.8701
4.698                  0.6743404        129.9823        0.4126471        10.23541         0.412647        10.23544        0.6743408        129.9823
4.6994                 0.6751001        129.1015        0.4081526        9.433352        0.4081525        9.433386        0.6751005        129.1014
4.7008                 0.6756957        128.2279        0.4035928        8.639687        0.4035927        8.639722        0.6756961        128.2278
4.7022                 0.6761286        127.3619        0.3989754        7.856424        0.3989754        7.856461         0.676129        127.3619
4.7036                 0.6764005        126.5039          0.39431        7.085465          0.39431        7.085504        0.6764008        126.5038
4.705                  0.6765141        125.6542        0.3896083        6.328568        0.3896082         6.32861        0.6765145        125.6541
4.7064                 0.6764733        124.8132        0.3848829          5.5873        0.3848829        5.587342        0.6764734        124.8132
4.7078                 0.6762825        123.9814        0.3801482        4.862988        0.3801482        4.863031        0.6762826        123.9814
4.7092                 0.6759475        123.1592        0.3754189        4.156681        0.3754189        4.156725        0.6759476        123.1592
4.7106                 0.6754747        122.3469        0.3707106        3.469102        0.3707106        3.469157        0.6754749        122.3469
4.712                  0.6748723         121.545        0.3660387        2.800669        0.3660386        2.800715        0.6748724         121.545
4.7134                 0.6741485        120.7538        0.3614183         2.15137        0.3614184        2.151416        0.6741485        120.7538
4.7148                 0.6733126        119.9735        0.3568642        1.520844        0.3568642         1.52089        0.6733128        119.9734
4.7162                 0.6723752        119.2042        0.3523896       0.9083309        0.3523896       0.9083769        0.6723753        119.2042
4.7176                 0.6713464        118.4461        0.3480068       0.3126823        0.3480068       0.3127285        0.6713466        118.4461
4.719                  0.6702377        117.6992        0.3437259      -0.2676186        0.3437259      -0.2675722        0.6702379        117.6992
4.7204                 0.6690601        116.9633        0.3395555      -0.8344304        0.3395555       -0.834384        0.6690603        116.9633
4.7218                 0.6678248        116.2382        0.3355016       -1.389911        0.3355016       -1.389864        0.6678251        116.2382
4.7232                  0.666543        115.5235        0.3315679       -1.936466        0.3315679       -1.936419        0.6665433        115.5235
4.7246                 0.6652249        114.8188        0.3277557       -2.476685        0.3277558       -2.476638        0.6652252        114.8189
4.726                  0.6638806        114.1236        0.3240638       -3.013273        0.3240638       -3.013226        0.6638809        114.1236
4.7274                 0.6625188         113.437        0.3204883       -3.548978        0.3204884        -3.54893        0.6625192        113.4371
4.7288                 0.6611476        112.7584        0.3170233       -4.086502        0.3170233       -4.086454        0.6611479        112.7585
4.7302                 0.6597733        112.0869        0.3136604       -4.628439        0.3136604       -4.628389        0.6597738        112.0869
4.7316                 0.6584013        111.4215        0.3103895       -5.177185        0.3103896       -5.177134        0.6584018        111.4215
4.733                  0.6570352        110.7612        0.3071988       -5.734878        0.3071989       -5.734827        0.6570358        110.7612
4.7344                 0.6556769        110.1051        0.3040753       -6.303339        0.3040754       -6.303288        0.6556776        110.1051
4.7358                  0.654327         109.452        0.3010051       -6.884015        0.3010052        -6.88396        0.6543276        109.4521
4.7372                  0.652984        108.8011        0.2979736       -7.477945        0.2979738       -7.477888        0.6529848        108.8011
4.7386                 0.6516453        108.1512        0.2949664       -8.085735        0.2949666       -8.085678        0.6516461        108.1512
4.74                   0.6503062        107.5015        0.2919692       -8.707542        0.2919694       -8.707482         0.650307        107.5015
4.7414                 0.6489612         106.851        0.2889684       -9.343072        0.2889686       -9.343012        0.6489621         106.851
4.7428                  0.647603        106.1991        0.2859514       -9.991592        0.2859516       -9.991532         0.647604        106.1991
4.7442                 0.6462237        105.5451         0.282907       -10.65195        0.2829072       -10.65189        0.6462246        105.5451
4.7456                 0.6448142        104.8884        0.2798255       -11.32261        0.2798257       -11.32254        0.6448152        104.8884
4.747                  0.6433649        104.2286        0.2766991       -12.00166        0.2766993        -12.0016         0.643366        104.2287
4.7484                 0.6418661        103.5656        0.2735221       -12.68691        0.2735223       -12.68685        0.6418672        103.5656
4.7498                 0.6403076        102.8991        0.2702908       -13.37591         0.270291       -13.37584        0.6403086        102.8991
4.7512                 0.6386795        102.2293        0.2670038       -14.06599        0.2670041       -14.06593        0.6386806        102.2293
4.7526                 0.6369725        101.5562         0.263662       -14.75436        0.2636624        -14.7543        0.6369736        101.5562
4.754                  0.6351778        100.8803        0.2602686       -15.43816        0.2602689       -15.43811        0.6351789        100.8802
4.7554                 0.6332875        100.2018        0.2568288       -16.11453        0.2568292       -16.11448        0.6332886        100.2018
4.7568                 0.6312948        99.52159          0.25335       -16.78067        0.2533503       -16.78062        0.6312959        99.52156
4.7582                 0.6291944        98.84008        0.2498413       -17.43394        0.2498416       -17.43389        0.6291955        98.84003
4.7596                 0.6269821        98.15809        0.2463136        -18.0719         0.246314       -18.07187        0.6269832        98.15806
4.761                  0.6246556        97.47648        0.2427791       -18.69245        0.2427795       -18.69242        0.6246565        97.47642
4.7624                 0.6222139        96.79601        0.2392511       -19.29384        0.2392516       -19.29381        0.6222148        96.79592
4.7638                 0.6196579        96.11761        0.2357438       -19.87478        0.2357442       -19.87475        0.6196588        96.11752
4.7652                 0.6169899        95.44212        0.2322715       -20.43449        0.2322719       -20.43447        0.6169908        95.44201
4.7666                 0.6142144        94.77036        0.2288487       -20.97278        0.2288491       -20.97277        0.6142152        94.77028
4.768                  0.6113367        94.10316        0.2254894       -21.49009        0.2254898       -21.49009        0.6113374        94.10308
4.7694                  0.608364        93.44123        0.2222068       -21.98751        0.2222072       -21.98752        0.6083646        93.44112
4.7708                 0.6053044        92.78514        0.2190129       -22.46683        0.2190133       -22.46684         0.605305        92.78508
4.7722                 0.6021672        92.13547        0.2159181       -22.93047        0.2159185        -22.9305        0.6021678        92.13536
4.7736                 0.5989626        91.49251         0.212931       -23.38154        0.2129314       -23.38157        0.5989631        91.49243
4.775                  0.5957011         90.8565        0.2100578       -23.82369        0.2100582       -23.82373        0.5957015        90.85644
4.7764                 0.5923934        90.22752        0.2073024        -24.2611        0.2073027       -24.26115        0.5923938        90.22744
4.7778                 0.5890506        89.60543         0.204666       -24.69836        0.2046663       -24.69842        0.5890508        89.60535
