! TOUCHSTONE file generated by CST MICROWAVE STUDIO
! Date and time: Sat Nov 30 13:12:02 2024
! Project name: test_tuning.cst
! Parameters = {airCoaxOuterDiameter=3; chamferAngle=45; chamferWidth=24; connectorLength=10; drillingHoleDiameter=4.1; feedLength=60; flareDiameter=130; flareLength=70; gratingDistance=0; gratingGap=1.90274; outletLength=30; polarizerLength=134; probe1Diameter=1.3; probe1Distance=14; probe1Length=13.5; probe2Diameter=1.3; probe2Distance=0; probe2Length=13.5; probeLength=13.5; smaInnerDiameter=1.3; smaOuterDiameter=4.1; transitionCoefficient=1.33; waveguideFeedLength=30; waveguideSide=50; waveguideThickness=3; wireCount=25; wireDiameter=1.17699}
! Header version: 2024
! Port assignment regex: !\s*Touchstone port\s*([0-9]+)\s*=\s*(CST MWS port|CST DES external port|CST DES block port)\s*(.+)\s* \(\"(.*)\"\)(\s*mode\s*([0-9]+))?.*
! Touchstone port assignment:
! Touchstone port 1 = CST MWS port 1 ("Input1")
! Touchstone port 2 = CST MWS port 2 ("Input2")
# GHz S MA R 50
4.6                    0.3374563       -143.4704        0.5256513        36.00162        0.5256514        36.00161        0.3374562       -143.4706
4.6014                 0.3403268       -144.0398        0.5278423        35.33858        0.5278424        35.33857        0.3403267         -144.04
4.6028                 0.3432878       -144.6237        0.5299629        34.65593         0.529963        34.65593        0.3432876       -144.6239
4.6042                 0.3463352       -145.2232        0.5319928         33.9545        0.5319928         33.9545        0.3463351       -145.2234
4.6056                 0.3494644       -145.8394        0.5339128        33.23536        0.5339128        33.23535        0.3494643       -145.8396
4.607                  0.3526701       -146.4732        0.5357048        32.49981        0.5357048        32.49979          0.35267       -146.4733
4.6084                 0.3559468       -147.1253        0.5373524        31.74936        0.5373524        31.74935        0.3559467       -147.1254
4.6098                 0.3592884       -147.7964        0.5388411        30.98572        0.5388411        30.98571        0.3592883       -147.7965
4.6112                 0.3626886        -148.487        0.5401584        30.21076        0.5401584        30.21075        0.3626886       -148.4871
4.6126                 0.3661411       -149.1976        0.5412943        29.42644        0.5412942        29.42643        0.3661411       -149.1977
4.614                  0.3696393       -149.9285         0.542241        28.63486         0.542241        28.63485        0.3696393       -149.9286
4.6154                 0.3731763       -150.6799        0.5429937        27.83815        0.5429937        27.83814        0.3731764         -150.68
4.6168                 0.3767457        -151.452        0.5435499         27.0385        0.5435498        27.03849        0.3767458       -151.4521
4.6182                 0.3803406       -152.2449          0.54391        26.23808        0.5439099        26.23808        0.3803408       -152.2449
4.6196                 0.3839544       -153.0586        0.5440773        25.43906        0.5440772        25.43906        0.3839546       -153.0586
4.621                  0.3875803        -153.893        0.5440574        24.64354        0.5440574        24.64353        0.3875806       -153.8931
4.6224                 0.3912118       -154.7483         0.543859        23.85351         0.543859        23.85351        0.3912122       -154.7483
4.6238                 0.3948422       -155.6242        0.5434927        23.07089        0.5434927        23.07089        0.3948426       -155.6242
4.6252                  0.398465       -156.5207         0.542972        22.29742        0.5429719        22.29742        0.3984654       -156.5207
4.6266                 0.4020735       -157.4376         0.542312        21.53468        0.5423121        21.53467        0.4020741       -157.4377
4.628                  0.4056614       -158.3748        0.5415302        20.78404        0.5415302        20.78403         0.405662       -158.3749
4.6294                 0.4092219       -159.3322        0.5406452        20.04665        0.5406451        20.04665        0.4092225       -159.3323
4.6308                 0.4127484       -160.3096        0.5396771        19.32344        0.5396771        19.32343        0.4127492       -160.3097
4.6322                 0.4162344       -161.3068        0.5386472        18.61502        0.5386472        18.61501         0.416235       -161.3069
4.6336                 0.4196728       -162.3236        0.5375771        17.92175        0.5375771        17.92175        0.4196736       -162.3237
4.635                  0.4230571         -163.36         0.536489         17.2437        0.5364889         17.2437        0.4230579       -163.3601
4.6364                 0.4263801       -164.4156        0.5354046        16.58062        0.5354045        16.58062        0.4263809       -164.4157
4.6378                 0.4296348       -165.4903        0.5343453        15.93196        0.5343453        15.93195        0.4296356       -165.4904
4.6392                 0.4328139       -166.5838        0.5333317        15.29686        0.5333318        15.29685        0.4328149       -166.5839
4.6406                 0.4359102        -167.696        0.5323831        14.67417        0.5323832        14.67416        0.4359111       -167.6961
4.642                  0.4389161       -168.8266        0.5315172        14.06247        0.5315172        14.06246         0.438917       -168.8267
4.6434                 0.4418241       -169.9752        0.5307496        13.46008        0.5307496        13.46006         0.441825       -169.9753
4.6448                 0.4446265       -171.1417         0.530094        12.86509        0.5300939        12.86508        0.4446274       -171.1418
4.6462                 0.4473155       -172.3256        0.5295614        12.27541        0.5295613        12.27539        0.4473165       -172.3257
4.6476                 0.4498835       -173.5266        0.5291603        11.68878        0.5291603        11.68877        0.4498844       -173.5267
4.649                  0.4523227       -174.7443        0.5288965        11.10286        0.5288964        11.10284        0.4523235       -174.7444
4.6504                 0.4546252       -175.9783        0.5287726        10.51523        0.5287726        10.51521        0.4546261       -175.9784
4.6518                 0.4567837        -177.228        0.5287887        9.923445        0.5287887        9.923423        0.4567845       -177.2281
4.6532                 0.4587906        -178.493         0.528942        9.325113        0.5289418         9.32509        0.4587914       -178.4931
4.6546                 0.4606386       -179.7727        0.5292266        8.717905        0.5292265        8.717883        0.4606395       -179.7728
4.656                   0.462321        178.9335        0.5296346        8.099618        0.5296344        8.099594        0.4623219        178.9334
4.6574                 0.4638311        177.6262         0.530155        7.468202        0.5301548        7.468177        0.4638318        177.6261
4.6588                 0.4651626        176.3062        0.5307754        6.821798        0.5307752        6.821772        0.4651634        176.3061
4.6602                   0.46631        174.9741        0.5314808        6.158763        0.5314806        6.158738        0.4663108        174.9741
4.6616                  0.467268        173.6308        0.5322553        5.477691        0.5322551        5.477666        0.4672688        173.6307
4.663                  0.4680321         172.277        0.5330813        4.777428         0.533081        4.777404        0.4680329        172.2769
4.6644                 0.4685984        170.9135        0.5339405        4.057076        0.5339402        4.057054        0.4685992        170.9135
4.6658                 0.4689637        169.5413        0.5348139        3.316002        0.5348135        3.315981        0.4689645        169.5412
4.6672                 0.4691256        168.1611        0.5356822        2.553825        0.5356818        2.553805        0.4691264         168.161
4.6686                 0.4690825        166.7739        0.5365262        1.770414        0.5365258        1.770396        0.4690833        166.7739
4.67                   0.4688335        165.3806        0.5373272       0.9658731        0.5373268       0.9658581        0.4688343        165.3806
4.6714                 0.4683788        163.9821        0.5380671       0.1405261        0.5380666       0.1405139        0.4683796        163.9821
4.6728                 0.4677193        162.5793        0.5387282      -0.7051043        0.5387278      -0.7051135        0.4677202        162.5793
4.6742                 0.4668569        161.1732        0.5392944       -1.570317         0.539294       -1.570323        0.4668578        161.1732
4.6756                 0.4657942        159.7646        0.5397509       -2.454252        0.5397504       -2.454255        0.4657952        159.7645
4.677                  0.4645351        158.3543        0.5400837        -3.35592        0.5400832       -3.355919         0.464536        158.3543
4.6784                 0.4630839        156.9434         0.540281       -4.274219        0.5402806       -4.274213        0.4630849        156.9433
4.6798                 0.4614458        155.5324        0.5403325       -5.207958        0.5403319        -5.20795        0.4614468        155.5324
4.6812                 0.4596272        154.1223        0.5402292       -6.155889        0.5402287       -6.155876        0.4596282        154.1223
4.6826                 0.4576348        152.7137        0.5399643       -7.116718        0.5399638       -7.116702        0.4576359        152.7137
4.684                  0.4554761        151.3073        0.5395324        -8.08913        0.5395319       -8.089111        0.4554772        151.3073
4.6854                 0.4531594        149.9036        0.5389299       -9.071815        0.5389294        -9.07179        0.4531605        149.9036
4.6868                 0.4506933        148.5033         0.538155       -10.06347        0.5381544       -10.06345        0.4506945        148.5033
4.6882                 0.4480871        147.1066         0.537207       -11.06285        0.5372066       -11.06282        0.4480883        147.1066
4.6896                 0.4453503         145.714        0.5360872       -12.06874        0.5360868       -12.06871        0.4453515         145.714
4.691                  0.4424926        144.3257        0.5347979          -13.08        0.5347975       -13.07996        0.4424939        144.3257
4.6924                 0.4395243        142.9418        0.5333427       -14.09557        0.5333423       -14.09553        0.4395255        142.9418
4.6938                 0.4364553        141.5623        0.5317263       -15.11447        0.5317258       -15.11445        0.4364565        141.5623
4.6952                 0.4332957        140.1872         0.529954       -16.13586        0.5299537       -16.13581         0.433297        140.1872
4.6966                 0.4300555        138.8163        0.5280323       -17.15895         0.528032       -17.15892        0.4300567        138.8162
4.698                  0.4267442        137.4491         0.525968        -18.1831        0.5259678       -18.18305        0.4267456        137.4491
4.6994                 0.4233714        136.0854        0.5237682       -19.20778         0.523768       -19.20772        0.4233727        136.0853
4.7008                 0.4199458        134.7244        0.5214403       -20.23252        0.5214401        -20.2325        0.4199471        134.7244
4.7022                 0.4164759        133.3656        0.5189918        -21.2571        0.5189916       -21.25704        0.4164771        133.3655
4.7036                 0.4129693        132.0081        0.5164298       -22.28131        0.5164298       -22.28126        0.4129704         132.008
4.705                   0.409433         130.651        0.5137616       -23.30503        0.5137616       -23.30495        0.4094342        130.6509
4.7064                 0.4058733        129.2933        0.5109936       -24.32832        0.5109936       -24.32824        0.4058744        129.2932
4.7078                 0.4022956        127.9339        0.5081319       -25.35126        0.5081319        -25.3512        0.4022967        127.9339
4.7092                 0.3987044        126.5717        0.5051818       -26.37407        0.5051818       -26.37402        0.3987054        126.5716
4.7106                 0.3951033        125.2054         0.502148       -27.39705         0.502148         -27.397        0.3951043        125.2053
4.712                  0.3914952        123.8337        0.4990344       -28.42047        0.4990345       -28.42042        0.3914962        123.8336
4.7134                 0.3878819        122.4552         0.495844        -29.4447        0.4958441       -29.44466        0.3878827        122.4552
4.7148                 0.3842642        121.0687        0.4925789       -30.47015        0.4925791        -30.4701        0.3842651        121.0686
4.7162                 0.3806423        119.6726        0.4892406        -31.4972        0.4892408       -31.49716        0.3806431        119.6725
4.7176                 0.3770155        118.2657        0.4858294       -32.52625        0.4858296       -32.52621        0.3770163        118.2656
4.719                  0.3733825        116.8466        0.4823452       -33.55766        0.4823455       -33.55762        0.3733832        116.8465
4.7204                 0.3697411        115.4139         0.478787       -34.59177        0.4787872       -34.59173        0.3697417        115.4139
4.7218                 0.3660886        113.9665        0.4751532       -35.62885        0.4751535       -35.62882        0.3660892        113.9664
4.7232                 0.3624221         112.503        0.4714418       -36.66912         0.471442       -36.66909        0.3624226         112.503
4.7246                 0.3587379        111.0224        0.4676503        -37.7127        0.4676505       -37.71268        0.3587384        111.0224
4.726                  0.3550324        109.5237        0.4637761       -38.75965        0.4637763       -38.75963        0.3550329        109.5236
4.7274                 0.3513018        108.0058        0.4598162       -39.80992        0.4598165        -39.8099        0.3513022        108.0057
4.7288                 0.3475421        106.4679        0.4557681       -40.86336        0.4557684       -40.86334        0.3475425        106.4679
4.7302                 0.3437496        104.9092        0.4516289        -41.9197        0.4516292       -41.91968        0.3437499        104.9092
4.7316                 0.3399207        103.3291        0.4473964       -42.97856        0.4473966       -42.97856        0.3399209        103.3291
4.733                   0.336052        101.7271        0.4430686        -44.0395        0.4430688        -44.0395        0.3360522        101.7271
4.7344                 0.3321407        100.1025        0.4386443       -45.10191        0.4386445       -45.10191        0.3321408        100.1026
4.7358                 0.3281843        98.45529        0.4341226       -46.16513        0.4341228       -46.16513        0.3281844        98.45529
4.7372                 0.3241811        96.78497        0.4295038       -47.22836        0.4295039       -47.22837        0.3241812          96.785
4.7386                 0.3201298        95.09151        0.4247886       -48.29075        0.4247888       -48.29076        0.3201299        95.09153
4.74                   0.3160301        93.37475        0.4199789       -49.35135         0.419979       -49.35135        0.3160302         93.3748
4.7414                 0.3118822        91.63475        0.4150775       -50.40915        0.4150776       -50.40917        0.3118822         91.6348
4.7428                 0.3076871        89.87154        0.4100882       -51.46312        0.4100883       -51.46314        0.3076871        89.87162
4.7442                 0.3034469        88.08529        0.4050158       -52.51217        0.4050158       -52.51218        0.3034469        88.08537
4.7456                 0.2991641         86.2761        0.3998659        -53.5552         0.399866       -53.55521        0.2991642        86.27621
4.747                  0.2948426        84.44425        0.3946454       -54.59111        0.3946455       -54.59113        0.2948426        84.44434
4.7484                 0.2904865        82.58993        0.3893619       -55.61884        0.3893619       -55.61885        0.2904866        82.59007
4.7498                 0.2861013        80.71342        0.3840238       -56.63736        0.3840238       -56.63737        0.2861013        80.71353
4.7512                 0.2816928        78.81489        0.3786403       -57.64571        0.3786403       -57.64571        0.2816929        78.81503
4.7526                 0.2772679        76.89467        0.3732213       -58.64301        0.3732212       -58.64303        0.2772679        76.89481
4.754                  0.2728339        74.95292        0.3677769       -59.62854        0.3677769       -59.62854        0.2728339        74.95303
4.7554                 0.2683989        72.98976        0.3623179       -60.60162        0.3623178       -60.60162         0.268399        72.98993
4.7568                 0.2639716        71.00541         0.356855       -61.56182         0.356855       -61.56182        0.2639716        71.00558
4.7582                  0.259561        68.99989        0.3513992       -62.50882        0.3513991       -62.50882         0.259561        69.00006
4.7596                 0.2551767        66.97317        0.3459612       -63.44249        0.3459611       -63.44249        0.2551767        66.97331
4.761                  0.2508285        64.92521        0.3405512       -64.36297        0.3405511       -64.36297        0.2508285        64.92536
4.7624                 0.2465265        62.85582        0.3351793       -65.27053        0.3351792       -65.27053        0.2465266        62.85602
4.7638                 0.2422811        60.76479        0.3298545       -66.16571        0.3298544        -66.1657        0.2422813          60.765
4.7652                 0.2381027        58.65179        0.3245853       -67.04927        0.3245853       -67.04925        0.2381028        58.65196
4.7666                 0.2340014        56.51631         0.319379       -67.92218         0.319379       -67.92217        0.2340016        56.51649
4.768                  0.2299878        54.35788         0.314242       -68.78565        0.3142419       -68.78564        0.2299879        54.35806
4.7694                 0.2260718        52.17588        0.3091791       -69.64108         0.309179       -69.64106        0.2260719        52.17606
4.7708                 0.2222634         49.9696         0.304194       -70.49005         0.304194       -70.49002        0.2222635        49.96978
4.7722                  0.218572        47.73831        0.2992892        -71.3343        0.2992891       -71.33427        0.2185721        47.73849
4.7736                  0.215007        45.48117        0.2944654       -72.17572        0.2944654        -72.1757        0.2150071        45.48135
4.775                   0.211577        43.19737        0.2897222        -73.0163        0.2897222       -73.01628         0.211577        43.19754
4.7764                 0.2082902        40.88602        0.2850577       -73.85809        0.2850577       -73.85806        0.2082902         40.8862
4.7778                 0.2051544        38.54632        0.2804686       -74.70313        0.2804686        -74.7031        0.2051544        38.54649
