! TOUCHSTONE file generated by CST MICROWAVE STUDIO
! Date and time: Sat Nov 30 13:12:00 2024
! Project name: test_tuning.cst
! Parameters = {airCoaxOuterDiameter=3; chamferAngle=45; chamferWidth=24; connectorLength=10; drillingHoleDiameter=4.1; feedLength=60; flareDiameter=130; flareLength=70; gratingDistance=0; gratingGap=1.90274; outletLength=30; polarizerLength=134; probe1Diameter=1.3; probe1Distance=14; probe1Length=10.5; probe2Diameter=1.3; probe2Distance=0; probe2Length=10.5; probeLength=10.5; smaInnerDiameter=1.3; smaOuterDiameter=4.1; transitionCoefficient=1.33; waveguideFeedLength=30; waveguideSide=50; waveguideThickness=3; wireCount=25; wireDiameter=1.17699}
! Header version: 2024
! Port assignment regex: !\s*Touchstone port\s*([0-9]+)\s*=\s*(CST MWS port|CST DES external port|CST DES block port)\s*(.+)\s* \(\"(.*)\"\)(\s*mode\s*([0-9]+))?.*
! Touchstone port assignment:
! Touchstone port 1 = CST MWS port 1 ("Input1")
! Touchstone port 2 = CST MWS port 2 ("Input2")
# GHz S MA R 50
4.6                    0.1065477        137.9833        0.6419383        112.0116        0.6419377        112.0117        0.1065489        137.9834
4.6014                 0.1086996        146.0602        0.6475423        110.5625        0.6475417        110.5626        0.1087008        146.0603
4.6028                 0.1137975        153.6726        0.6528218         109.079        0.6528212        109.0791        0.1137987        153.6726
4.6042                 0.1216035        160.4303        0.6577404        107.5636          0.65774        107.5636        0.1216048        160.4301
4.6056                 0.1317382        166.1442        0.6622645        106.0185        0.6622642        106.0186        0.1317395        166.1439
4.607                   0.143782        170.7998        0.6663641        104.4463        0.6663638        104.4464        0.1437832        170.7995
4.6084                 0.1573432        174.4874        0.6700123        102.8498        0.6700121        102.8498        0.1573445        174.4871
4.6098                 0.1720873          177.34        0.6731863        101.2314        0.6731862        101.2315        0.1720885        177.3397
4.6112                 0.1877404        179.4952         0.675867          99.594        0.6758669        99.59406        0.1877415        179.4948
4.6126                 0.2040824       -178.9229        0.6780386        97.94017        0.6780386        97.94025        0.2040834       -178.9233
4.614                  0.2209362       -177.8089        0.6796898        96.27261        0.6796899         96.2727        0.2209372       -177.8093
4.6154                 0.2381589       -177.0763        0.6808127        94.59391        0.6808129          94.594        0.2381597       -177.0767
4.6168                 0.2556333       -176.6552        0.6814028         92.9066         0.681403        92.90667        0.2556339       -176.6556
4.6182                 0.2732623       -176.4893        0.6814591        91.21313        0.6814594        91.21319        0.2732628       -176.4897
4.6196                 0.2909648       -176.5333        0.6809838        89.51586        0.6809842        89.51593        0.2909652       -176.5337
4.621                  0.3086719       -176.7506        0.6799825        87.81704        0.6799829        87.81711        0.3086721        -176.751
4.6224                  0.326325       -177.1115        0.6784626        86.11889        0.6784631        86.11893        0.3263251       -177.1118
4.6238                 0.3438738       -177.5916        0.6764349        84.42337        0.6764355        84.42342        0.3438738        -177.592
4.6252                 0.3612751       -178.1713        0.6739118        82.73249        0.6739124        82.73252        0.3612749       -178.1716
4.6266                 0.3784915       -178.8339        0.6709079        81.04802        0.6709086        81.04805        0.3784912       -178.8341
4.628                   0.395491       -179.5659        0.6674394        79.37171        0.6674401        79.37173        0.3954906       -179.5661
4.6294                 0.4122458        179.6441        0.6635239        77.70512        0.6635246        77.70516        0.4122453        179.6439
4.6308                 0.4287323        178.8056        0.6591801         76.0498        0.6591808        76.04982        0.4287317        178.8054
4.6322                 0.4449299        177.9266        0.6544275        74.40713        0.6544282        74.40714        0.4449292        177.9264
4.6336                 0.4608214        177.0137        0.6492864         72.7784        0.6492871        72.77841        0.4608205        177.0136
4.635                  0.4763917        176.0728        0.6437776        71.16485        0.6437783        71.16484        0.4763907        176.0727
4.6364                 0.4916281        175.1086        0.6379221        69.56761        0.6379228        69.56761        0.4916271        175.1085
4.6378                 0.5065199        174.1252        0.6317408        67.98778        0.6317416        67.98777        0.5065188        174.1251
4.6392                 0.5210575        173.1261         0.625255        66.42634        0.6252558        66.42634        0.5210565        173.1259
4.6406                  0.535233        172.1141        0.6184858        64.88429        0.6184866        64.88426        0.5352319         172.114
4.642                  0.5490393         171.092        0.6114537        63.36253        0.6114543        63.36252        0.5490382        171.0919
4.6434                 0.5624699        170.0617        0.6041792        61.86197        0.6041798        61.86194        0.5624689        170.0616
4.6448                 0.5755193        169.0253        0.5966826        60.38348        0.5966833        60.38345        0.5755183        169.0252
4.6462                 0.5881821        167.9842        0.5889838        58.92794        0.5889844         58.9279        0.5881811        167.9842
4.6476                 0.6004534          166.94        0.5811023        57.49619        0.5811029        57.49615        0.6004524          166.94
4.649                  0.6123285         165.894        0.5730575        56.08911        0.5730581        56.08907        0.6123276         165.894
4.6504                 0.6238027        164.8472        0.5648684        54.70758        0.5648689        54.70753        0.6238018        164.8472
4.6518                 0.6348718        163.8008        0.5565538        53.35247        0.5565543        53.35242         0.634871        163.8008
4.6532                 0.6455315        162.7557        0.5481326        52.02471         0.548133        52.02465        0.6455309        162.7557
4.6546                  0.655778        161.7129        0.5396233         50.7252        0.5396237        50.72514        0.6557774        161.7129
4.656                  0.6656076        160.6733        0.5310447        49.45487        0.5310451         49.4548         0.665607        160.6733
4.6574                 0.6750171        159.6378        0.5224155        48.21466        0.5224157         48.2146        0.6750165        159.6377
4.6588                 0.6840035        158.6072        0.5137543        47.00549        0.5137545        47.00543        0.6840032        158.6072
4.6602                 0.6925652        157.5826        0.5050802        45.82829        0.5050804        45.82822        0.6925648        157.5826
4.6616                 0.7007008        156.5648        0.4964121        44.68392        0.4964123        44.68385        0.7007003        156.5648
4.663                    0.70841        155.5548         0.487769        43.57321        0.4877692        43.57314        0.7084096        155.5547
4.6644                 0.7156937        154.5534        0.4791703        42.49689        0.4791704        42.49681        0.7156935        154.5534
4.6658                 0.7225542        153.5617        0.4706349         41.4556         0.470635        41.45553         0.722554        153.5617
4.6672                 0.7289948        152.5806        0.4621819        40.44985         0.462182        40.44977        0.7289947        152.5806
4.6686                 0.7350209        151.6111        0.4538302        39.47999        0.4538302        39.47991        0.7350208         151.611
4.67                   0.7406393         150.654        0.4455979        38.54615        0.4455979        38.54608        0.7406392         150.654
4.6714                 0.7458582        149.7104         0.437503        37.64826        0.4375031        37.64818        0.7458581        149.7104
4.6728                  0.750688        148.7811        0.4295625        36.78598        0.4295625        36.78591        0.7506878        148.7811
4.6742                 0.7551406         147.867        0.4217922         35.9587        0.4217921        35.95863        0.7551404         147.867
4.6756                 0.7592299        146.9689        0.4142068        35.16548        0.4142067        35.16541        0.7592299        146.9688
4.677                  0.7629713        146.0874        0.4068194        34.40508        0.4068192        34.40502        0.7629711        146.0873
4.6784                 0.7663818        145.2231        0.3996411        33.67593         0.399641        33.67587        0.7663816        145.2231
4.6798                 0.7694798        144.3767        0.3926814        32.97612        0.3926811        32.97606        0.7694796        144.3767
4.6812                  0.772285        143.5486         0.385947        32.30342        0.3859468        32.30337        0.7722847        143.5485
4.6826                 0.7748178        142.7389        0.3794425        31.65533        0.3794423        31.65528        0.7748177        142.7389
4.684                     0.7771        141.9479        0.3731699        31.02906        0.3731696        31.02902        0.7770998        141.9478
4.6854                 0.7791531        141.1755         0.367128        30.42165        0.3671278        30.42161        0.7791529        141.1755
4.6868                 0.7809993        140.4217        0.3613137        29.82997        0.3613134        29.82993        0.7809991        140.4216
4.6882                 0.7826602         139.686        0.3557204        29.25079        0.3557202        29.25075        0.7826601         139.686
4.6896                 0.7841574        138.9682        0.3503394         28.6809        0.3503391        28.68087        0.7841571        138.9682
4.691                  0.7855111        138.2677        0.3451593        28.11715        0.3451591        28.11713        0.7855109        138.2676
4.6924                 0.7867407        137.5836        0.3401668        27.55655        0.3401666        27.55654        0.7867404        137.5836
4.6938                 0.7878638        136.9152        0.3353465        26.99633        0.3353463        26.99631        0.7878637        136.9152
4.6952                 0.7888967        136.2616        0.3306816        26.43401        0.3306815          26.434        0.7888965        136.2616
4.6966                 0.7898535        135.6217        0.3261543        25.86748        0.3261542        25.86748        0.7898531        135.6217
4.698                  0.7907458        134.9945        0.3217459        25.29507        0.3217458        25.29508        0.7907457        134.9945
4.6994                 0.7915836        134.3787        0.3174376        24.71556        0.3174376        24.71556        0.7915834        134.3787
4.7008                 0.7923741        133.7734        0.3132109        24.12819        0.3132109         24.1282         0.792374        133.7734
4.7022                 0.7931222        133.1773        0.3090478        23.53274        0.3090478        23.53275        0.7931221        133.1773
4.7036                 0.7938307        132.5893        0.3049316        22.92949        0.3049315         22.9295        0.7938306        132.5893
4.705                  0.7944999        132.0084        0.3008466         22.3192        0.3008466        22.31921        0.7944997        132.0084
4.7064                 0.7951281        131.4337        0.2967795        21.70311        0.2967795        21.70311        0.7951281        131.4337
4.7078                  0.795712        130.8642        0.2927187        21.08288        0.2927187        21.08289        0.7957119        130.8642
4.7092                 0.7962466        130.2992         0.288655         20.4606        0.2886551         20.4606        0.7962466        130.2992
4.7106                 0.7967258        129.7382        0.2845818        19.83864        0.2845818        19.83864        0.7967256        129.7382
4.712                  0.7971423        129.1806        0.2804949        19.21969         0.280495         19.2197        0.7971423        129.1806
4.7134                 0.7974887        128.6261         0.276393        18.60662        0.2763931        18.60662        0.7974886        128.6261
4.7148                  0.797757        128.0745        0.2722773        18.00245        0.2722774         18.0024        0.7977569        128.0745
4.7162                 0.7979395        127.5258        0.2681515        17.41019        0.2681517        17.41016        0.7979393        127.5258
4.7176                  0.798029        126.9802        0.2640219        16.83286        0.2640221        16.83284        0.7980289        126.9801
4.719                  0.7980194        126.4377         0.259897        16.27341        0.2598972        16.27338        0.7980192        126.4377
4.7204                 0.7979054        125.8988        0.2557871        15.73442        0.2557873         15.7344        0.7979051        125.8988
4.7218                  0.797683        125.3639        0.2517042        15.21832        0.2517043         15.2183        0.7976827        125.3639
4.7232                 0.7973502        124.8335        0.2476616          14.727        0.2476618        14.72697        0.7973499        124.8335
4.7246                 0.7969065        124.3082        0.2436735        14.26195        0.2436737         14.2619        0.7969061        124.3082
4.726                  0.7963531        123.7886        0.2397546        13.82406        0.2397548        13.82401        0.7963527        123.7886
4.7274                 0.7956935        123.2753        0.2359194        13.41358        0.2359195        13.41352         0.795693        123.2752
4.7288                 0.7949325        122.7688        0.2321819        13.03007         0.232182           13.03        0.7949319        122.7687
4.7302                  0.794077        122.2697        0.2285552        12.67235        0.2285552        12.67229        0.7940765        122.2696
4.7316                 0.7931357        121.7784        0.2250508        12.33854        0.2250509        12.33846         0.793135        121.7784
4.733                  0.7921181        121.2954        0.2216785        12.02599        0.2216785        12.02591        0.7921175        121.2953
4.7344                 0.7910355        120.8208        0.2184455        11.73143        0.2184455        11.73135        0.7910348        120.8208
4.7358                 0.7898997         120.355        0.2153568        11.45096        0.2153568        11.45089        0.7898989        120.3549
4.7372                 0.7887231        119.8978        0.2124142        11.18023        0.2124142        11.18016        0.7887224        119.8977
4.7386                 0.7875184        119.4491        0.2096168        10.91451        0.2096167        10.91444        0.7875176        119.4491
4.74                    0.786298        119.0087        0.2069605         10.6489        0.2069604        10.64883        0.7862973        119.0087
4.7414                 0.7850738        118.5761        0.2044384        10.37845        0.2044383        10.37839        0.7850731        118.5761
4.7428                  0.783857        118.1508        0.2020408        10.09838        0.2020407        10.09831        0.7838562        118.1508
4.7442                  0.782657         117.732        0.1997557        9.804192        0.1997556        9.804134        0.7826562         117.732
4.7456                 0.7814821         117.319        0.1975688        9.491895        0.1975687        9.491847        0.7814814        117.3191
4.747                  0.7803388         116.911        0.1954644        9.158091        0.1954643        9.158049        0.7803382         116.911
4.7484                 0.7792314        116.5068        0.1934255        8.800103        0.1934253        8.800068        0.7792309        116.5068
4.7498                 0.7781623        116.1055        0.1914345        8.416062        0.1914343        8.416035        0.7781617        116.1055
4.7512                 0.7771311        115.7061        0.1894737        8.004955        0.1894735        8.004936        0.7771307        115.7061
4.7526                 0.7761359        115.3075        0.1875259        7.566645        0.1875258        7.566635        0.7761355        115.3075
4.754                   0.775172        114.9088        0.1855749        7.101879        0.1855748        7.101875        0.7751717        114.9088
4.7554                  0.774233         114.509        0.1836056        6.612236        0.1836055        6.612239        0.7742327        114.5091
4.7568                 0.7733104        114.1074         0.181605         6.10009        0.1816049        6.100099        0.7733103        114.1074
4.7582                 0.7723944        113.7032        0.1795621        5.568534         0.179562         5.56855        0.7723943        113.7033
4.7596                 0.7714735        113.2959        0.1774681        5.021295         0.177468        5.021315        0.7714735        113.2959
4.761                  0.7705355        112.8851        0.1753171        4.462631         0.175317        4.462654        0.7705355        112.8851
4.7624                 0.7695676        112.4705        0.1731058        3.897227        0.1731057        3.897253        0.7695677        112.4705
4.7638                 0.7685567         112.052        0.1708336        3.330079        0.1708337        3.330105        0.7685569        112.0521
4.7652                 0.7674901        111.6298         0.168503        2.766364        0.1685031         2.76639        0.7674903        111.6299
4.7666                 0.7663554        111.2042         0.166119        2.211309        0.1661191        2.211333        0.7663557        111.2042
4.768                  0.7651414        110.7754        0.1636892        1.670049        0.1636893        1.670071        0.7651416        110.7754
4.7694                 0.7638381        110.3441        0.1612237        1.147479        0.1612238        1.147497        0.7638383        110.3441
4.7708                 0.7624371         109.911        0.1587345       0.6480948        0.1587347       0.6481072        0.7624374         109.911
4.7722                  0.760932        109.4768        0.1562357       0.1758326        0.1562358       0.1758382        0.7609322        109.4768
4.7736                 0.7593183        109.0424        0.1537426      -0.2660943        0.1537427      -0.2660962        0.7593186        109.0424
4.775                   0.757594        108.6086        0.1512714      -0.6753614        0.1512716      -0.6753716        0.7575944        108.6087
4.7764                 0.7557593        108.1766         0.148839       -1.050683        0.1488392       -1.050703        0.7557595        108.1766
4.7778                 0.7538164        107.7471         0.146462       -1.391951        0.1464622       -1.391981        0.7538166        107.7471
