! TOUCHSTONE file generated by CST MICROWAVE STUDIO
! Date and time: Sat Nov 30 13:12:00 2024
! Project name: test_tuning.cst
! Parameters = {airCoaxOuterDiameter=3; chamferAngle=45; chamferWidth=24; connectorLength=10; drillingHoleDiameter=4.1; feedLength=60; flareDiameter=130; flareLength=70; gratingDistance=0; gratingGap=1.90274; outletLength=30; polarizerLength=134; probe1Diameter=1.3; probe1Distance=14; probe1Length=10; probe2Diameter=1.3; probe2Distance=0; probe2Length=10; probeLength=10; smaInnerDiameter=1.3; smaOuterDiameter=4.1; transitionCoefficient=1.33; waveguideFeedLength=30; waveguideSide=50; waveguideThickness=3; wireCount=25; wireDiameter=1.17699}
! Header version: 2024
! Port assignment regex: !\s*Touchstone port\s*([0-9]+)\s*=\s*(CST MWS port|CST DES external port|CST DES block port)\s*(.+)\s* \(\"(.*)\"\)(\s*mode\s*([0-9]+))?.*
! Touchstone port assignment:
! Touchstone port 1 = CST MWS port 1 ("Input1")
! Touchstone port 2 = CST MWS port 2 ("Input2")
# GHz S MA R 50
4.6                     0.189516        100.4579        0.6196767        128.4406        0.6196765        128.4406        0.1895175        100.4585
4.6014                 0.1746627        103.5224        0.6282608        126.8624        0.6282606        126.8625        0.1746646         103.523
4.6028                 0.1606649        107.5788        0.6366007        125.2272        0.6366005        125.2273        0.1606672        107.5794
4.6042                 0.1481322        112.8417        0.6446284        123.5371        0.6446282        123.5371        0.1481347        112.8421
4.6056                 0.1378502        119.4698         0.652277        121.7945        0.6522768        121.7946         0.137853          119.47
4.607                   0.130739        127.4446        0.6594826        120.0025        0.6594825        120.0026        0.1307418        127.4445
4.6084                 0.1276969        136.4293         0.666184        118.1644         0.666184        118.1644        0.1276995        136.4289
4.6098                 0.1293352        145.7399        0.6723249        116.2837        0.6723249        116.2837        0.1293374        145.7391
4.6112                 0.1357481        154.5524         0.677853        114.3641         0.677853        114.3642        0.1357498        154.5516
4.6126                  0.146506        162.2289         0.682722        112.4098        0.6827219        112.4098        0.1465072         162.228
4.614                  0.1608707        168.4877        0.6868906        110.4246        0.6868906        110.4246        0.1608713        168.4868
4.6154                 0.1780436        173.3471        0.6903245        108.4127        0.6903245        108.4127        0.1780437        173.3463
4.6168                 0.1973146        176.9808         0.692995        106.3782         0.692995        106.3783        0.1973144        176.9801
4.6182                 0.2181082        179.6047        0.6948803        104.3253        0.6948804        104.3254        0.2181077        179.6042
4.6196                 0.2399743       -178.5789        0.6959651        102.2581        0.6959652        102.2581        0.2399735       -178.5793
4.621                  0.2625632       -177.4007        0.6962405        100.1806        0.6962406        100.1807        0.2625623        -177.401
4.6224                 0.2856001       -176.7258        0.6957038        98.09692        0.6957038        98.09695        0.2855991        -176.726
4.6238                 0.3088657       -176.4485        0.6943586        96.01086        0.6943586        96.01089        0.3088647       -176.4487
4.6252                 0.3321814       -176.4868        0.6922144        93.92626        0.6922143        93.92627        0.3321803       -176.4869
4.6266                 0.3553992       -176.7764        0.6892861        91.84684        0.6892861        91.84685        0.3553982       -176.7765
4.628                  0.3783953       -177.2671         0.685594        89.77618        0.6855939         89.7762        0.3783945       -177.2671
4.6294                 0.4010648       -177.9188        0.6811632        87.71779        0.6811631        87.71781        0.4010641       -177.9189
4.6308                 0.4233189       -178.6997        0.6760229        85.67501        0.6760228        85.67502        0.4233184       -178.6997
4.6322                 0.4450821       -179.5838        0.6702066        83.65105        0.6702065        83.65106        0.4450818       -179.5838
4.6336                 0.4662908        179.4499        0.6637512          81.649         0.663751        81.64901        0.4662907        179.4499
4.635                   0.486892        178.4189        0.6566963        79.67181        0.6566962        79.67183        0.4868921        178.4189
4.6364                 0.5068422        177.3376        0.6490847        77.72228        0.6490845        77.72229        0.5068425        177.3376
4.6378                 0.5261068         176.218        0.6409607        75.80304        0.6409604        75.80307        0.5261073         176.218
4.6392                 0.5446594        175.0703        0.6323703        73.91662          0.63237        73.91664        0.5446602        175.0703
4.6406                  0.562481        173.9031        0.6233609        72.06533        0.6233607        72.06533        0.5624818        173.9031
4.642                  0.5795595        172.7237        0.6139806        70.25129        0.6139803         70.2513        0.5795606        172.7237
4.6434                 0.5958894        171.5381        0.6042773        68.47651        0.6042771        68.47652        0.5958905        171.5381
4.6448                 0.6114709        170.3518        0.5942993        66.74274        0.5942991        66.74277        0.6114722        170.3517
4.6462                 0.6263097         169.169        0.5840941        65.05158        0.5840939        65.05159         0.626311        169.1689
4.6476                 0.6404158        167.9935         0.573708        63.40436        0.5737077        63.40438        0.6404174        167.9935
4.649                   0.653804        166.8285         0.563186        61.80225        0.5631859        61.80227        0.6538054        166.8284
4.6504                  0.666492        165.6765        0.5525718        60.24613        0.5525716        60.24615        0.6664934        165.6765
4.6518                 0.6785008        164.5397        0.5419065        58.73667        0.5419064         58.7367        0.6785022        164.5396
4.6532                 0.6898538        163.4197        0.5312292        57.27432         0.531229        57.27435        0.6898551        163.4196
4.6546                 0.7005761        162.3178        0.5205761        55.85924         0.520576        55.85928        0.7005774        162.3177
4.656                  0.7106941        161.2349         0.509981        54.49139        0.5099809        54.49142        0.7106954        161.2348
4.6574                 0.7202349        160.1717        0.4994743        53.17045        0.4994743         53.1705         0.720236        160.1716
4.6588                 0.7292256        159.1286        0.4890836        51.89592        0.4890835        51.89597        0.7292265        159.1285
4.6602                 0.7376931        158.1057        0.4788331        50.66706        0.4788331         50.6671         0.737694        158.1056
4.6616                 0.7456637         157.103         0.468744        49.48293        0.4687441        49.48296        0.7456644        157.1028
4.663                  0.7531624        156.1202        0.4588342        48.34242        0.4588343        48.34247        0.7531628          156.12
4.6644                 0.7602128         155.157        0.4491186        47.24429        0.4491187        47.24433        0.7602132        155.1569
4.6658                 0.7668373         154.213        0.4396091        46.18718        0.4396093        46.18722        0.7668374        154.2129
4.6672                 0.7730558        153.2877         0.430315         45.1696        0.4303152        45.16964        0.7730558        153.2876
4.6686                 0.7788872        152.3806        0.4212429        44.19006        0.4212431        44.19009        0.7788871        152.3805
4.67                   0.7843479         151.491        0.4123972        43.24701        0.4123974        43.24704        0.7843477        151.4909
4.6714                  0.789453        150.6186        0.4037804        42.33889        0.4037806        42.33892        0.7894526        150.6185
4.6728                 0.7942157        149.7627        0.3953932        41.46419        0.3953934        41.46421        0.7942152        149.7626
4.6742                  0.798648        148.9231        0.3872348        40.62143        0.3872351        40.62143        0.7986475         148.923
4.6756                 0.8027606        148.0992        0.3793037        39.80917        0.3793039        39.80917        0.8027599        148.0991
4.677                  0.8065632        147.2909        0.3715969        39.02606        0.3715971        39.02606        0.8065625        147.2908
4.6784                 0.8100652        146.4979        0.3641115         38.2708        0.3641117        38.27079        0.8100646        146.4979
4.6798                 0.8132756        145.7202        0.3568437        37.54217        0.3568439        37.54217         0.813275        145.7201
4.6812                 0.8162033        144.9576        0.3497897        36.83902        0.3497899        36.83899        0.8162028        144.9576
4.6826                 0.8188575        144.2103        0.3429456        36.16017        0.3429458        36.16015         0.818857        144.2103
4.684                  0.8212484        143.4783        0.3363076        35.50454        0.3363077        35.50451        0.8212478        143.4783
4.6854                 0.8233863        142.7619        0.3298717        34.87101        0.3298718        34.87098         0.823386        142.7618
4.6868                 0.8252832         142.061        0.3236343        34.25846        0.3236343        34.25842        0.8252829         142.061
4.6882                 0.8269517         141.376        0.3175914        33.66569        0.3175914        33.66565        0.8269515         141.376
4.6896                 0.8284058        140.7071        0.3117393        33.09147        0.3117393        33.09142        0.8284057        140.7071
4.691                  0.8296603        140.0542        0.3060741        32.53447         0.306074        32.53443        0.8296603        140.0543
4.6924                 0.8307316        139.4177        0.3005915        31.99329        0.3005914        31.99324        0.8307316        139.4177
4.6938                 0.8316365        138.7973        0.2952869        31.46642        0.2952867        31.46638        0.8316368        138.7973
4.6952                 0.8323928        138.1931        0.2901552        30.95228         0.290155        30.95225        0.8323931        138.1931
4.6966                 0.8330187        137.6049        0.2851908        30.44921        0.2851906        30.44917        0.8330193        137.6049
4.698                  0.8335327        137.0323        0.2803873        29.95548        0.2803871        29.95545        0.8335331        137.0324
4.6994                 0.8339525         136.475        0.2757377        29.46937        0.2757375        29.46935         0.833953         136.475
4.7008                  0.834296        135.9324        0.2712342        28.98915        0.2712339        28.98913        0.8342968        135.9324
4.7022                 0.8345798        135.4037        0.2668682        28.51316        0.2668679        28.51315        0.8345806        135.4037
4.7036                 0.8348194        134.8882        0.2626306        28.03984        0.2626303        28.03984        0.8348202        134.8882
4.705                  0.8350283        134.3849        0.2585116        27.56777        0.2585113        27.56777        0.8350292        134.3849
4.7064                 0.8352185        133.8929         0.254501        27.09574        0.2545007        27.09575        0.8352195        133.8929
4.7078                    0.8354         133.411        0.2505884        26.62278        0.2505881         26.6228        0.8354009         133.411
4.7092                 0.8355799        132.9381        0.2467632        26.14819        0.2467629        26.14823        0.8355806        132.9381
4.7106                 0.8357627        132.4731        0.2430151        25.67164        0.2430149        25.67167        0.8357637        132.4731
4.712                  0.8359515        132.0149        0.2393342        25.19299        0.2393339        25.19304        0.8359523        132.0148
4.7134                 0.8361455        131.5622         0.235711        24.71265        0.2357108         24.7127        0.8361463        131.5622
4.7148                 0.8363422        131.1141        0.2321371         24.2312        0.2321369        24.23128        0.8363431        131.1141
4.7162                 0.8365371        130.6697         0.228605         23.7497        0.2286049        23.74975         0.836538        130.6696
4.7176                 0.8367232         130.228        0.2251085         23.2694        0.2251084        23.26946        0.8367241         130.228
4.719                  0.8368924        129.7884        0.2216428        22.79195        0.2216427        22.79206        0.8368933        129.7884
4.7204                 0.8370351        129.3503        0.2182046         22.3192        0.2182045        22.31928        0.8370359        129.3503
4.7218                 0.8371406        128.9134        0.2147922        21.85316        0.2147922        21.85324        0.8371415        128.9134
4.7232                 0.8371985        128.4774        0.2114055          21.396        0.2114055        21.39605        0.8371993        128.4774
4.7246                 0.8371979        128.0423        0.2080461         20.9499        0.2080461        20.94995        0.8371987        128.0422
4.726                  0.8371285        127.6081        0.2047171        20.51702        0.2047172        20.51713        0.8371294        127.6081
4.7274                 0.8369811        127.1752         0.201423        20.09953        0.2014231        20.09959        0.8369821        127.1752
4.7288                 0.8367479        126.7439        0.1981697        19.69915        0.1981698        19.69923        0.8367487        126.7439
4.7302                 0.8364224        126.3148        0.1949639        19.31755         0.194964        19.31761        0.8364233        126.3147
4.7316                 0.8360002        125.8884        0.1918132        18.95588        0.1918134        18.95593        0.8360011        125.8884
4.733                  0.8354791        125.4655        0.1887259        18.61487         0.188726        18.61492          0.83548        125.4654
4.7344                 0.8348592        125.0467        0.1857101        18.29474        0.1857103        18.29479        0.8348601        125.0466
4.7358                 0.8341428        124.6327         0.182774        17.99511        0.1827742        17.99515        0.8341436        124.6326
4.7372                 0.8333346        124.2243        0.1799253        17.71498        0.1799254        17.71501        0.8333354        124.2243
4.7386                 0.8324416        123.8221        0.1771705        17.45271        0.1771707        17.45274        0.8324424        123.8221
4.74                   0.8314726        123.4267        0.1745153        17.20605        0.1745155        17.20607        0.8314733        123.4267
4.7414                 0.8304383        123.0386        0.1719638        16.97214        0.1719639        16.97215         0.830439        123.0385
4.7428                 0.8293508         122.658        0.1695181        16.74762        0.1695183        16.74762        0.8293514        122.6579
4.7442                 0.8282233        122.2851        0.1671788        16.52871        0.1671789        16.52871        0.8282238         122.285
4.7456                 0.8270695          121.92        0.1649441        16.31132        0.1649442        16.31132        0.8270699        121.9199
4.747                  0.8259034        121.5626        0.1628104        16.09122        0.1628105        16.09121        0.8259036        121.5625
4.7484                 0.8247382        121.2124        0.1607719        15.86415         0.160772        15.86414        0.8247385        121.2123
4.7498                 0.8235871        120.8691        0.1588211        15.62604        0.1588212        15.62603        0.8235872         120.869
4.7512                 0.8224614        120.5319        0.1569485        15.37311        0.1569486        15.37309        0.8224614        120.5318
4.7526                 0.8213711        120.2002        0.1551436        15.10205        0.1551437        15.10203        0.8213709        120.2001
4.754                  0.8203237        119.8729        0.1533945        14.81014        0.1533946        14.81012        0.8203235        119.8728
4.7554                  0.819325        119.5491        0.1516888        14.49535        0.1516889        14.49533        0.8193246         119.549
4.7568                 0.8183778        119.2277        0.1500136        14.15644        0.1500137        14.15641        0.8183774        119.2276
4.7582                 0.8174825        118.9076        0.1483564        13.79297        0.1483564        13.79294        0.8174819        118.9075
4.7596                 0.8166366        118.5878        0.1467049        13.40536         0.146705        13.40533         0.816636        118.5877
4.761                  0.8158349        118.2671        0.1450478        12.99486        0.1450479        12.99483        0.8158343        118.2671
4.7624                 0.8150701        117.9448        0.1433753        12.56351        0.1433753        12.56348        0.8150693        117.9447
4.7638                 0.8143322        117.6198        0.1416786         12.1141        0.1416787        12.11407        0.8143313        117.6197
4.7652                 0.8136093        117.2914        0.1399512        11.65007        0.1399513        11.65004        0.8136085        117.2914
4.7666                 0.8128883        116.9592        0.1381884        11.17544        0.1381885        11.17541        0.8128874        116.9591
4.768                  0.8121546        116.6227        0.1363876        10.69467        0.1363877        10.69463        0.8121538        116.6226
4.7694                 0.8113934        116.2816        0.1345485        10.21254        0.1345486        10.21251        0.8113926        116.2816
4.7708                 0.8105893        115.9361         0.132673         9.73404        0.1326731        9.734005        0.8105886        115.9361
4.7722                 0.8097277        115.5863        0.1307652        9.264183        0.1307653        9.264145        0.8097269        115.5863
4.7736                 0.8087946        115.2326        0.1288313        8.807863        0.1288314        8.807822        0.8087939        115.2326
4.775                  0.8077775        114.8755        0.1268795        8.369678        0.1268796        8.369634        0.8077768        114.8755
4.7764                 0.8066656        114.5158        0.1249195        7.953757        0.1249196        7.953711         0.806665        114.5158
4.7778                 0.8054504        114.1542        0.1229625        7.563574        0.1229625        7.563525          0.80545        114.1542
