! TOUCHSTONE file generated by CST MICROWAVE STUDIO
! Date and time: Sat Nov 30 03:29:16 2024
! Project name: test_tuning.cst
! Parameters = {airCoaxOuterDiameter=3; chamferAngle=43; chamferWidth=24; connectorLength=10; drillingHoleDiameter=4.1; feedLength=60; flareDiameter=130; flareLength=70; gratingDistance=0; gratingGap=1.90274; outletLength=30; polarizerLength=134; probe1Diameter=1.3; probe1Distance=14; probe1Length=12; probe2Diameter=1.3; probe2Distance=0; probe2Length=12; probeLength=12; smaInnerDiameter=1.3; smaOuterDiameter=4.1; transitionCoefficient=1.33; waveguideFeedLength=30; waveguideSide=50; waveguideThickness=3; wireCount=25; wireDiameter=1.17699}
! Header version: 2024
! Port assignment regex: !\s*Touchstone port\s*([0-9]+)\s*=\s*(CST MWS port|CST DES external port|CST DES block port)\s*(.+)\s* \(\"(.*)\"\)(\s*mode\s*([0-9]+))?.*
! Touchstone port assignment:
! Touchstone port 1 = CST MWS port 1 ("Input1")
! Touchstone port 2 = CST MWS port 2 ("Input2")
# GHz S MA R 50
4.6                     0.242036       -158.0385        0.6112419        67.40368        0.6086629        66.63314        0.2183719       -164.6191
4.6014                 0.2492059       -158.8454        0.6137146        66.43761        0.6099577        65.71515         0.224968       -165.3509
4.6028                 0.2564478       -159.6691        0.6159891        65.45141        0.6111433        64.79219        0.2315375       -166.0763
4.6042                 0.2637535       -160.5091        0.6180452        64.44669        0.6122229        63.86428        0.2380885       -166.7933
4.6056                 0.2711146       -161.3647        0.6198651        63.42519        0.6131993        62.93132        0.2446312       -167.5007
4.607                  0.2785229       -162.2351        0.6214334        62.38874        0.6140741         61.9932        0.2511774       -168.1977
4.6084                 0.2859707       -163.1195        0.6227371         61.3393        0.6148486        61.04967        0.2577403       -168.8842
4.6098                 0.2934504       -164.0171        0.6237658        60.27884        0.6155224        60.10043        0.2643344       -169.5606
4.6112                 0.3009552       -164.9267        0.6245116        59.20944        0.6160944        59.14516        0.2709745       -170.2278
4.6126                 0.3084786       -165.8476        0.6249697        58.13312        0.6165621        58.18351        0.2776758       -170.8873
4.614                  0.3160147       -166.7786        0.6251378        57.05194        0.6169215        57.21518        0.2844533        -171.541
4.6154                 0.3235585       -167.7191         0.625016        55.96796        0.6171676        56.23988        0.2913213       -172.1911
4.6168                 0.3311052        -168.668        0.6246072        54.88312        0.6172944        55.25735        0.2982929       -172.8401
4.6182                 0.3386512       -169.6246        0.6239169        53.79935        0.6172945        54.26747        0.3053797        -173.491
4.6196                 0.3461931       -170.5884        0.6229528        52.71846        0.6171598        53.27016        0.3125913       -174.1466
4.621                  0.3537281       -171.5586        0.6217246        51.64223        0.6168817        52.26548        0.3199351         -174.81
4.6224                 0.3612542       -172.5348        0.6202444        50.57224        0.6164507        51.25361         0.327416       -175.4842
4.6238                 0.3687693       -173.5166        0.6185257        49.50998        0.6158575        50.23487        0.3350362       -176.1722
4.6252                 0.3762723       -174.5038        0.6165839        48.45679        0.6150928        49.20972        0.3427948       -176.8768
4.6266                 0.3837617       -175.4961        0.6144353        47.41386        0.6141473        48.17877        0.3506882       -177.6005
4.628                  0.3912365       -176.4936        0.6120974         46.3822        0.6130125        47.14277        0.3587098       -178.3457
4.6294                 0.3986957       -177.4963        0.6095887        45.36264        0.6116808        46.10262          0.36685       -179.1142
4.6308                 0.4061379       -178.5042        0.6069279        44.35582        0.6101455        45.05937        0.3750967       -179.9078
4.6322                 0.4135617       -179.5176         0.604134        43.36221        0.6084015        44.01417        0.3834352        179.2723
4.6336                 0.4209654        179.4632        0.6012255        42.38209        0.6064452         42.9683        0.3918487        178.4252
4.635                  0.4283464         178.438        0.5982211        41.41551        0.6042747        41.92315        0.4003182        177.5504
4.6364                 0.4357021        177.4062        0.5951383        40.46237        0.6018899        40.88017        0.4088232        176.6478
4.6378                  0.443029        176.3676        0.5919941        39.52236        0.5992929        39.84092        0.4173419        175.7176
4.6392                 0.4503226        175.3218         0.588804        38.59503         0.596488        38.80694        0.4258517        174.7603
4.6406                  0.457578        174.2683        0.5855823        37.67974        0.5934815        37.77982        0.4343292        173.7766
4.642                  0.4647892        173.2067        0.5823417        36.77572        0.5902818        36.76116        0.4427509        172.7678
4.6434                 0.4719494        172.1366        0.5790934        35.88207        0.5868995        35.75249        0.4510934        171.7351
4.6448                 0.4790508        171.0579        0.5758465        34.99781        0.5833475        34.75529        0.4593337          170.68
4.6462                 0.4860851        169.9701        0.5726083        34.12184        0.5796401        33.77096        0.4674495        169.6042
4.6476                 0.4930427         168.873        0.5693842        33.25302        0.5757936         32.8008        0.4754196        168.5095
4.649                  0.4999133        167.7666        0.5661779         32.3902        0.5718258        31.84591         0.483224        167.3978
4.6504                 0.5066863        166.6508        0.5629908        31.53221        0.5677556        30.90728        0.4908441         166.271
4.6518                 0.5133499        165.5256        0.5598231        30.67789        0.5636031        29.98565        0.4982631        165.1311
4.6532                 0.5198922        164.3912        0.5566729        29.82615        0.5593887         29.0816        0.5054657        163.9802
4.6546                 0.5263005        163.2477         0.553537        28.97595        0.5551334        28.19539        0.5124387        162.8202
4.656                  0.5325622        162.0956        0.5504106        28.12635        0.5508577         27.3271        0.5191709        161.6531
4.6574                 0.5386641        160.9351        0.5472884        27.27654        0.5465823         26.4765         0.525653        160.4809
4.6588                 0.5445934        159.7668        0.5441635        26.42579        0.5423265        25.64309        0.5318778        159.3052
4.6602                 0.5503371        158.5914        0.5410288        25.57355        0.5381084        24.82611        0.5378401         158.128
4.6616                 0.5558827        157.4094        0.5378767        24.71939        0.5339449        24.02451        0.5435366         156.951
4.663                  0.5612178        156.2217        0.5346991        23.86307        0.5298508        23.23699        0.5489659        155.7755
4.6644                 0.5663311        155.0292        0.5314883        23.00446        0.5258386        22.46204        0.5541286         154.603
4.6658                 0.5712114        153.8327        0.5282367        22.14361        0.5219186         21.6979        0.5590264        153.4349
4.6672                  0.575849        152.6333        0.5249372        21.28072        0.5180981        20.94266        0.5636631        152.2724
4.6686                 0.5802345         151.432        0.5215833        20.41613         0.514382        20.19428        0.5680436        151.1163
4.67                   0.5843603          150.23        0.5181695         19.5503        0.5107721        19.45062        0.5721739        149.9677
4.6714                 0.5882195        149.0283        0.5146911        18.68382        0.5072672         18.7095         0.576061        148.8273
4.6728                 0.5918068        147.8281        0.5111448        17.81738        0.5038636        17.96877        0.5797128        147.6957
4.6742                 0.5951184        146.6307        0.5075282        16.95176        0.5005546         17.2263        0.5831374        146.5734
4.6756                 0.5981516        145.4373        0.5038401        16.08781        0.4973312        16.48011        0.5863437        145.4607
4.677                  0.6009059        144.2491        0.5000811        15.22641        0.4941821        15.72836        0.5893407        144.3578
4.6784                 0.6033816        143.0673        0.4962526        14.36849         0.491094        14.96941        0.5921369        143.2648
4.6798                 0.6055813        141.8931        0.4923577        13.51496         0.488052        14.20186        0.5947412        142.1818
4.6812                 0.6075089        140.7276        0.4884003        12.66675        0.4850402        13.42458         0.597162        141.1085
4.6826                   0.60917        139.5721        0.4843859        11.82472        0.4820416        12.63672        0.5994068         140.045
4.684                  0.6105716        138.4274        0.4803207        10.98968        0.4790389        11.83774        0.6014829        138.9908
4.6854                 0.6117221        137.2948        0.4762121        10.16236        0.4760151        11.02743         0.603397        137.9458
4.6868                 0.6126318        136.1749         0.472068        9.343386        0.4729531        10.20588        0.6051546        136.9096
4.6882                 0.6133118        135.0688        0.4678971         8.53328        0.4698372        9.373506        0.6067608        135.8818
4.6896                 0.6137746        133.9771        0.4637085        7.732416        0.4666527        8.531002        0.6082195         134.862
4.691                  0.6140336        132.9005        0.4595115         6.94103        0.4633862        7.679358        0.6095341          133.85
4.6924                 0.6141033        131.8394        0.4553153        6.159197        0.4600262        6.819814        0.6107074        132.8453
4.6938                 0.6139986        130.7943        0.4511291        5.386827        0.4565636        5.953841        0.6117409        131.8478
4.6952                 0.6137351        129.7654        0.4469615        4.623669        0.4529913        5.083105        0.6126364         130.857
4.6966                 0.6133287        128.7527        0.4428208        3.869294        0.4493042        4.209439        0.6133943        129.8728
4.698                  0.6127954        127.7563        0.4387143         3.12312        0.4455002        3.334798        0.6140155        128.8951
4.6994                  0.612151         126.776        0.4346484        2.384405        0.4415797        2.461222        0.6145001        127.9237
4.7008                 0.6114109        125.8113        0.4306285        1.652267        0.4375453        1.590799        0.6148484        126.9586
4.7022                 0.6105903         124.862        0.4266586        0.925702        0.4334023       0.7256161        0.6150605        125.9999
4.7036                  0.609703        123.9273        0.4227415        0.203601         0.429158      -0.1322772        0.6151372        125.0476
4.705                  0.6087626        123.0064        0.4188787      -0.5152222        0.4248221      -0.9809157         0.615079        124.1019
4.7064                  0.607781        122.0986        0.4150701       -1.231992        0.4204062        -1.81846        0.6148874        123.1629
4.7078                 0.6067692        121.2029        0.4113144       -1.948004        0.4159235       -2.643236        0.6145641        122.2309
4.7092                 0.6057363         120.318        0.4076088       -2.664478        0.4113885       -3.453802        0.6141118        121.3061
4.7106                   0.60469        119.4431        0.4039493       -3.382664        0.4068169         -4.2489        0.6135336        120.3889
4.712                  0.6036367        118.5767        0.4003306       -4.103667        0.4022251       -5.027628        0.6128332        119.4794
4.7134                 0.6025807        117.7178        0.3967464       -4.828549        0.3976297       -5.789349        0.6120154        118.5781
4.7148                 0.6015247        116.8649        0.3931893       -5.558232        0.3930473       -6.533773        0.6110857         117.685
4.7162                 0.6004696         116.017        0.3896517        -6.29348         0.388494       -7.260957        0.6100499        116.8005
4.7176                 0.5994149        115.1727        0.3861249       -7.034896        0.3839853       -7.971321        0.6089151        115.9247
4.719                  0.5983581        114.3308        0.3826002       -7.782885        0.3795351        -8.66564        0.6076882        115.0578
4.7204                 0.5972954        113.4903        0.3790686       -8.537653        0.3751563       -9.345045        0.6063771        114.1997
4.7218                 0.5962218        112.6501        0.3755215       -9.299193        0.3708595       -10.01099        0.6049896        113.3504
4.7232                 0.5951307        111.8094        0.3719505       -10.06728        0.3666534       -10.66524        0.6035339        112.5098
4.7246                 0.5940149        110.9672        0.3683475       -10.84149        0.3625445       -11.30979        0.6020183        111.6778
4.726                   0.592866        110.1229        0.3647056       -11.62115        0.3585365       -11.94686        0.6004503        110.8538
4.7274                 0.5916753         109.276        0.3610184       -12.40543        0.3546312       -12.57882        0.5988379        110.0377
4.7288                 0.5904334        108.4261        0.3572808       -13.19326        0.3508272       -13.20812        0.5971879        109.2289
4.7302                  0.589131        107.5728        0.3534889       -13.98345        0.3471213       -13.83722        0.5955067        108.4267
4.7316                 0.5877587        106.7161        0.3496399       -14.77459        0.3435074       -14.46853           0.5938        107.6305
4.733                  0.5863072         105.856        0.3457328       -15.56519        0.3399777       -15.10433        0.5920722        106.8397
4.7344                  0.584768        104.9927        0.3417678       -16.35362        0.3365226       -15.74671        0.5903269        106.0533
4.7358                 0.5831329        104.1264        0.3377467       -17.13818        0.3331306       -16.39754        0.5885665        105.2705
4.7372                 0.5813948        103.2577        0.3336726       -17.91713        0.3297892       -17.05834        0.5867921        104.4906
4.7386                 0.5795472        102.3868        0.3295505        -18.6887        0.3264853       -17.73034        0.5850038        103.7126
4.74                   0.5775852        101.5147        0.3253865       -19.45114         0.323205       -18.41436        0.5831999        102.9357
4.7414                 0.5755048        100.6418         0.321188       -20.20275        0.3199347       -19.11085        0.5813781         102.159
4.7428                 0.5733033        99.76908        0.3169637       -20.94194         0.316661       -19.81984        0.5795348        101.3819
4.7442                 0.5709796        98.89718        0.3127236       -21.66725        0.3133712       -20.54096        0.5776652        100.6034
4.7456                 0.5685336        98.02704        0.3084782       -22.37737        0.3100539       -21.27346        0.5757638        99.82313
4.747                   0.565967        97.15952        0.3042389       -23.07124        0.3066988       -22.01621        0.5738243        99.04042
4.7484                 0.5632827        96.29543        0.3000178       -23.74801        0.3032973       -22.76774        0.5718399        98.25492
4.7498                 0.5604851         95.4356        0.2958269       -24.40714        0.2998429       -23.52627        0.5698033        97.46628
4.7512                 0.5575793        94.58081        0.2916785       -25.04842        0.2963308       -24.28977        0.5677069        96.67432
4.7526                 0.5545723        93.73186        0.2875844       -25.67196        0.2927586       -25.05598        0.5655434        95.87895
4.754                  0.5514719        92.88929        0.2835562       -26.27827         0.289126       -25.82247        0.5633058        95.08033
4.7554                 0.5482864         92.0537        0.2796046       -26.86821         0.285435       -26.58676        0.5609871        94.27855
4.7568                 0.5450252        91.22554        0.2757393       -27.44308        0.2816896       -27.34628        0.5585813        93.47393
4.7582                 0.5416984        90.40508        0.2719687       -28.00452        0.2778962       -28.09851         0.556083        92.66695
4.7596                 0.5383161        89.59254        0.2682999       -28.55456        0.2740627       -28.84101        0.5534881        91.85808
4.761                  0.5348887        88.78796        0.2647379       -29.09559        0.2701992       -29.57151         0.550793        91.04787
4.7624                 0.5314265        87.99119        0.2612865        -29.6303         0.266317       -30.28798        0.5479958          90.237
4.7638                 0.5279397        87.20201        0.2579472       -30.16162        0.2624288       -30.98867        0.5450955        89.42619
4.7652                 0.5244378        86.41994        0.2547196        -30.6927        0.2585479       -31.67224        0.5420928        88.61614
4.7666                 0.5209298        85.64445        0.2516012       -31.22681        0.2546885       -32.33773        0.5389891         87.8076
4.768                  0.5174237        84.87474        0.2485878       -31.76729        0.2508649        -32.9847        0.5357878        87.00125
4.7694                 0.5139264           84.11        0.2456729       -32.31746        0.2470909       -33.61325        0.5324929        86.19782
4.7708                 0.5104436        83.34921        0.2428486       -32.88054          0.24338       -34.22403        0.5291098        85.39787
4.7722                 0.5069799        82.59126        0.2401053        -33.4596        0.2397448       -34.81829        0.5256448          84.602
4.7736                 0.5035382        81.83489        0.2374322       -34.05745         0.236196        -35.3979         0.522105        83.81062
4.775                  0.5001199        81.07888         0.234817       -34.67662        0.2327433       -35.96527        0.5184984        83.02402
4.7764                 0.4967249        80.32189         0.232247       -35.31927        0.2293938       -36.52338        0.5148329        82.24242
4.7778                 0.4933514        79.56255        0.2297089       -35.98717        0.2261527        -37.0757        0.5111172        81.46587
