! TOUCHSTONE file generated by CST MICROWAVE STUDIO
! Date and time: Sat Nov 30 03:29:16 2024
! Project name: test_tuning.cst
! Parameters = {airCoaxOuterDiameter=3; chamferAngle=49; chamferWidth=24; connectorLength=10; drillingHoleDiameter=4.1; feedLength=60; flareDiameter=130; flareLength=70; gratingDistance=0; gratingGap=1.90274; outletLength=30; polarizerLength=134; probe1Diameter=1.3; probe1Distance=14; probe1Length=12; probe2Diameter=1.3; probe2Distance=0; probe2Length=12; probeLength=12; smaInnerDiameter=1.3; smaOuterDiameter=4.1; transitionCoefficient=1.33; waveguideFeedLength=30; waveguideSide=50; waveguideThickness=3; wireCount=25; wireDiameter=1.17699}
! Header version: 2024
! Port assignment regex: !\s*Touchstone port\s*([0-9]+)\s*=\s*(CST MWS port|CST DES external port|CST DES block port)\s*(.+)\s* \(\"(.*)\"\)(\s*mode\s*([0-9]+))?.*
! Touchstone port assignment:
! Touchstone port 1 = CST MWS port 1 ("Input1")
! Touchstone port 2 = CST MWS port 2 ("Input2")
# GHz S MA R 50
4.6                    0.2287446        -161.991        0.6079159        64.39899        0.6097426        63.71842        0.2541753       -159.4712
4.6014                 0.2355628       -162.8594        0.6097816        63.45946        0.6105947        62.77149        0.2603478       -160.3352
4.6028                 0.2423355       -163.7358         0.611485        62.50549         0.611296        61.82302        0.2665645       -161.1841
4.6042                 0.2490572       -164.6162        0.6130137        61.53816        0.6118524        60.87355        0.2728368       -162.0195
4.6056                 0.2557251       -165.4969        0.6143566        60.55865        0.6122704        59.92347        0.2791758       -162.8432
4.607                  0.2623392       -166.3747        0.6155043        59.56819         0.612556        58.97307        0.2855925       -163.6571
4.6084                 0.2689029       -167.2465         0.616449        58.56806        0.6127158        58.02254        0.2920971       -164.4636
4.6098                 0.2754224       -168.1101        0.6171847        57.55957        0.6127554        57.07198        0.2986993       -165.2651
4.6112                 0.2819064       -168.9636        0.6177075        56.54401        0.6126804         56.1214        0.3054076        -166.064
4.6126                 0.2883663       -169.8056        0.6180143        55.52271        0.6124957        55.17073         0.312229       -166.8629
4.614                  0.2948154       -170.6354        0.6181043        54.49693         0.612206        54.21982        0.3191692       -167.6645
4.6154                 0.3012687        -171.453        0.6179781        53.46789        0.6118144        53.26848        0.3262322       -168.4713
4.6168                 0.3077427       -172.2586        0.6176375        52.43678        0.6113241        52.31648        0.3334202       -169.2858
4.6182                 0.3142541       -173.0533        0.6170858        51.40472        0.6107368        51.36357        0.3407332       -170.1106
4.6196                 0.3208202       -173.8387        0.6163273        50.37275        0.6100539        50.40946        0.3481696       -170.9478
4.621                  0.3274575       -174.6167        0.6153673        49.34185        0.6092755        49.45386        0.3557253       -171.7996
4.6224                 0.3341819       -175.3897        0.6142121        48.31292        0.6084011        48.49652        0.3633944       -172.6678
4.6238                 0.3410073       -176.1605        0.6128683        47.28677        0.6074294        47.53719         0.371169       -173.5542
4.6252                 0.3479457       -176.9321        0.6113433        46.26412        0.6063583        46.57566        0.3790394         -174.46
4.6266                 0.3550066       -177.7078        0.6096449        45.24564        0.6051852        45.61178        0.3869936       -175.3866
4.628                  0.3621964       -178.4908         0.607781        44.23189        0.6039067        44.64544        0.3950185       -176.3347
4.6294                 0.3695183       -179.2843        0.6057595        43.22337        0.6025195         43.6766        0.4030991       -177.3051
4.6308                 0.3769719        179.9085        0.6035885        42.22052        0.6010195        42.70529        0.4112192        -178.298
4.6322                 0.3845533        179.0845        0.6012761        41.22371        0.5994027        41.73164        0.4193614       -179.3137
4.6336                 0.3922549        178.2412        0.5988298        40.23327         0.597665        40.75581        0.4275074         179.648
4.635                  0.4000654        177.3761        0.5962575        39.24946        0.5958022        39.77811        0.4356379        178.5873
4.6364                 0.4079705        176.4872        0.5935663        38.27253        0.5938109        38.79887        0.4437335         177.505
4.6378                 0.4159523         175.573        0.5907634        37.30268        0.5916874        37.81853        0.4517741        176.4015
4.6392                 0.4239903        174.6321        0.5878556        36.34009        0.5894291        36.83762        0.4597396        175.2779
4.6406                 0.4320616         173.664        0.5848495        35.38494        0.5870335        35.85673          0.46761        174.1351
4.642                  0.4401414        172.6683        0.5817515        34.43738        0.5844991        34.87652        0.4753656        172.9742
4.6434                 0.4482032        171.6451        0.5785678        33.49754        0.5818254        33.89771        0.4829871        171.7967
4.6448                 0.4562195         170.595        0.5753047         32.5656        0.5790121         32.9211        0.4904558        170.6038
4.6462                 0.4641624        169.5188        0.5719681        31.64167        0.5760607        31.94749        0.4977539        169.3969
4.6476                 0.4720038        168.4177        0.5685643        30.72589        0.5729733        30.97777        0.5048645        168.1776
4.649                   0.479716        167.2932        0.5650994        29.81838         0.569753        30.01281        0.5117715        166.9473
4.6504                 0.4872722        166.1472        0.5615795        28.91928         0.566404        29.05353        0.5184605        165.7077
4.6518                 0.4946467        164.9815         0.558011        28.02866        0.5629318        28.10082        0.5249181        164.4604
4.6532                 0.5018158        163.7982        0.5544006        27.14661        0.5593426         27.1556        0.5311322        163.2069
4.6546                 0.5087572        162.5998        0.5507547        26.27317        0.5556439        26.21873        0.5370922        161.9488
4.656                  0.5154513        161.3884        0.5470802        25.40835        0.5518439        25.29104        0.5427895        160.6878
4.6574                 0.5218806        160.1665         0.543384        24.55211        0.5479519        24.37333        0.5482164        159.4253
4.6588                 0.5280305        158.9365        0.5396728        23.70433         0.543978        23.46632        0.5533672         158.163
4.6602                 0.5338892        157.7008        0.5359537        22.86486         0.539933        22.57064        0.5582377        156.9022
4.6616                 0.5394475        156.4619        0.5322334        22.03344        0.5358282        21.68685        0.5628254        155.6444
4.663                  0.5446992         155.222        0.5285185        21.20975        0.5316754         20.8154        0.5671293        154.3911
4.6644                 0.5496414        153.9833        0.5248151        20.39338        0.5274869        19.95661        0.5711503        153.1434
4.6658                 0.5542734         152.748        0.5211293        19.58383        0.5232749        19.11068        0.5748905        151.9028
4.6672                 0.5585977        151.5179        0.5174661        18.78049        0.5190519        18.27766        0.5783537        150.6702
4.6686                 0.5626191        150.2949        0.5138301         17.9827        0.5148299        17.45747        0.5815449        149.4469
4.67                   0.5663448        149.0806        0.5102251        17.18967        0.5106208        16.64987        0.5844707        148.2337
4.6714                 0.5697844        147.8764        0.5066539        16.40058        0.5064359        15.85444         0.587139        147.0317
4.6728                  0.572949        146.6836        0.5031182        15.61452        0.5022859        15.07063        0.5895584        145.8417
4.6742                 0.5758514        145.5031        0.4996188        14.83053        0.4981806        14.29773        0.5917389        144.6642
4.6756                  0.578506        144.3359        0.4961552        14.04762        0.4941287        13.53485        0.5936914        143.4999
4.677                  0.5809274        143.1824        0.4927257        13.26479        0.4901378        12.78097        0.5954272        142.3493
4.6784                 0.5831315        142.0432        0.4893275        12.48105        0.4862141        12.03496        0.5969585        141.2127
4.6798                  0.585134        140.9182        0.4859565        11.69544        0.4823625        11.29554        0.5982977        140.0905
4.6812                 0.5869504        139.8075        0.4826076        10.90704        0.4785864        10.56134        0.5994578        138.9826
4.6826                 0.5885963        138.7109        0.4792745        10.11502        0.4748875        9.830915        0.6004513        137.8891
4.684                  0.5900858         137.628        0.4759502         9.31863         0.471266        9.102768        0.6012913        136.8099
4.6854                 0.5914325        136.5582        0.4726269        8.517264        0.4677203         8.37537        0.6019901        135.7448
4.6868                 0.5926484        135.5007        0.4692961        7.710435        0.4642475        7.647188        0.6025603        134.6934
4.6882                 0.5937445        134.4549        0.4659491        6.897814        0.4608428        6.916717         0.603013        133.6554
4.6896                 0.5947295        133.4198        0.4625768        6.079236        0.4575002        6.182505        0.6033596        132.6301
4.691                  0.5956109        132.3945        0.4591703        5.254714        0.4542122        5.443181        0.6036102        131.6171
4.6924                  0.596394         131.378         0.455721        4.424435        0.4509701        4.697481        0.6037738        130.6155
4.6938                 0.5970828        130.3694        0.4522205        3.588772        0.4477644        3.944269        0.6038588        129.6246
4.6952                  0.597679        129.3677        0.4486613        2.748276        0.4445841        3.182565        0.6038723        128.6438
4.6966                 0.5981834        128.3721         0.445037        1.903668        0.4414182        2.411555        0.6038202         127.672
4.698                  0.5985949        127.3818        0.4413417        1.055831        0.4382549        1.630614        0.6037074        126.7084
4.6994                 0.5989109        126.3961        0.4375714       0.2057944        0.4350821       0.8393131        0.6035375        125.7523
4.7008                 0.5991285        125.4145         0.433723      -0.6452835        0.4318877      0.03742925        0.6033128        124.8026
4.7022                 0.5992435        124.4364         0.429795       -1.496137        0.4286599       -0.775048        0.6030344        123.8586
4.7036                 0.5992512        123.4616        0.4257876       -2.345417        0.4253871       -1.597918        0.6027025        122.9194
4.705                   0.599147        122.4899        0.4217025       -3.191738        0.4220583       -2.430764        0.6023163        121.9843
4.7064                 0.5989261        121.5213        0.4175429       -4.033607        0.4186635        -3.27297        0.6018736        121.0526
4.7078                  0.598584        120.5559        0.4133137       -4.869668        0.4151933       -4.123729        0.6013718        120.1235
4.7092                 0.5981167        119.5939        0.4090212       -5.698482        0.4116398       -4.981968        0.6008072        119.1965
4.7106                 0.5975215        118.6356         0.404673       -6.518695         0.407996        -5.84656        0.6001758        118.2712
4.712                   0.596796        117.6814        0.4002781       -7.329136        0.4042564       -6.716132        0.5994729        117.3471
4.7134                 0.5959394         116.732        0.3958464       -8.128687        0.4004172       -7.589176        0.5986938         116.424
4.7148                 0.5949521        115.7878        0.3913889       -8.916414        0.3964759       -8.464055        0.5978331        115.5015
4.7162                 0.5938358        114.8494        0.3869167       -9.691577        0.3924316       -9.339027        0.5968859        114.5797
4.7176                 0.5925936        113.9174        0.3824418       -10.45366        0.3882853       -10.21225         0.595847        113.6584
4.719                  0.5912298        112.9924         0.377976       -11.20237        0.3840396       -11.08182        0.5947117        112.7378
4.7204                 0.5897506        112.0751        0.3735309       -11.93769        0.3796985       -11.94578        0.5934756         111.818
4.7218                 0.5881627        111.1658        0.3691176       -12.65987         0.375268       -12.80216        0.5921351        110.8993
4.7232                 0.5864744         110.265        0.3647466       -13.36941        0.3707554         -13.649        0.5906867        109.9819
4.7246                 0.5846946         109.373        0.3604274       -14.06709        0.3661696       -14.48437        0.5891281        109.0664
4.726                  0.5828331        108.4899        0.3561678       -14.75396        0.3615209       -15.30641        0.5874576         108.153
4.7274                 0.5809001        107.6159        0.3519748       -15.43127        0.3568206       -16.11336        0.5856745        107.2422
4.7288                 0.5789058        106.7508        0.3478532       -16.10051        0.3520815        -16.9036        0.5837788        106.3347
4.7302                 0.5768606        105.8943        0.3438064       -16.76331        0.3473169       -17.67564        0.5817719        105.4309
4.7316                 0.5747743        105.0462        0.3398357       -17.42145        0.3425412       -18.42824        0.5796556        104.5314
4.733                  0.5726564        104.2058        0.3359408       -18.07678        0.3377691       -19.16034        0.5774331        103.6366
4.7344                 0.5705151        103.3725        0.3321194       -18.73118        0.3330155       -19.87119        0.5751084        102.7472
4.7358                 0.5683578        102.5455        0.3283676       -19.38648        0.3282955       -20.56031        0.5726862        101.8637
4.7372                 0.5661905        101.7238        0.3246795       -20.04446        0.3236241       -21.22754        0.5701724        100.9863
4.7386                 0.5640177        100.9064        0.3210484       -20.70673        0.3190155       -21.87308        0.5675732        100.1157
4.74                   0.5618424        100.0923        0.3174659       -21.37474        0.3144834       -22.49751        0.5648956        99.25196
4.7414                 0.5596657        99.28032        0.3139229       -22.04968        0.3100404       -23.10176        0.5621472        98.39545
4.7428                 0.5574872        98.46933        0.3104097       -22.73251         0.305698       -23.68716        0.5593359        97.54635
4.7442                 0.5553047        97.65821        0.3069162       -23.42385         0.301466       -24.25541        0.5564698        96.70466
4.7456                 0.5531143        96.84591        0.3034324       -24.12404        0.2973528       -24.80858        0.5535573        95.87035
4.747                  0.5509111        96.03145        0.2999484       -24.83306        0.2933646       -25.34907        0.5506065        95.04326
4.7484                 0.5486883        95.21391        0.2964551       -25.55058        0.2895058       -25.87958        0.5476255        94.22315
4.7498                 0.5464382        94.39256        0.2929442       -26.27592        0.2857788       -26.40308         0.544622        93.40968
4.7512                 0.5441525        93.56672        0.2894086       -27.00814        0.2821835       -26.92272        0.5416033        92.60234
4.7526                 0.5418219        92.73598        0.2858425       -27.74597        0.2787179       -27.44179        0.5385757        91.80056
4.754                   0.539437        91.89996        0.2822416       -28.48791        0.2753776       -27.96368        0.5355455        91.00363
4.7554                 0.5369883        91.05862        0.2786034       -29.23226        0.2721563       -28.49175        0.5325173        90.21081
4.7568                 0.5344666        90.21195         0.274927       -29.97714        0.2690458       -29.02928        0.5294952        89.42122
4.7582                 0.5318634        89.36019        0.2712134       -30.72056        0.2660359       -29.57944        0.5264823        88.63395
4.7596                 0.5291708        88.50373        0.2674654       -31.46049        0.2631151       -30.14515        0.5234801        87.84804
4.761                  0.5263819        87.64302        0.2636875       -32.19489        0.2602704        -30.7291        0.5204897        87.06245
4.7624                 0.5234911        86.77881        0.2598856       -32.92179        0.2574881       -31.33361        0.5175103        86.27613
4.7638                 0.5204945         85.9118        0.2560676       -33.63935        0.2547534       -31.96066        0.5145404        85.48799
4.7652                 0.5173894        85.04288         0.252242       -34.34594        0.2520512       -32.61182        0.5115769        84.69706
4.7666                 0.5141747        84.17291        0.2484188       -35.04021        0.2493664       -33.28824        0.5086162         83.9023
4.768                  0.5108512        83.30283        0.2446086       -35.72108        0.2466839       -33.99062        0.5056531         83.1027
4.7694                 0.5074213        82.43363        0.2408224       -36.38791        0.2439891        -34.7192        0.5026818        82.29737
4.7708                 0.5038888        81.56615        0.2370713       -37.04049        0.2412681       -35.47382        0.4996955         81.4855
4.7722                 0.5002593        80.70122        0.2333664       -37.67906        0.2385081       -36.25386        0.4966867        80.66627
4.7736                 0.4965395        79.83969        0.2297178        -38.3044        0.2356971        -37.0583        0.4936474        79.83914
4.775                  0.4927372        78.98211        0.2261351        -38.9178         0.232825        -37.8857        0.4905691        79.00349
4.7764                 0.4888614        78.12899        0.2226266       -39.52107        0.2298828       -38.73433        0.4874431        78.15891
4.7778                 0.4849215        77.28065        0.2191988       -40.11655        0.2268633       -39.60205        0.4842605        77.30512
