! TOUCHSTONE file generated by CST MICROWAVE STUDIO
! Date and time: Sat Nov 30 03:29:15 2024
! Project name: test_tuning.cst
! Parameters = {airCoaxOuterDiameter=3; chamferAngle=41; chamferWidth=24; connectorLength=10; drillingHoleDiameter=4.1; feedLength=60; flareDiameter=130; flareLength=70; gratingDistance=0; gratingGap=1.90274; outletLength=30; polarizerLength=134; probe1Diameter=1.3; probe1Distance=14; probe1Length=12; probe2Diameter=1.3; probe2Distance=0; probe2Length=12; probeLength=12; smaInnerDiameter=1.3; smaOuterDiameter=4.1; transitionCoefficient=1.33; waveguideFeedLength=30; waveguideSide=50; waveguideThickness=3; wireCount=25; wireDiameter=1.17699}
! Header version: 2024
! Port assignment regex: !\s*Touchstone port\s*([0-9]+)\s*=\s*(CST MWS port|CST DES external port|CST DES block port)\s*(.+)\s* \(\"(.*)\"\)(\s*mode\s*([0-9]+))?.*
! Touchstone port assignment:
! Touchstone port 1 = CST MWS port 1 ("Input1")
! Touchstone port 2 = CST MWS port 2 ("Input2")
# GHz S MA R 50
4.6                    0.2546341       -159.3512        0.6109782        63.75586        0.6080876        64.38344        0.2289506       -161.9958
4.6014                 0.2608679       -160.2338        0.6118598        62.79297        0.6099219        63.44159         0.235761       -162.8724
4.6028                 0.2671354       -161.1018         0.612568        61.82853        0.6115907        62.48587        0.2425204       -163.7561
4.6042                 0.2734472       -161.9566         0.613109        60.86333        0.6130823        61.51736        0.2492236       -164.6427
4.6056                 0.2798139       -162.7996        0.6134897        59.89801        0.6143868        60.53729        0.2558683       -165.5285
4.607                  0.2862462       -163.6324        0.6137174        58.93314         0.615496        59.54686        0.2624557       -166.4101
4.6084                 0.2927542       -164.4571           0.6138         57.9691        0.6164031        58.54735        0.2689896       -167.2846
4.6098                 0.2993478       -165.2757        0.6137449        57.00622        0.6171034        57.54003        0.2754773       -168.1496
4.6112                 0.3060358       -166.0904        0.6135596        56.04468        0.6175933        56.52616        0.2819284       -169.0032
4.6126                 0.3128258       -166.9037        0.6132515        55.08456        0.6178711          55.507         0.288355       -169.8443
4.614                  0.3197245        -167.718        0.6128271        54.12588        0.6179365        54.48373        0.2947717       -170.6721
4.6154                 0.3267367       -168.5357        0.6122928        53.16853        0.6177908        53.45752        0.3011944       -171.4867
4.6168                 0.3338657       -169.3592        0.6116539        52.21236        0.6174362        52.42947        0.3076401       -172.2887
4.6182                 0.3411128       -170.1911        0.6109151        51.25715        0.6168763        51.40061        0.3141266        -173.079
4.6196                 0.3484779       -171.0335        0.6100802        50.30261        0.6161153        50.37192        0.3206719       -173.8595
4.621                  0.3559582       -171.8885        0.6091523        49.34845        0.6151589        49.34426         0.327293       -174.6323
4.6224                 0.3635494       -172.7581        0.6081333        48.39435        0.6140127        48.31845        0.3340059          -175.4
4.6238                  0.371245       -173.6441        0.6070244        47.43998        0.6126834        47.29522        0.3408252       -176.1655
4.6252                 0.3790366       -174.5481        0.6058257        46.48502        0.6111776        46.27523        0.3477627       -176.9319
4.6266                 0.3869138       -175.4712        0.6045365        45.52917        0.6095026        45.25906         0.354828       -177.7026
4.628                  0.3948648       -176.4146        0.6031557        44.57217        0.6076655        44.24723        0.3620271       -178.4811
4.6294                 0.4028757       -177.3792        0.6016811        43.61381        0.6056736        43.24019         0.369363       -179.2707
4.6308                 0.4109315       -178.3653        0.6001097        42.65392         0.603534        42.23834        0.3768348        179.9254
4.6322                 0.4190157       -179.3734        0.5984388        41.69241        0.6012539        41.24202        0.3844379        179.1041
4.6336                 0.4271107        179.5964        0.5966646        40.72926          0.59884        40.25156        0.3921639        178.2628
4.635                  0.4351983        178.5444        0.5947837         39.7645        0.5962992        39.26723         0.400001        177.3989
4.6364                 0.4432591        177.4708         0.592792         38.7983        0.5936377        38.28928        0.4079338        176.5106
4.6378                 0.4512736        176.3763         0.590686        37.83086         0.590862        37.31796        0.4159438        175.5961
4.6392                 0.4592219        175.2615         0.588462        36.86249        0.5879782        36.35349        0.4240097        174.6545
4.6406                 0.4670841        174.1273         0.586117        35.89357        0.5849922        35.39609        0.4321079        173.6851
4.642                  0.4748403        172.9748        0.5836483         34.9246          0.58191        34.44598        0.4402126        172.6875
4.6434                  0.482471        171.8052        0.5810536         33.9561        0.5787374        33.50338        0.4482969        171.6621
4.6448                 0.4899571        170.6196        0.5783315         32.9887        0.5754804        32.56851        0.4563327        170.6093
4.6462                 0.4972804        169.4195        0.5754815        32.02308        0.5721449        31.64159        0.4642917        169.5303
4.6476                 0.5044233        168.2062        0.5725036        31.05999        0.5687372        30.72283        0.4721454        168.4262
4.649                  0.5113692        166.9814        0.5693992        30.10021        0.5652634        29.81245        0.4798659        167.2987
4.6504                 0.5181028        165.7464        0.5661703        29.14457        0.5617304        28.91063        0.4874263        166.1496
4.6518                 0.5246099        164.5028        0.5628201        28.19393        0.5581447        28.01755         0.494801         164.981
4.6532                 0.5308776        163.2523         0.559353        27.24915        0.5545135        27.13336         0.501966        163.7949
4.6546                 0.5368945        161.9964        0.5557741         26.3111         0.550844        26.25815        0.5088998        162.5938
4.656                  0.5426506        160.7367        0.5520898        25.38064        0.5471436        25.39199        0.5155826        161.3801
4.6574                 0.5481377        159.4748        0.5483073         24.4586        0.5434201        24.53486        0.5219974        160.1562
4.6588                 0.5533488        158.2121        0.5444349        23.54577        0.5396811        23.68669        0.5281302        158.9245
4.6602                  0.558279        156.9504        0.5404819        22.64289        0.5359343        22.84732        0.5339694        157.6876
4.6616                 0.5629248        155.6909        0.5364579        21.75063        0.5321873         22.0165        0.5395065        156.4477
4.663                  0.5672844        154.4352        0.5323735        20.86957        0.5284474        21.19388        0.5447361        155.2073
4.6644                 0.5713576        153.1845        0.5282399        20.00021        0.5247215        20.37903        0.5496553        153.9684
4.6658                  0.575146        151.9403        0.5240686        19.14291        0.5210159         19.5714        0.5542646        152.7333
4.6672                 0.5786524        150.7037        0.5198714        18.29793        0.5173367        18.77034        0.5585667        151.5038
4.6686                 0.5818814         149.476        0.5156601        17.46539        0.5136885        17.97509        0.5625671        150.2817
4.67                    0.584839         148.258        0.5114465        16.64527        0.5100755        17.18484        0.5662736        149.0686
4.6714                 0.5875326         147.051        0.5072423        15.83738        0.5065007        16.39863        0.5696961        147.8659
4.6728                 0.5899706        145.8556        0.5030586        15.04139        0.5029659         15.6155        0.5728461        146.6747
4.6742                 0.5921627        144.6728        0.4989059        14.25681        0.4994718         14.8344        0.5757371        145.4962
4.6756                 0.5941196        143.5031         0.494794        13.48298        0.4960176        14.05425        0.5783831        144.3309
4.677                  0.5958529        142.3472        0.4907318        12.71909        0.4926012        13.27398        0.5807996        143.1795
4.6784                 0.5973744        141.2055         0.486727        11.96419        0.4892195        12.49252        0.5830021        142.0423
4.6798                 0.5986971        140.0782        0.4827859        11.21718        0.4858677        11.70884        0.5850064        140.9195
4.6812                 0.5998341        138.9656        0.4789138        10.47683        0.4825403        10.92197        0.5868282        139.8108
4.6826                 0.6007987        137.8678        0.4751143        9.741832        0.4792303        10.13102        0.5884825         138.716
4.684                  0.6016042        136.7847        0.4713894        9.010765        0.4759299        9.335246        0.5899835        137.6347
4.6854                 0.6022637        135.7161        0.4677397        8.282161        0.4726307        8.533996         0.591344        136.5663
4.6868                 0.6027903        134.6619         0.464164        7.554513        0.4693235        7.726789        0.5925763        135.5101
4.6882                 0.6031964        133.6215        0.4606596        6.826301        0.4659988        6.913308          0.59369        134.4651
4.6896                 0.6034936        132.5945        0.4572221        6.096029         0.462647        6.093417        0.5946942        133.4307
4.691                  0.6036931        131.5804         0.453846        5.362247        0.4592587        5.267163         0.595595        132.4056
4.6924                 0.6038051        130.5784        0.4505239        4.623579        0.4558245        4.434788        0.5963981        131.3891
4.6938                 0.6038384        129.5877        0.4472475        3.878754         0.452336        3.596722        0.5971061        130.3802
4.6952                 0.6038013        128.6077        0.4440074        3.126625        0.4487854        2.753583        0.5977207        129.3779
4.6966                 0.6037007        127.6373        0.4407931        2.366197        0.4451656        1.906168        0.5982421        128.3814
4.698                  0.6035418        126.6758        0.4375937        1.596643        0.4414714        1.055438        0.5986685        127.3899
4.6994                 0.6033294        125.7222        0.4343974       0.8173205        0.4376981       0.2025024        0.5989973        126.4029
4.7008                 0.6030664        124.7756        0.4311924      0.02778682        0.4338431         -0.6514         0.599225        125.4197
4.7022                 0.6027547        123.8351        0.4279668      -0.7721926        0.4299053       -1.504924        0.5993472          124.44
4.7036                 0.6023947        122.8997        0.4247087       -1.582639        0.4258849       -2.356648        0.5993592        123.4635
4.705                  0.6019862        121.9688        0.4214067       -2.403359        0.4217842         -3.2051         0.599256          122.49
4.7064                 0.6015274        121.0414        0.4180499       -3.233948        0.4176067       -4.048762        0.5990332        121.5197
4.7078                 0.6010156        120.1168        0.4146282       -4.073765         0.413358       -4.886202        0.5986863        120.5526
4.7092                 0.6004476        119.1944        0.4111324       -4.921987        0.4090449       -5.715956        0.5982113         119.589
4.7106                 0.5998191        118.2736        0.4075546       -5.777621        0.4046756       -6.536612        0.5976058        118.6293
4.712                  0.5991253         117.354        0.4038879       -6.639434        0.4002598       -7.346997        0.5968679        117.6739
4.7134                 0.5983611        116.4351        0.4001269       -7.506065         0.395808       -8.145989         0.595997        116.7235
4.7148                 0.5975212        115.5167        0.3962678       -8.375983        0.3913315        -8.93266         0.594994        115.7785
4.7162                 0.5965997        114.5985        0.3923083       -9.247535        0.3868422       -9.706302        0.5938611        114.8396
4.7176                 0.5955914        113.6806        0.3882477       -10.11894        0.3823526       -10.46643        0.5926018        113.9074
4.719                  0.5944907        112.7629        0.3840869       -10.98835        0.3778747       -11.21281         0.591221        112.9825
4.7204                 0.5932926        111.8456        0.3798289       -11.85381        0.3734205       -11.94548        0.5897251        112.0655
4.7218                 0.5919926        110.9288        0.3754778       -12.71335        0.3690015       -12.66475        0.5881216        111.1568
4.7232                 0.5905868        110.0128        0.3710397       -13.56498        0.3646281       -13.37124        0.5864191        110.2568
4.7246                 0.5890718        109.0981        0.3665223       -14.40671        0.3603098       -14.06579        0.5846269        109.3658
4.726                  0.5874453         108.185        0.3619345        -15.2366        0.3560547       -14.74955        0.5827551        108.4841
4.7274                 0.5857059         107.274         0.357287       -16.05277        0.3518692       -15.42387         0.580814        107.6114
4.7288                 0.5838527        106.3656        0.3525913       -16.85347        0.3477581       -16.09032        0.5788144        106.7478
4.7302                 0.5818863        105.4604        0.3478602       -17.63707        0.3437244       -16.75063        0.5767664         105.893
4.7316                  0.579808         104.559        0.3431075       -18.40212        0.3397689       -17.40666        0.5746803        105.0465
4.733                  0.5776202        103.6619        0.3383475       -19.14738        0.3358909       -18.06032        0.5725651        104.2077
4.7344                 0.5753264        102.7698        0.3335951       -19.87185        0.3320875       -18.71354        0.5704293        103.3759
4.7358                 0.5729309         101.883        0.3288653       -20.57481        0.3283542       -19.36821        0.5682798        102.5503
4.7372                 0.5704388        101.0022        0.3241733       -21.25587        0.3246847       -20.02611        0.5661224        101.7298
4.7386                 0.5678564        100.1278         0.319534       -21.91495        0.3210715       -20.68887        0.5639615        100.9135
4.74                   0.5651903        99.26007        0.3149615       -22.55233         0.317506       -21.35792        0.5617995        100.1003
4.7414                 0.5624479        98.39951        0.3104693        -23.1687        0.3139783       -22.03444        0.5596372         99.2889
4.7428                 0.5596371        97.54623        0.3060699       -23.76512        0.3104785       -22.71931        0.5574737        98.47827
4.7442                 0.5567661        96.70038        0.3017744       -24.34303         0.306996       -23.41312        0.5553065        97.66722
4.7456                 0.5538434        95.86201        0.2975922       -24.90428        0.3035204       -24.11613        0.5531312        96.85478
4.747                  0.5508775        95.03106        0.2935313       -25.45105        0.3000419       -24.82823        0.5509425        96.03987
4.7484                 0.5478765        94.20729        0.2895973        -25.9859         0.296551       -25.54902         0.548733         95.2217
4.7498                 0.5448488        93.39045        0.2857941       -26.51166        0.2930397       -26.27772        0.5464949        94.39943
4.7512                 0.5418021        92.58009        0.2821234        -27.0314        0.2895007       -27.01327        0.5442194        93.57251
4.7526                 0.5387433        91.77569        0.2785843       -27.54838        0.2859283       -27.75433        0.5418969        92.74051
4.754                  0.5356792        90.97664        0.2751743       -28.06602        0.2823187        -28.4993         0.539518        91.90312
4.7554                 0.5326151        90.18218        0.2718881       -28.58773        0.2786695       -29.24638        0.5370731         91.0603
4.7568                 0.5295559        89.39148        0.2687188       -29.11693        0.2749802       -29.99362        0.5345527        90.21212
4.7582                 0.5265052        88.60367        0.2656574       -29.65694        0.2712522       -30.73896        0.5319484        89.35887
4.7596                 0.5234655        87.81773        0.2626932       -30.21091        0.2674887        -31.4803        0.5292524        88.50091
4.761                  0.5204382        87.03266         0.259814       -30.78173        0.2636948       -32.21554        0.5264579        87.63885
4.7624                 0.5174235        86.24743        0.2570063       -31.37203        0.2598768       -32.94271        0.5235598        86.77336
4.7638                 0.5144204        85.46092        0.2542559       -31.98405        0.2560429       -33.65993        0.5205539        85.90523
4.7652                 0.5114265        84.67208        0.2515478       -32.61966        0.2522024       -34.36557         0.517438        85.03534
4.7666                 0.5084386        83.87984        0.2488666       -33.28032        0.2483656       -35.05828        0.5142116        84.16464
4.768                  0.5054519        83.08323        0.2461971       -33.96701        0.2445433       -35.73705        0.5108756        83.29405
4.7694                 0.5024611        82.28118        0.2435241       -34.68029        0.2407471       -36.40127        0.5074328        82.42456
4.7708                 0.4994596        81.47285        0.2408332       -35.42026        0.2369883       -37.05078        0.5038875        81.55707
4.7722                 0.4964403        80.65743        0.2381107       -36.18655        0.2332781       -37.68594        0.5002455        80.69241
4.7736                 0.4933952        79.83425        0.2353439       -36.97838         0.229627        -38.3076         0.496514        79.83131
4.775                  0.4903158        79.00258        0.2325217       -37.79455        0.2260444       -38.91718         0.492701        78.97441
4.7764                 0.4871933        78.16202         0.229634       -38.63347        0.2225385       -39.51659        0.4888159        78.12214
4.7778                 0.4840188        77.31217        0.2266726       -39.49321         0.219116       -40.10829        0.4848682        77.27487
