! TOUCHSTONE file generated by CST MICROWAVE STUDIO
! Date and time: Sat Nov 30 03:29:14 2024
! Project name: test_tuning.cst
! Parameters = {airCoaxOuterDiameter=3; chamferAngle=35; chamferWidth=24; connectorLength=10; drillingHoleDiameter=4.1; feedLength=60; flareDiameter=130; flareLength=70; gratingDistance=0; gratingGap=1.90274; outletLength=30; polarizerLength=134; probe1Diameter=1.3; probe1Distance=14; probe1Length=12; probe2Diameter=1.3; probe2Distance=0; probe2Length=12; probeLength=12; smaInnerDiameter=1.3; smaOuterDiameter=4.1; transitionCoefficient=1.33; waveguideFeedLength=30; waveguideSide=50; waveguideThickness=3; wireCount=25; wireDiameter=1.17699}
! Header version: 2024
! Port assignment regex: !\s*Touchstone port\s*([0-9]+)\s*=\s*(CST MWS port|CST DES external port|CST DES block port)\s*(.+)\s* \(\"(.*)\"\)(\s*mode\s*([0-9]+))?.*
! Touchstone port assignment:
! Touchstone port 1 = CST MWS port 1 ("Input1")
! Touchstone port 2 = CST MWS port 2 ("Input2")
# GHz S MA R 50
4.6                    0.3158099       -164.3886        0.6135405        58.22989        0.6145256        59.09246        0.2655855       -169.7792
4.6014                 0.3231708       -165.3359        0.6133873        57.19654        0.6155436        58.04986        0.2722938       -170.6295
4.6028                 0.3306212       -166.2802        0.6130817         56.1617        0.6164016        56.99161        0.2790088       -171.4673
4.6042                 0.3381647       -167.2238         0.612626        55.12566        0.6170807        55.91802        0.2857425       -172.2937
4.6056                 0.3458038       -168.1687        0.6120226        54.08864        0.6175621        54.82965        0.2925072       -173.1099
4.607                  0.3535396       -169.1171         0.611274        53.05084        0.6178275         53.7273        0.2993149       -173.9177
4.6084                 0.3613718       -170.0711        0.6103827        52.01245        0.6178595        52.61195        0.3061766       -174.7191
4.6098                 0.3692986       -171.0325        0.6093506        50.97364        0.6176419        51.48484        0.3131026       -175.5162
4.6112                 0.3773166        -172.003        0.6081801        49.93456        0.6171603         50.3474        0.3201017       -176.3113
4.6126                 0.3854208       -172.9844        0.6068734        48.89532        0.6164022        49.20122        0.3271811       -177.1069
4.614                  0.3936049       -173.9781        0.6054321        47.85607        0.6153574        48.04808        0.3343463       -177.9053
4.6154                 0.4018607       -174.9853        0.6038582        46.81691        0.6140184        46.88988        0.3416006       -178.7091
4.6168                 0.4101791       -176.0072        0.6021533        45.77794        0.6123802        45.72868        0.3489454       -179.5204
4.6182                  0.418549       -177.0447        0.6003189        44.73928        0.6104414        44.56656        0.3563798        179.6584
4.6196                 0.4269584       -178.0985        0.5983566        43.70103         0.608203        43.40571        0.3639008        178.8253
4.621                   0.435394       -179.1692        0.5962676        42.66331        0.6056694        42.24834        0.3715033        177.9786
4.6224                 0.4438413        179.7429        0.5940529        41.62623        0.6028481        41.09664          0.37918        177.1166
4.6238                 0.4522849        178.6374        0.5917138        40.58993        0.5997495        39.95279        0.3869219        176.2379
4.6252                 0.4607085        177.5144        0.5892515        39.55453        0.5963872        38.81887        0.3947181        175.3416
4.6266                 0.4690953         176.374        0.5866668         38.5202        0.5927772         37.6969        0.4025564        174.4268
4.628                  0.4774275        175.2164        0.5839608         37.4871        0.5889381        36.58874         0.410423        173.4929
4.6294                 0.4856873         174.042        0.5811345        36.45543        0.5848908        35.49612        0.4183035        172.5397
4.6308                 0.4938563        172.8513        0.5781889        35.42538        0.5806578        34.42052        0.4261823        171.5671
4.6322                 0.5019161         171.645        0.5751251         34.3972        0.5762633        33.36326        0.4340433        170.5752
4.6336                 0.5098484        170.4238        0.5719444        33.37112        0.5717325        32.32537        0.4418704        169.5645
4.635                  0.5176349        169.1885        0.5686481        32.34742        0.5670912        31.30763        0.4496468        168.5355
4.6364                 0.5252574        167.9401        0.5652375         31.3264        0.5623656         30.3105        0.4573564        167.4888
4.6378                 0.5326985        166.6796        0.5617145        30.30837         0.557581        29.33416        0.4649829        166.4253
4.6392                 0.5399411        165.4081        0.5580807        29.29368        0.5527627        28.37849        0.4725108        165.3458
4.6406                 0.5469688        164.1266        0.5543385        28.28267        0.5479342          27.443        0.4799249        164.2515
4.642                   0.553766        162.8364          0.55049        27.27575        0.5431178        26.52695        0.4872109        163.1432
4.6434                 0.5603179        161.5387        0.5465379        26.27332        0.5383333        25.62926        0.4943551        162.0222
4.6448                 0.5666109        160.2347        0.5424853        25.27578        0.5335984        24.74859        0.5013447        160.8895
4.6462                 0.5726323        158.9258        0.5383352        24.28359        0.5289281        23.88333        0.5081679        159.7463
4.6476                 0.5783707        157.6131        0.5340914        23.29719        0.5243343        23.03169        0.5148138        158.5936
4.649                  0.5838158        156.2982        0.5297577        22.31704        0.5198259        22.19168        0.5212721        157.4326
4.6504                 0.5889588        154.9822        0.5253386        21.34361        0.5154085        21.36119        0.5275338        156.2643
4.6518                 0.5937921        153.6666        0.5208386        20.37737        0.5110847        20.53806        0.5335904        155.0897
4.6532                   0.59831        152.3526        0.5162627        19.41878        0.5068539        19.72007        0.5394347        153.9099
4.6546                 0.6025076        151.0417        0.5116163         18.4683        0.5027123        18.90508        0.5450597        152.7258
4.656                  0.6063819         149.735        0.5069049         17.5264        0.4986537        18.09102        0.5504598        151.5383
4.6574                 0.6099316         148.434        0.5021348        16.59349        0.4946691        17.27595        0.5556297        150.3484
4.6588                 0.6131567        147.1398         0.497312        15.67001        0.4907478        16.45815        0.5605647        149.1569
4.6602                 0.6160587        145.8538        0.4924431        14.75632         0.486877        15.63608         0.565261        147.9645
4.6616                 0.6186408        144.5771        0.4875349        13.85278        0.4830429        14.80849        0.5697153         146.772
4.663                  0.6209078        143.3109        0.4825943         12.9597        0.4792305        13.97441        0.5739248        145.5803
4.6644                 0.6228658        142.0564        0.4776284        12.07734        0.4754248        13.13317        0.5778871        144.3901
4.6658                 0.6245226        140.8146        0.4726442        11.20592        0.4716107        12.28439        0.5816008         143.202
4.6672                  0.625887        139.5864         0.467649        10.34559        0.4677734          11.428        0.5850645        142.0167
4.6686                 0.6269696        138.3729        0.4626501        9.496427        0.4638992        10.56423        0.5882777         140.835
4.67                   0.6277817         137.175        0.4576542        8.658467        0.4599754        9.693612        0.5912405        139.6576
4.6714                 0.6283363        135.9933        0.4526684        7.831645         0.455991        8.816897        0.5939532         138.485
4.6728                 0.6286471        134.8287        0.4476995        7.015836        0.4519365        7.935092        0.5964174        137.3181
4.6742                 0.6287291        133.6817        0.4427536        6.210821        0.4478048        7.049394        0.5986345        136.1573
4.6756                 0.6285975        132.5529        0.4378369        5.416307        0.4435905        6.161166        0.6006077        135.0036
4.677                   0.628269        131.4426        0.4329551        4.631909        0.4392906        5.271895          0.60234        133.8574
4.6784                   0.62776        130.3511        0.4281131        3.857164        0.4349043        4.383147        0.6038359        132.7194
4.6798                 0.6270879        129.2787        0.4233156        3.091522        0.4304328        3.496535        0.6051002        131.5904
4.6812                 0.6262699        128.2253        0.4185665        2.334355        0.4258796        2.613668        0.6061387        130.4708
4.6826                 0.6253236        127.1909        0.4138693        1.584956        0.4212499        1.736116        0.6069585        129.3613
4.684                  0.6242663        126.1752        0.4092264       0.8425505         0.416551       0.8653628         0.607567        128.2625
4.6854                 0.6231152        125.1779        0.4046397       0.1062984        0.4117913     0.002774888        0.6079728        127.1748
4.6868                 0.6218866        124.1985        0.4001106      -0.6246943        0.4069806      -0.8504391         0.608185        126.0987
4.6882                 0.6205966        123.2365        0.3956391       -1.351367        0.4021297       -1.693257        0.6082139        125.0346
4.6896                 0.6192603         122.291        0.3912251       -2.074693        0.3972499       -2.524874        0.6080699        123.9829
4.691                  0.6178917        121.3612        0.3868673       -2.795671        0.3923529       -3.344721        0.6077645        122.9438
4.6924                 0.6165041        120.4462        0.3825638       -3.515304        0.3874501       -4.152481        0.6073093        121.9173
4.6938                  0.615109        119.5448        0.3783118       -4.234595        0.3825529       -4.948098        0.6067165        120.9036
4.6952                 0.6137171        118.6559        0.3741082       -4.954529        0.3776718       -5.731777        0.6059981        119.9027
4.6966                 0.6123371        117.7782        0.3699488       -5.676061        0.3728162       -6.503983        0.6051662        118.9142
4.698                  0.6109764        116.9103        0.3658291       -6.400098        0.3679946       -7.265417        0.6042329         117.938
4.6994                 0.6096407         116.051        0.3617439       -7.127495        0.3632139       -8.017003        0.6032098        116.9737
4.7008                  0.608334        115.1986        0.3576877       -7.859016        0.3584792       -8.759836        0.6021076        116.0206
4.7022                 0.6070585        114.3519        0.3536545       -8.595421        0.3537942       -9.495147         0.600937        115.0783
4.7036                  0.605815        113.5094        0.3496381       -9.337195        0.3491606       -10.22435         0.599707         114.146
4.705                  0.6046023        112.6696         0.345632       -10.08494        0.3445786       -10.94888        0.5984259        113.2229
4.7064                 0.6034177        111.8311        0.3416297       -10.83901        0.3400466       -11.67005        0.5971008        112.3081
4.7078                 0.6022571        110.9927        0.3376246       -11.59967        0.3355612       -12.38935        0.5957372        111.4006
4.7092                 0.6011147         110.153        0.3336101       -12.36708        0.3311179       -13.10799        0.5943396        110.4995
4.7106                 0.5999833        109.3109          0.32958       -13.14122        0.3267107       -13.82718        0.5929105        109.6038
4.712                  0.5988551        108.4653         0.325528       -13.92199        0.3223331       -14.54784        0.5914515        108.7124
4.7134                 0.5977206        107.6152        0.3214484       -14.70911        0.3179775       -15.27073        0.5899621        107.8243
4.7148                 0.5965696        106.7597        0.3173358       -15.50221        0.3136362       -15.99631         0.588441        106.9387
4.7162                 0.5953913        105.8982        0.3131852       -16.30072        0.3093013        -16.7248        0.5868853        106.0545
4.7176                 0.5941742        105.0299        0.3089923         -17.104        0.3049652       -17.45613        0.5852909         105.171
4.719                  0.5929065        104.1546        0.3047534       -17.91121        0.3006207        -18.1899        0.5836527        104.2874
4.7204                 0.5915762        103.2719        0.3004653       -18.72143        0.2962615       -18.92546        0.5819648        103.4032
4.7218                 0.5901714        102.3815        0.2961256       -19.53358        0.2918823       -19.66186        0.5802207        102.5178
4.7232                 0.5886802        101.4836        0.2917327       -20.34646        0.2874789        -20.3979        0.5784136         101.631
4.7246                 0.5870909        100.5781        0.2872858       -21.15878        0.2830487       -21.13215        0.5765363        100.7423
4.726                  0.5853927        99.66538        0.2827849       -21.96909        0.2785903       -21.86298        0.5745819        99.85192
4.7274                 0.5835752        98.74574        0.2782307       -22.77587        0.2741041       -22.58863        0.5725438        98.95972
4.7288                 0.5816288        97.81969         0.273625       -23.57748         0.269592       -23.30721        0.5704158        98.06594
4.7302                 0.5795449        96.88786        0.2689701       -24.37221        0.2650573       -24.01679        0.5681927        97.17085
4.7316                  0.577316        95.95093        0.2642695       -25.15826        0.2605051       -24.71544          0.56587        96.27491
4.733                  0.5749356        95.00971        0.2595274       -25.93376        0.2559414       -25.40131        0.5634447        95.37859
4.7344                 0.5723984        94.06507        0.2547486        -26.6968        0.2513737       -26.07264        0.5609144        94.48246
4.7358                 0.5697008        93.11799        0.2499391       -27.44541        0.2468103       -26.72788        0.5582786        93.58713
4.7372                 0.5668402         92.1695        0.2451051       -28.17762        0.2422602       -27.36571        0.5555382         92.6933
4.7386                 0.5638156        91.22068         0.240254       -28.89144        0.2377331       -27.98509        0.5526951        91.80159
4.74                   0.5606272        90.27262        0.2353934       -29.58491        0.2332384       -28.58535        0.5497528        90.91266
4.7414                 0.5572772        89.32644        0.2305319       -30.25611        0.2287857       -29.16619        0.5467162        90.02708
4.7428                 0.5537688         88.3833        0.2256781       -30.90317         0.224384       -29.72774        0.5435911        89.14538
4.7442                 0.5501067         87.4443        0.2208413       -31.52436        0.2200415       -30.27054        0.5403848        88.26805
4.7456                  0.546297        86.51066         0.216031       -32.11803        0.2157654       -30.79561         0.537105        87.39536
4.747                  0.5423474        85.58337         0.211257       -32.68275        0.2115615       -31.30438        0.5337603         86.5275
4.7484                 0.5382666        84.66348        0.2065289       -33.21724        0.2074341       -31.79869        0.5303597        85.66456
4.7498                 0.5340644        83.75198        0.2018565       -33.72049        0.2033857       -32.28073        0.5269124        84.80638
4.7512                  0.529752        82.84973        0.1972492       -34.19178        0.1994172       -32.75301         0.523427        83.95268
4.7526                 0.5253412        81.95756        0.1927163       -34.63068        0.1955273       -33.21825        0.5199125        83.10299
4.754                  0.5208448        81.07613        0.1882663       -35.03716         0.191713       -33.67929        0.5163764         82.2567
4.7554                  0.516276        80.20596        0.1839075       -35.41153        0.1879695       -34.13899        0.5128259        81.41299
4.7568                 0.5116488        79.34745        0.1796468       -35.75459        0.1842903       -34.60016        0.5092669        80.57093
4.7582                 0.5069772        78.50088        0.1754908       -36.06754        0.1806674       -35.06539        0.5057036        79.72941
4.7596                 0.5022754        77.66626        0.1714446       -36.35209        0.1770916       -35.53699         0.502139        78.88722
4.761                  0.4975577        76.84347        0.1675123       -36.61039         0.173553       -36.01689        0.4985745        78.04307
4.7624                 0.4928377        76.03221        0.1636965        -36.8451        0.1700408        -36.5065        0.4950095        77.19564
4.7638                 0.4881287        75.23192        0.1599985        -37.0593        0.1665442        -37.0067        0.4914419         76.3435
4.7652                 0.4834433        74.44186        0.1564181       -37.25651        0.1630524       -37.51774        0.4878676        75.48528
4.7666                 0.4787931        73.66108        0.1529534        -37.4406        0.1595551       -38.03923        0.4842812        74.61968
4.768                  0.4741888        72.88839        0.1496011       -37.61579         0.156043       -38.57005        0.4806755        73.74541
4.7694                 0.4696392        72.12241        0.1463562       -37.78649        0.1525077        -39.1084        0.4770423         72.8613
4.7708                 0.4651521        71.36153        0.1432122       -37.95729         0.148942        -39.6518         0.473372        71.96633
4.7722                 0.4607336        70.60401         0.140161       -38.13287        0.1453408       -40.19705        0.4696543        71.05958
4.7736                 0.4563879        69.84789        0.1371936        -38.3178        0.1417003       -40.74035        0.4658783        70.14041
4.775                  0.4521173        69.09099        0.1342991       -38.51656        0.1380187       -41.27725        0.4620328         69.2083
4.7764                  0.447922        68.33112        0.1314662        -38.7334        0.1342964       -41.80279        0.4581068        68.26286
4.7778                 0.4438005        67.56593        0.1286823       -38.97221        0.1305354       -42.31149        0.4540895        67.30403
