! TOUCHSTONE file generated by CST MICROWAVE STUDIO
! Date and time: Sat Nov 30 03:29:16 2024
! Project name: test_tuning.cst
! Parameters = {airCoaxOuterDiameter=3; chamferAngle=47; chamferWidth=24; connectorLength=10; drillingHoleDiameter=4.1; feedLength=60; flareDiameter=130; flareLength=70; gratingDistance=0; gratingGap=1.90274; outletLength=30; polarizerLength=134; probe1Diameter=1.3; probe1Distance=14; probe1Length=12; probe2Diameter=1.3; probe2Distance=0; probe2Length=12; probeLength=12; smaInnerDiameter=1.3; smaOuterDiameter=4.1; transitionCoefficient=1.33; waveguideFeedLength=30; waveguideSide=50; waveguideThickness=3; wireCount=25; wireDiameter=1.17699}
! Header version: 2024
! Port assignment regex: !\s*Touchstone port\s*([0-9]+)\s*=\s*(CST MWS port|CST DES external port|CST DES block port)\s*(.+)\s* \(\"(.*)\"\)(\s*mode\s*([0-9]+))?.*
! Touchstone port assignment:
! Touchstone port 1 = CST MWS port 1 ("Input1")
! Touchstone port 2 = CST MWS port 2 ("Input2")
# GHz S MA R 50
4.6                    0.2183736         -164.62        0.6086606        66.63173         0.611252        67.40412        0.2420397       -158.0372
4.6014                 0.2249696       -165.3518        0.6099535        65.71378        0.6137257        66.43788        0.2492111       -158.8443
4.6028                  0.231539       -166.0772        0.6111373        64.79087        0.6160007         65.4515        0.2564545       -159.6682
4.6042                 0.2380899       -166.7942        0.6122152        63.86303         0.618057         64.4466        0.2637614       -160.5084
4.6056                 0.2446325       -167.5016          0.61319         62.9302        0.6198769        63.42492        0.2711236       -161.3643
4.607                  0.2511786       -168.1986        0.6140636         61.9922         0.621445         62.3883        0.2785328        -162.235
4.6084                 0.2577414        -168.885        0.6148371         61.0488        0.6227482        61.33869        0.2859812       -163.1197
4.6098                 0.2643354       -169.5614        0.6155102        60.09972        0.6237761        60.27807        0.2934614       -164.0176
4.6112                 0.2709754       -170.2286        0.6160818         59.1446        0.6245212        59.20852        0.3009665       -164.9275
4.6126                 0.2776767       -170.8881        0.6165492        58.18313        0.6249782        58.13208        0.3084898       -165.8486
4.614                  0.2844541       -171.5417        0.6169087        57.21496        0.6251449         57.0508        0.3160258       -166.7799
4.6154                  0.291322       -172.1918        0.6171553        56.23981        0.6250217        55.96671        0.3235691       -167.7206
4.6168                 0.2982936       -172.8408        0.6172827        55.25743        0.6246115        54.88179        0.3311153       -168.6697
4.6182                 0.3053803       -173.4916        0.6172838        54.26767        0.6239196        53.79796        0.3386605       -169.6266
4.6196                 0.3125919       -174.1472        0.6171502        53.27048        0.6229538        52.71705        0.3462015       -170.5904
4.621                  0.3199357       -174.8106        0.6168734         52.2659         0.621724        51.64079        0.3537355       -171.5608
4.6224                 0.3274167       -175.4848        0.6164439        51.25411        0.6202422        50.57081        0.3612603       -172.5371
4.6238                 0.3350369       -176.1728        0.6158523        50.23543         0.618522        49.50857        0.3687743       -173.5189
4.6252                 0.3427956       -176.8773        0.6150892        49.21031        0.6165786        48.45542        0.3762758       -174.5061
4.6266                  0.350689        -177.601        0.6141453        48.17937        0.6144287        47.41255        0.3837639       -175.4984
4.628                  0.3587107       -178.3461        0.6130122        47.14335        0.6120897        46.38096        0.3912374       -176.4959
4.6294                  0.366851       -179.1147        0.6116821        46.10317          0.60958        45.36149        0.3986952       -177.4985
4.6308                 0.3750978       -179.9083        0.6101483        45.05985        0.6069182        44.35478        0.4061361       -178.5063
4.6322                 0.3834364        179.2718        0.6084057        44.01456        0.6041235        43.36129        0.4135588       -179.5196
4.6336                 0.3918499        178.4248        0.6064507        42.96858        0.6012145        42.38128        0.4209613        179.4614
4.635                  0.4003195          177.55        0.6042812        41.92331        0.5982096        41.41483        0.4283414        178.4362
4.6364                 0.4088246        176.6474        0.6018972         40.8802        0.5951268         40.4618        0.4356963        177.4046
4.6378                 0.4173434        175.7172        0.5993009        39.84079        0.5919826        39.52193        0.4430224        176.3662
4.6392                 0.4258533        174.7598        0.5964963        38.80666        0.5887928        38.59472        0.4503155        175.3205
4.6406                 0.4343309        173.7762        0.5934899        37.77939        0.5855715        37.67955        0.4575705        174.2672
4.642                  0.4427527        172.7674          0.59029        36.76056        0.5823317        36.77565        0.4647815        173.2058
4.6434                 0.4510952        171.7347        0.5869075        35.75173        0.5790842         35.8821        0.4719416        172.1359
4.6448                 0.4593356        170.6796        0.5833549        34.75439        0.5758381        34.99793        0.4790432        171.0573
4.6462                 0.4674515        169.6038        0.5796467        33.76992         0.572601        34.12202        0.4860778        169.9696
4.6476                 0.4754216         168.509        0.5757992        32.79962        0.5693781        33.25327        0.4930358        168.8727
4.649                  0.4832261        167.3973        0.5718303        31.84461        0.5661729        32.39049        0.4999072        167.7664
4.6504                 0.4908462        166.2705        0.5677587        30.90589        0.5629872        31.53252         0.506681        166.6507
4.6518                 0.4982651        165.1306        0.5636048        29.98418        0.5598206        30.67821        0.5133455        165.5256
4.6532                 0.5054677        163.9797         0.559389        29.08007        0.5566716        29.82645        0.5198887        164.3913
4.6546                 0.5124407        162.8197        0.5551321        28.19383        0.5535369        28.97621        0.5262982        163.2479
4.656                  0.5191729        161.6526         0.550855        27.32553        0.5504117        28.12656        0.5325609        162.0957
4.6574                  0.525655        160.4803        0.5465781        26.47493        0.5472905        27.27667         0.538664        160.9353
4.6588                 0.5318798        159.3047        0.5423209        25.64156        0.5441665        26.42584        0.5445945         159.767
4.6602                  0.537842        158.1276        0.5381015        24.82464        0.5410327        25.57349        0.5503394        158.5916
4.6616                 0.5435384        156.9505        0.5339369        24.02312        0.5378811        24.71923        0.5558861        157.4096
4.663                  0.5489677         155.775        0.5298417         23.2357         0.534704        23.86277        0.5612224        156.2219
4.6644                 0.5541302        154.6025        0.5258287        22.46085        0.5314935        23.00403        0.5663367        155.0293
4.6658                  0.559028        153.4344         0.521908        21.69684         0.528242        22.14305        0.5712179        153.8328
4.6672                 0.5636648        152.2719        0.5180872        20.94173        0.5249425        21.28002        0.5758564        152.6333
4.6686                 0.5680452        151.1158        0.5143708        20.19349        0.5215884        20.41529        0.5802427        151.4319
4.67                   0.5721754        149.9673        0.5107609        19.44997        0.5181741        19.54932         0.584369        150.2297
4.6714                 0.5760625        148.8269        0.5072562        18.70899        0.5146953        18.68271        0.5882287        149.0279
4.6728                 0.5797142        147.6953         0.503853        17.96838        0.5111483        17.81615        0.5918163        147.8277
4.6742                 0.5831389        146.5729        0.5005446        17.22603        0.5075307        16.95042        0.5951281        146.6302
4.6756                 0.5863452        145.4602        0.4973219        16.47995        0.5038418        16.08636        0.5981615        145.4367
4.677                  0.5893422        144.3573        0.4941737        15.72829        0.5000817        15.22488        0.6009155        144.2484
4.6784                 0.5921384        143.2644        0.4910866        14.96941        0.4962522        14.36688        0.6033911        143.0665
4.6798                 0.5947428        142.1813        0.4880456        14.20191         0.492356        13.51331        0.6055905        141.8922
4.6812                 0.5971635        141.1081        0.4850348        13.42465        0.4883975        12.66506        0.6075175        140.7266
4.6826                 0.5994084        140.0446        0.4820373         12.6368        0.4843818        11.82301        0.6091781         139.571
4.684                  0.6014846        138.9904        0.4790356        11.83781        0.4803154        10.98797        0.6105789        138.4263
4.6854                 0.6033988        137.9454        0.4760127        11.02746        0.4762055        10.16067        0.6117288        137.2936
4.6868                 0.6051564        136.9091        0.4729518        10.20586        0.4720604        9.341736        0.6126376        136.1737
4.6882                 0.6067626        135.8814        0.4698367        9.373402        0.4678884        8.531687        0.6133166        135.0675
4.6896                 0.6082214        134.8616        0.4666529        8.530805        0.4636989          7.7309        0.6137785        133.9758
4.691                  0.6095361        133.8496        0.4633869        7.679054         0.459501        6.939606        0.6140365        132.8992
4.6924                 0.6107095        132.8449        0.4600275         6.81939        0.4553041        6.157878        0.6141051        131.8381
4.6938                 0.6117431        131.8473        0.4565651        5.953289        0.4511173        5.385626        0.6139996         130.793
4.6952                 0.6126386        130.8566        0.4529927        5.082422        0.4469494        4.622595        0.6137352        129.7641
4.6966                 0.6133967        129.8724        0.4493056        4.208621        0.4428084        3.868355         0.613328        128.7515
4.698                  0.6140179        128.8947        0.4455014        3.333846        0.4387018        3.122319        0.6127939        127.7552
4.6994                 0.6145025        127.9233        0.4415805        2.460141        0.4346359        2.383744        0.6121487        126.7749
4.7008                 0.6148508        126.9582        0.4375455        1.589596        0.4306162        1.651746        0.6114082        125.8103
4.7022                  0.615063        125.9994        0.4334018       0.7243027        0.4266466        0.925315         0.610587         124.861
4.7036                 0.6151398        125.0471        0.4291567      -0.1336874          0.42273       0.2033414        0.6096995        123.9264
4.705                  0.6150816        124.1014          0.42482      -0.9824067        0.4188678       -0.515365        0.6087588        123.0056
4.7064                 0.6148902        123.1624        0.4204031       -1.820009        0.4150599       -1.232066        0.6077772        122.0979
4.7078                  0.614567        122.2304        0.4159194        -2.64484        0.4113051        -1.94797        0.6067652        121.2022
4.7092                 0.6141146        121.3056        0.4113834       -3.455408        0.4076004       -2.664362        0.6057325        120.3175
4.7106                 0.6135363        120.3884        0.4068108       -4.250514        0.4039418       -3.382487        0.6046865        119.4426
4.712                  0.6128359        119.4789         0.402218       -5.029219         0.400324       -4.103458        0.6036336        118.5763
4.7134                 0.6120181        118.5775        0.3976216       -5.790894        0.3967408       -4.828327        0.6025782        117.7174
4.7148                 0.6110883        117.6845        0.3930384       -6.535251        0.3931848       -5.558017        0.6015227        116.8646
4.7162                 0.6100526           116.8        0.3884844       -7.262347         0.389648       -6.293296        0.6004684        116.0167
4.7176                 0.6089176        115.9242         0.383975       -7.972605        0.3861221       -7.034763        0.5994143        115.1724
4.719                  0.6076907        115.0572        0.3795244       -8.666808        0.3825982       -7.782821        0.5983583        114.3306
4.7204                 0.6063794        114.1991        0.3751453       -9.346081        0.3790674       -8.537676        0.5972965        113.4901
4.7218                 0.6049919        113.3498        0.3708483       -10.01189        0.3755209       -9.299322        0.5962237          112.65
4.7232                 0.6035362        112.5092        0.3666422       -10.66599        0.3719504       -10.06753        0.5951334        111.8092
4.7246                 0.6020204        111.6771        0.3625334       -11.31039        0.3683478       -10.84187        0.5940184         110.967
4.726                  0.6004523        110.8532        0.3585258       -11.94733        0.3647061       -11.62167        0.5928703        110.1227
4.7274                 0.5988398        110.0371        0.3546208       -12.57916        0.3610191        -12.4061        0.5916803        109.2757
4.7288                 0.5971896        109.2282        0.3508174       -13.20833        0.3572814       -13.19408         0.590439        108.4257
4.7302                 0.5955084         108.426        0.3471121       -13.83733        0.3534893       -13.98442        0.5891371        107.5724
4.7316                 0.5938015        107.6299         0.343499       -14.46855        0.3496402       -14.77571        0.5877652        106.7156
4.733                  0.5920737         106.839        0.3399702       -15.10428        0.3457327       -15.56646         0.586314        105.8555
4.7344                 0.5903282        106.0526        0.3365158       -15.74663        0.3417672       -16.35503         0.584775         104.992
4.7358                 0.5885678        105.2698        0.3331247       -16.39744        0.3377454       -17.13973        0.5831401        104.1257
4.7372                 0.5867933        104.4899        0.3297842       -17.05825        0.3336707       -17.91879        0.5814018        103.2568
4.7386                 0.5850047        103.7119        0.3264811       -17.73028        0.3295478       -18.69046        0.5795541        102.3859
4.74                   0.5832008         102.935        0.3232016       -18.41437        0.3253829       -19.45298        0.5775918        101.5137
4.7414                 0.5813788        102.1583         0.319932       -19.11094        0.3211835       -20.20467        0.5755109        100.6408
4.7428                 0.5795354        101.3811        0.3166588       -19.82003        0.3169584       -20.94391         0.573309        99.76791
4.7442                 0.5776657        100.6027        0.3133696       -20.54128        0.3127173       -21.66923        0.5709846        98.89595
4.7456                 0.5757642        99.82241        0.3100526       -21.27392         0.308471       -22.37936         0.568538        98.02576
4.747                  0.5738246        99.03975        0.3066977       -22.01683        0.3042309        -23.0732        0.5659706        97.15819
4.7484                   0.57184        98.25419        0.3032963       -22.76851        0.3000089       -23.74992        0.5632855        96.29405
4.7498                 0.5698032        97.46558        0.2998418       -23.52721        0.2958172       -24.40899         0.560487        95.43419
4.7512                 0.5677068         96.6736        0.2963296       -24.29087        0.2916681       -25.05017        0.5575803         94.5794
4.7526                 0.5655432        95.87828         0.292757       -25.05724        0.2875734        -25.6736        0.5545724         93.7304
4.754                  0.5633054         95.0796         0.289124        -25.8239        0.2835448       -26.27977         0.551471        92.88786
4.7554                 0.5609865        94.27783        0.2854324       -26.58833        0.2795928       -26.86957        0.5482846        92.05229
4.7568                 0.5585806        93.47324        0.2816864       -27.34798        0.2757272       -27.44427        0.5450227         91.2241
4.7582                 0.5560822        92.66625        0.2778922       -28.10031        0.2719565       -28.00554         0.541695        90.40373
4.7596                 0.5534872        91.85736         0.274058        -28.8429        0.2682875       -28.55541         0.538312        89.59124
4.761                   0.550792        91.04717        0.2701937       -29.57346        0.2647257       -29.09626        0.5348839        88.78669
4.7624                 0.5479946        90.23631        0.2663106       -30.28996        0.2612745       -29.63078        0.5314211        87.99001
4.7638                 0.5450943         89.4255        0.2624215       -30.99066        0.2579355       -30.16193         0.527934        87.20088
4.7652                 0.5420913        88.61547        0.2585398        -31.6742        0.2547083       -30.69285        0.5244317         86.4189
4.7666                 0.5389877        87.80693        0.2546796       -32.33964        0.2515905       -31.22681        0.5209233        85.64349
4.768                  0.5357863        87.00064        0.2508552       -32.98653        0.2485775       -31.76716        0.5174171        84.87389
4.7694                 0.5324914         86.1972        0.2470806       -33.61496        0.2456633       -32.31722        0.5139198        84.10926
4.7708                 0.5291083        85.39728        0.2433692        -34.2256        0.2428398       -32.88021        0.5104372        83.34855
4.7722                 0.5256432        84.60143        0.2397335        -34.8197        0.2400972       -33.45921        0.5069737        82.59066
4.7736                 0.5221034        83.81005        0.2361845       -35.39913        0.2374248       -34.05702        0.5035323         81.8344
4.775                  0.5184967        83.02348        0.2327315        -35.9663        0.2348103       -34.67617        0.5001144        81.07847
4.7764                 0.5148313        82.24188         0.229382       -36.52421        0.2322411       -35.31884        0.4967199        80.32156
4.7778                 0.5111156        81.46532         0.226141       -37.07632        0.2297036       -35.98679         0.493347        79.56229
