!Agilent Technologies,N5224A,MY51441177,A.09.90.21
!Agilent N5224A: A.09.90.21
!Date: Wednesday, January 01, 2025 04:27:01
!Correction: S11(Full 2 Port(1,2)) 
!S21(Full 2 Port(1,2)) 
!S12(Full 2 Port(1,2)) 
!S22(Full 2 Port(1,2)) 
!S2P File: Measurements: S11, S21, S12, S22:
# Hz S  dB   R 50
4700000000 -4.3915181 120.54649 -9.4666824 -10.53645 -9.4552069 -10.56028 -4.285212 118.92062
4701000000 -4.4025569 119.98717 -9.5678473 -10.968509 -9.5598326 -10.991712 -4.2831492 118.3737
4702000000 -4.4124446 119.43341 -9.6697311 -11.393177 -9.6635151 -11.425208 -4.2799006 117.82346
4703000000 -4.421618 118.89633 -9.7696829 -11.796311 -9.7654667 -11.832927 -4.275878 117.26639
4704000000 -4.4311538 118.35778 -9.8707724 -12.198127 -9.8670263 -12.23064 -4.2719436 116.70274
4705000000 -4.440403 117.82767 -9.9715118 -12.583497 -9.96597 -12.60523 -4.268383 116.13499
4706000000 -4.4489956 117.30965 -10.068993 -12.949509 -10.064263 -12.965056 -4.2652726 115.56174
4707000000 -4.4569101 116.78949 -10.164173 -13.311751 -10.160462 -13.313457 -4.2643476 114.98681
4708000000 -4.4625478 116.27426 -10.25783 -13.662008 -10.253814 -13.660383 -4.2640767 114.40857
4709000000 -4.4682159 115.76643 -10.349849 -13.996796 -10.346549 -13.992061 -4.2640314 113.83332
4710000000 -4.4731045 115.25119 -10.441045 -14.309583 -10.437564 -14.311259 -4.2632966 113.24342
4711000000 -4.4768372 114.73164 -10.528614 -14.623403 -10.525901 -14.629138 -4.2659726 112.64719
4712000000 -4.4810472 114.20229 -10.613098 -14.934634 -10.609748 -14.93797 -4.268424 112.04701
4713000000 -4.4865026 113.66766 -10.695209 -15.243357 -10.690625 -15.250317 -4.2731404 111.43905
4714000000 -4.4907069 113.13171 -10.773124 -15.559198 -10.767188 -15.564551 -4.280365 110.84113
4715000000 -4.4955525 112.59375 -10.85043 -15.877579 -10.844014 -15.882674 -4.2879462 110.23725
4716000000 -4.49997 112.05351 -10.922483 -16.185312 -10.918732 -16.196043 -4.2997046 109.63296
4717000000 -4.5068164 111.50674 -10.993189 -16.511295 -10.988705 -16.517271 -4.3112707 109.02665
4718000000 -4.5129819 110.9589 -11.058949 -16.845173 -11.055498 -16.844151 -4.3257165 108.41279
4719000000 -4.5210128 110.40267 -11.122091 -17.188646 -11.120133 -17.174606 -4.3450699 107.806
4720000000 -4.5307064 109.83654 -11.183486 -17.54475 -11.179801 -17.523726 -4.3663764 107.20413
4721000000 -4.5427961 109.26989 -11.240408 -17.917721 -11.234385 -17.901154 -4.3886757 106.61485
4722000000 -4.5566196 108.70107 -11.29515 -18.324652 -11.289032 -18.310112 -4.4142189 106.02965
4723000000 -4.5708818 108.13178 -11.344285 -18.762384 -11.33853 -18.754538 -4.4412217 105.45939
4724000000 -4.5896187 107.57652 -11.396751 -19.233957 -11.388854 -19.225645 -4.4726386 104.90311
4725000000 -4.6076131 107.02198 -11.445741 -19.747738 -11.435206 -19.734697 -4.5050483 104.36902
4726000000 -4.6275516 106.47951 -11.494303 -20.295086 -11.486846 -20.280956 -4.541914 103.85471
4727000000 -4.6508646 105.93707 -11.543547 -20.877266 -11.53661 -20.868788 -4.5778623 103.36736
4728000000 -4.6735411 105.40254 -11.593127 -21.505278 -11.58648 -21.501751 -4.6156554 102.90141
4729000000 -4.7004242 104.87412 -11.646948 -22.18405 -11.640616 -22.186872 -4.6516576 102.45762
4730000000 -4.7279987 104.37223 -11.70431 -22.899765 -11.69807 -22.904503 -4.6880131 102.04347
4731000000 -4.755301 103.89038 -11.765245 -23.658175 -11.760506 -23.665903 -4.7223783 101.64398
4732000000 -4.7837181 103.42134 -11.834823 -24.462496 -11.829462 -24.462933 -4.7550521 101.27008
4733000000 -4.8114586 102.97678 -11.910551 -25.287962 -11.903769 -25.289394 -4.7867589 100.91615
4734000000 -4.8373699 102.54792 -11.993827 -26.138618 -11.986251 -26.138824 -4.814867 100.58553
4735000000 -4.8634982 102.12935 -12.083164 -27.007231 -12.077452 -27.004215 -4.8407722 100.25239
4736000000 -4.8879771 101.72453 -12.182955 -27.903986 -12.17652 -27.890646 -4.8631201 99.925354
4737000000 -4.9072242 101.32771 -12.293277 -28.804779 -12.287163 -28.793404 -4.8804712 99.589973
4738000000 -4.9253335 100.92957 -12.41583 -29.687963 -12.410299 -29.676601 -4.8959856 99.248718
4739000000 -4.9395671 100.51983 -12.548987 -30.538097 -12.542639 -30.529253 -4.9086165 98.892204
4740000000 -4.9534078 100.09285 -12.690896 -31.340303 -12.682845 -31.335808 -4.9213481 98.528419
4741000000 -4.9673753 99.656662 -12.839065 -32.091633 -12.830922 -32.093952 -4.9331732 98.154831
4742000000 -4.9800429 99.212074 -12.990737 -32.776276 -12.982544 -32.782539 -4.9451952 97.762314
4743000000 -4.9955921 98.765976 -13.141939 -33.405293 -13.134742 -33.4105 -4.9565611 97.363281
4744000000 -5.0104651 98.313957 -13.292525 -33.985382 -13.285425 -33.983799 -4.9711285 96.957985
4745000000 -5.0273414 97.85762 -13.439865 -34.52475 -13.433996 -34.522797 -4.9863749 96.54657
4746000000 -5.0440927 97.398415 -13.582879 -35.050476 -13.576068 -35.042759 -5.0021009 96.140976
4747000000 -5.0625072 96.934235 -13.721601 -35.564838 -13.714726 -35.55196 -5.0179667 95.737122
4748000000 -5.0814915 96.47551 -13.855578 -36.113945 -13.84942 -36.100777 -5.0330005 95.33255
4749000000 -5.1016698 96.028984 -13.991943 -36.698078 -13.984234 -36.683716 -5.049222 94.928749
4750000000 -5.1196756 95.595009 -14.1342 -37.312572 -14.126245 -37.292717 -5.0632381 94.531242
4751000000 -5.1370068 95.163605 -14.2818 -37.921734 -14.271116 -37.887611 -5.0755644 94.148117
4752000000 -5.1509366 94.7192 -14.432986 -38.529312 -14.422547 -38.49889 -5.0878582 93.740349
4753000000 -5.1672525 94.262306 -14.592558 -39.135368 -14.579864 -39.11417 -5.1009912 93.319168
4754000000 -5.1834688 93.799568 -14.758758 -39.738319 -14.745674 -39.72086 -5.1133933 92.891991
4755000000 -5.2002463 93.320335 -14.930325 -40.316654 -14.916729 -40.300972 -5.1254668 92.456535
4756000000 -5.2171812 92.83564 -15.110313 -40.865509 -15.095309 -40.851254 -5.1384559 92.013329
4757000000 -5.2342296 92.344765 -15.292875 -41.382309 -15.278193 -41.370892 -5.1513247 91.561508
4758000000 -5.2538443 91.858505 -15.486909 -41.855671 -15.469282 -41.85096 -5.1647058 91.098892
4759000000 -5.2717376 91.361008 -15.681313 -42.267414 -15.66467 -42.272945 -5.1786952 90.642014
4760000000 -5.2923903 90.86422 -15.884623 -42.632439 -15.869721 -42.644917 -5.1940346 90.171608
4761000000 -5.3135395 90.347221 -16.091772 -42.908207 -16.078876 -42.920383 -5.2109523 89.69352
4762000000 -5.3382592 89.818275 -16.299807 -43.09903 -16.287386 -43.113029 -5.2284641 89.207603
4763000000 -5.3657455 89.286835 -16.504656 -43.210857 -16.492125 -43.225414 -5.2466278 88.711479
4764000000 -5.398488 88.761246 -16.705822 -43.221081 -16.692158 -43.242359 -5.2673807 88.221207
4765000000 -5.4323754 88.245575 -16.90159 -43.197025 -16.886518 -43.233047 -5.287775 87.717056
4766000000 -5.467607 87.738533 -17.09042 -43.105213 -17.07576 -43.14365 -5.3111844 87.203117
4767000000 -5.5055656 87.245064 -17.270552 -42.932964 -17.258657 -42.977242 -5.3367887 86.704414
4768000000 -5.5440884 86.766518 -17.439701 -42.723591 -17.42959 -42.756119 -5.3618112 86.196365
4769000000 -5.5855823 86.314598 -17.598888 -42.471935 -17.590776 -42.485966 -5.390183 85.68502
4770000000 -5.6267924 85.877541 -17.746923 -42.162315 -17.740028 -42.177471 -5.419529 85.188667
4771000000 -5.6679845 85.454338 -17.881107 -41.807129 -17.873987 -41.837109 -5.4492369 84.68306
4772000000 -5.7084579 85.042 -17.995722 -41.465744 -17.989452 -41.489223 -5.4808969 84.167664
4773000000 -5.7479825 84.651512 -18.092112 -41.14616 -18.084269 -41.178047 -5.5149264 83.65078
4774000000 -5.7864971 84.26564 -18.172392 -40.930523 -18.165588 -40.960316 -5.5509243 83.135864
4775000000 -5.8216619 83.892349 -18.251181 -40.776653 -18.243359 -40.791618 -5.5907121 82.617439
4776000000 -5.8537841 83.521133 -18.316833 -40.67215 -18.308245 -40.679474 -5.6327224 82.123566
4777000000 -5.8867269 83.154671 -18.379564 -40.624912 -18.369825 -40.619625 -5.6783271 81.646988
4778000000 -5.9164019 82.785713 -18.435762 -40.64595 -18.424805 -40.648979 -5.7247376 81.187485
4779000000 -5.9441466 82.417595 -18.484457 -40.738331 -18.476244 -40.752113 -5.7705302 80.76059
4780000000 -5.9715114 82.023201 -18.538395 -40.896946 -18.533489 -40.932541 -5.81427 80.339996
4781000000 -5.9979625 81.622131 -18.58742 -41.113529 -18.586412 -41.129745 -5.8588352 79.935257
4782000000 -6.0254941 81.213997 -18.643894 -41.357838 -18.639875 -41.394188 -5.9014544 79.534904
4783000000 -6.0527673 80.801262 -18.692652 -41.656685 -18.68774 -41.676319 -5.9413252 79.159378
4784000000 -6.0801663 80.387123 -18.735655 -41.974602 -18.730572 -42.000366 -5.9795508 78.766754
4785000000 -6.1036239 79.968224 -18.768005 -42.375996 -18.76256 -42.394424 -6.01545 78.375717
4786000000 -6.1289186 79.540291 -18.796143 -42.880791 -18.793783 -42.882675 -6.0501342 77.970215
4787000000 -6.1551833 79.09819 -18.826849 -43.496468 -18.827824 -43.459908 -6.0878682 77.55584
4788000000 -6.1820354 78.641731 -18.858265 -44.172501 -18.857643 -44.119583 -6.1250248 77.146576
4789000000 -6.2105284 78.175949 -18.892853 -44.941555 -18.890099 -44.884007 -6.1621346 76.731239
4790000000 -6.2411284 77.704414 -18.927109 -45.812592 -18.923971 -45.762089 -6.2008786 76.320168
4791000000 -6.2735548 77.227882 -18.966576 -46.756329 -18.9608 -46.727753 -6.2383285 75.908493
4792000000 -6.3081799 76.760902 -19.008915 -47.812847 -19.001665 -47.797924 -6.2741666 75.492096
4793000000 -6.3414831 76.299538 -19.05405 -48.960228 -19.043879 -48.952316 -6.3143654 75.088234
4794000000 -6.3751669 75.837166 -19.100328 -50.254272 -19.089685 -50.240105 -6.3504639 74.692093
4795000000 -6.4086652 75.386429 -19.154833 -51.672337 -19.142401 -51.630669 -6.3874326 74.299324
4796000000 -6.4431224 74.928856 -19.219542 -53.21376 -19.208754 -53.177422 -6.4216933 73.889465
4797000000 -6.4782753 74.474297 -19.297031 -54.857849 -19.286173 -54.828323 -6.4582438 73.476479
4798000000 -6.5124407 74.025826 -19.389418 -56.637852 -19.376057 -56.630444 -6.4918966 73.066223
4799000000 -6.5440264 73.568352 -19.498459 -58.546791 -19.488249 -58.562519 -6.5229154 72.641228
4800000000 -6.575336 73.100021 -19.630604 -60.542366 -19.619598 -60.572811 -6.5527501 72.195915
4801000000 -6.603622 72.621796 -19.778399 -62.614952 -19.764351 -62.658203 -6.5838728 71.725578
4802000000 -6.6313496 72.112938 -19.945463 -64.788658 -19.928812 -64.841347 -6.6154833 71.242294
4803000000 -6.6604643 71.58345 -20.127686 -67.046921 -20.111568 -67.115204 -6.6534195 70.752426
4804000000 -6.6917233 71.026924 -20.331192 -69.417549 -20.317923 -69.506401 -6.6905327 70.257233
4805000000 -6.7269688 70.467598 -20.556639 -71.846367 -20.549725 -71.926826 -6.7293758 69.751457
4806000000 -6.7626047 69.895485 -20.801817 -74.331833 -20.799257 -74.424576 -6.7707319 69.233658
4807000000 -6.8011427 69.306107 -21.069258 -76.884354 -21.067383 -76.990372 -6.8130484 68.707039
4808000000 -6.8413105 68.69635 -21.351524 -79.548012 -21.355583 -79.648277 -6.857717 68.170059
4809000000 -6.8861971 68.074577 -21.661474 -82.253098 -21.664774 -82.34021 -6.9066048 67.640518
4810000000 -6.9334521 67.43647 -21.97566 -85.077087 -21.979294 -85.143166 -6.9567556 67.106667
4811000000 -6.9863915 66.802971 -22.309134 -88.032028 -22.315168 -88.072243 -7.0092826 66.581718
4812000000 -7.0403571 66.175865 -22.66077 -91.111076 -22.665094 -91.15448 -7.0624928 66.069153
4813000000 -7.0978589 65.550743 -23.028992 -94.405914 -23.034782 -94.446228 -7.1188803 65.549057
4814000000 -7.1573296 64.916817 -23.423162 -97.868103 -23.431219 -97.949669 -7.1763949 65.033966
4815000000 -7.2220726 64.285004 -23.849648 -101.60349 -23.863859 -101.69856 -7.234828 64.502739
4816000000 -7.2892485 63.633656 -24.311197 -105.52172 -24.334597 -105.60478 -7.2973905 63.977638
4817000000 -7.362185 62.984516 -24.804342 -109.65717 -24.828619 -109.66593 -7.3626142 63.466385
4818000000 -7.4393973 62.34758 -25.332199 -114.0024 -25.345057 -113.94514 -7.4264445 62.96043
4819000000 -7.520257 61.732185 -25.886889 -118.54543 -25.89098 -118.43896 -7.4934897 62.461868
4820000000 -7.6035452 61.133717 -26.479801 -123.33971 -26.474611 -123.25505 -7.5623264 61.970654
4821000000 -7.6881628 60.545818 -27.089571 -128.17534 -27.087217 -128.14188 -7.6307755 61.506836
4822000000 -7.7775517 59.965981 -27.703428 -133.33331 -27.702774 -133.34657 -7.6968179 61.03281
4823000000 -7.8693485 59.404377 -28.330835 -138.74818 -28.332113 -138.82448 -7.7660518 60.554287
4824000000 -7.9648566 58.868015 -28.961586 -144.42157 -28.957743 -144.50531 -7.8346686 60.081226
4825000000 -8.0590887 58.329243 -29.563667 -150.29248 -29.55341 -150.33852 -7.9020996 59.587521
4826000000 -8.1589031 57.798515 -30.11659 -156.41615 -30.091835 -156.43268 -7.9718881 59.080994
4827000000 -8.2609882 57.297146 -30.598431 -162.82846 -30.564758 -162.82922 -8.0433989 58.556259
4828000000 -8.3627319 56.822872 -31.019648 -169.42587 -30.980608 -169.41017 -8.119853 58.041191
4829000000 -8.4666681 56.377869 -31.350735 -176.02016 -31.309578 -176.08076 -8.1977034 57.519196
4830000000 -8.5694847 55.958588 -31.572163 177.35687 -31.531702 177.13553 -8.28127 56.984837
4831000000 -8.6743097 55.562565 -31.707434 170.63457 -31.670694 170.27167 -8.3683386 56.492535
4832000000 -8.7787619 55.180931 -31.784027 163.90207 -31.740719 163.5247 -8.4550676 56.003891
4833000000 -8.8821211 54.842976 -31.822378 157.54355 -31.767683 157.24001 -8.5422678 55.498119
4834000000 -8.9790049 54.506535 -31.786957 151.90874 -31.715467 151.63191 -8.6335325 54.981464
4835000000 -9.075388 54.173939 -31.702404 146.703 -31.625654 146.37471 -8.7258959 54.487095
4836000000 -9.1661186 53.840912 -31.597467 142.24969 -31.541956 141.84666 -8.8232727 53.998672
4837000000 -9.2540874 53.50243 -31.446482 138.54926 -31.413374 138.02385 -8.9204445 53.511795
4838000000 -9.3398628 53.158695 -31.273081 135.26894 -31.27264 134.71576 -9.0219307 53.058273
4839000000 -9.4232798 52.802368 -31.10079 132.64214 -31.113359 132.13622 -9.1238031 52.59338
4840000000 -9.5063791 52.427357 -30.908232 130.70802 -30.91979 130.24983 -9.2262087 52.15596
4841000000 -9.5870504 52.027145 -30.647844 129.31781 -30.649729 128.94528 -9.3298998 51.693771
4842000000 -9.6685038 51.598484 -30.347216 128.1971 -30.330202 127.92056 -9.4355469 51.241539
4843000000 -9.7475691 51.122051 -29.996534 127.3543 -29.977915 127.09451 -9.5418243 50.789261
4844000000 -9.828331 50.595501 -29.621975 126.82047 -29.61216 126.62398 -9.6455317 50.349667
4845000000 -9.9140978 50.04557 -29.211479 126.45181 -29.217777 126.32293 -9.7443552 49.880756
4846000000 -10.002968 49.458275 -28.771879 126.16597 -28.788443 126.03912 -9.8511925 49.361988
4847000000 -10.095539 48.85548 -28.304674 125.94872 -28.319901 125.88522 -9.9629688 48.823826
4848000000 -10.192823 48.204784 -27.802912 125.6092 -27.809256 125.54992 -10.078123 48.275517
4849000000 -10.296858 47.527023 -27.293808 125.08334 -27.288721 124.9518 -10.202699 47.689438
4850000000 -10.408141 46.807209 -26.801249 124.3175 -26.788952 124.17544 -10.335327 47.118858
4851000000 -10.529312 46.059864 -26.332613 123.51255 -26.317621 123.38061 -10.474697 46.543983
4852000000 -10.660273 45.291 -25.874729 122.80907 -25.856678 122.71281 -10.617377 46.008415
4853000000 -10.798476 44.513294 -25.410238 122.16827 -25.391371 122.1172 -10.758623 45.438072
4854000000 -10.946257 43.723228 -24.934694 121.47572 -24.916002 121.43057 -10.908548 44.840942
4855000000 -11.103222 42.922726 -24.469389 120.7876 -24.45558 120.677 -11.06577 44.245174
4856000000 -11.267987 42.095619 -23.995882 119.98591 -23.989605 119.80571 -11.234703 43.620392
4857000000 -11.44394 41.261848 -23.541641 119.10029 -23.546698 118.89349 -11.411035 43.029217
4858000000 -11.638772 40.417831 -23.097492 118.14611 -23.10899 117.94804 -11.597275 42.393856
4859000000 -11.845122 39.592518 -22.661112 117.15441 -22.67568 117.0476 -11.795438 41.774372
4860000000 -12.066137 38.771923 -22.226786 116.15756 -22.236076 116.08994 -12.00469 41.150703
4861000000 -12.29994 37.954533 -21.789097 115.15606 -21.7918 115.13329 -12.220843 40.508686
4862000000 -12.546526 37.155811 -21.348568 114.08889 -21.348179 114.07135 -12.453602 39.872101
4863000000 -12.809805 36.341518 -20.904484 112.91291 -20.904289 112.88606 -12.702474 39.207287
4864000000 -13.09284 35.539288 -20.46512 111.62019 -20.470478 111.59867 -12.97699 38.5783
4865000000 -13.396635 34.776752 -20.036346 110.23085 -20.041094 110.19364 -13.272946 37.976997
4866000000 -13.723755 34.061546 -19.609713 108.70113 -19.620277 108.66022 -13.595608 37.488163
4867000000 -14.073877 33.4077 -19.203003 107.04488 -19.212042 106.99212 -13.939337 37.071693
4868000000 -14.449033 32.814308 -18.804876 105.3035 -18.81185 105.25266 -14.300352 36.763763
4869000000 -14.851617 32.289925 -18.422825 103.43846 -18.430861 103.38698 -14.683766 36.530815
4870000000 -15.283944 31.8757 -18.048941 101.51113 -18.059406 101.47747 -15.094365 36.450706
4871000000 -15.743813 31.588297 -17.690929 99.446701 -17.704781 99.445129 -15.530429 36.5238
4872000000 -16.237553 31.43626 -17.353064 97.269341 -17.366768 97.304298 -15.980899 36.808308
4873000000 -16.772936 31.461403 -17.039326 95.025887 -17.050121 95.080093 -16.456396 37.285587
4874000000 -17.348558 31.728251 -16.747759 92.744148 -16.75635 92.805588 -16.956362 37.977695
4875000000 -17.964439 32.31432 -16.473974 90.402626 -16.480717 90.459175 -17.475433 38.977295
4876000000 -18.625332 33.263237 -16.222149 87.993156 -16.230242 88.074776 -18.014172 40.186138
4877000000 -19.334703 34.663616 -15.996764 85.570847 -15.99824 85.653427 -18.587175 41.690178
4878000000 -20.084929 36.685585 -15.789909 83.164864 -15.788407 83.253014 -19.18906 43.646996
4879000000 -20.867128 39.479038 -15.598641 80.737343 -15.598228 80.827042 -19.82276 46.131557
4880000000 -21.658098 43.178982 -15.428071 78.302773 -15.425562 78.386444 -20.466478 49.334023
4881000000 -22.438345 47.990334 -15.280456 75.880737 -15.277566 75.965355 -21.116116 53.381359
4882000000 -23.148531 54.035408 -15.150008 73.493599 -15.146025 73.568222 -21.716143 58.471535
4883000000 -23.726685 61.364285 -15.034961 71.133759 -15.02936 71.211037 -22.232018 64.583099
4884000000 -24.086727 69.706314 -14.931752 68.789238 -14.925244 68.864937 -22.606697 71.70134
4885000000 -24.183136 78.564346 -14.84033 66.44796 -14.833299 66.533897 -22.769539 79.581482
4886000000 -23.998079 87.235649 -14.766793 64.126038 -14.758351 64.217072 -22.673269 87.676384
4887000000 -23.566696 95.232948 -14.706627 61.830338 -14.697139 61.927147 -22.315544 95.310143
4888000000 -22.942686 102.10635 -14.661111 59.567165 -14.650627 59.673805 -21.743734 101.97799
4889000000 -22.21307 107.64925 -14.629036 57.328037 -14.615184 57.442936 -21.043419 107.39503
4890000000 -21.442938 112.0025 -14.609883 55.124874 -14.59314 55.221992 -20.2873 111.48499
4891000000 -20.673357 115.38314 -14.604105 52.973 -14.583894 53.037235 -19.535093 114.61906
4892000000 -19.913517 117.94257 -14.607443 50.832275 -14.586084 50.872795 -18.80217 116.81431
4893000000 -19.186062 119.75115 -14.62568 48.725594 -14.602251 48.736336 -18.115978 118.3875
4894000000 -18.500402 120.97968 -14.65523 46.674217 -14.630607 46.661301 -17.469494 119.42043
4895000000 -17.860729 121.77547 -14.69135 44.677212 -14.669002 44.646557 -16.874159 120.04237
4896000000 -17.264977 122.18655 -14.734679 42.709213 -14.716023 42.673645 -16.321396 120.3482
4897000000 -16.71579 122.33301 -14.785524 40.775383 -14.769729 40.733669 -15.803655 120.43326
4898000000 -16.207039 122.28831 -14.847579 38.86956 -14.833349 38.816765 -15.322785 120.30499
4899000000 -15.732285 122.07433 -14.914208 36.979733 -14.902858 36.919151 -14.871517 120.01318
4900000000 -15.285598 121.72879 -14.995318 35.103722 -14.985264 35.035 -14.449201 119.58461
4901000000 -14.865325 121.26479 -15.088328 33.260784 -15.079984 33.201473 -14.056095 119.03763
4902000000 -14.469159 120.67846 -15.188631 31.459169 -15.181618 31.416855 -13.688635 118.42436
4903000000 -14.098394 120.00162 -15.298029 29.682524 -15.289556 29.659121 -13.340012 117.7242
4904000000 -13.751689 119.22834 -15.419437 27.926189 -15.408495 27.910295 -13.011031 116.93308
4905000000 -13.426728 118.37775 -15.554139 26.232122 -15.543645 26.215519 -12.703933 116.02307
