!Agilent Technologies,N5224A,MY51441177,A.09.90.21
!Agilent N5224A: A.09.90.21
!Date: Wednesday, January 01, 2025 04:57:01
!Correction: S11(Full 2 Port(1,2)) 
!S21(Full 2 Port(1,2)) 
!S12(Full 2 Port(1,2)) 
!S22(Full 2 Port(1,2)) 
!S2P File: Measurements: S11, S21, S12, S22:
# Hz S  dB   R 50
4700000000 -4.3324299 117.32494 -10.021939 -12.574492 -10.012392 -12.623669 -4.4491639 115.94505
4701000000 -4.3376427 116.88174 -10.12795 -13.099937 -10.122169 -13.145845 -4.4605927 115.52519
4702000000 -4.3402252 116.43729 -10.236409 -13.610495 -10.232064 -13.665549 -4.4684691 115.11529
4703000000 -4.3394389 115.99139 -10.345162 -14.108796 -10.342899 -14.162785 -4.4752879 114.72191
4704000000 -4.3365159 115.53471 -10.457273 -14.596326 -10.456597 -14.639506 -4.4764156 114.3167
4705000000 -4.3348017 115.07299 -10.569994 -15.052654 -10.569279 -15.092181 -4.4750628 113.90266
4706000000 -4.3297925 114.60048 -10.681687 -15.502064 -10.681919 -15.531854 -4.471632 113.47717
4707000000 -4.323504 114.11182 -10.793763 -15.939012 -10.795109 -15.963568 -4.4665213 113.0347
4708000000 -4.3187146 113.60995 -10.907568 -16.356398 -10.910577 -16.368706 -4.460741 112.58225
4709000000 -4.3115544 113.10103 -11.020397 -16.738638 -11.024755 -16.73818 -4.4530344 112.12497
4710000000 -4.3064542 112.57433 -11.131713 -17.092064 -11.136244 -17.081038 -4.444725 111.63941
4711000000 -4.3007827 112.04006 -11.241301 -17.420229 -11.246393 -17.406698 -4.4391236 111.14361
4712000000 -4.2970915 111.49104 -11.347682 -17.753292 -11.350545 -17.721657 -4.4335675 110.63126
4713000000 -4.2960172 110.92904 -11.452518 -18.06179 -11.45394 -18.026363 -4.4275403 110.10893
4714000000 -4.2931666 110.35555 -11.55358 -18.364607 -11.554278 -18.319672 -4.4229159 109.57542
4715000000 -4.2950025 109.77776 -11.654501 -18.65259 -11.654618 -18.604765 -4.4204879 109.03104
4716000000 -4.2971406 109.19939 -11.750555 -18.923597 -11.75025 -18.864149 -4.4186864 108.47872
4717000000 -4.3017006 108.60559 -11.842471 -19.184488 -11.841528 -19.120781 -4.4192357 107.91804
4718000000 -4.3080282 108.0064 -11.928144 -19.457684 -11.924293 -19.378036 -4.4200153 107.34353
4719000000 -4.3184648 107.40997 -12.010143 -19.738615 -12.005289 -19.64922 -4.424767 106.77296
4720000000 -4.3312306 106.81985 -12.086739 -20.025831 -12.080359 -19.94042 -4.4314542 106.18929
4721000000 -4.3452911 106.22872 -12.16218 -20.327564 -12.14952 -20.238394 -4.4377427 105.60996
4722000000 -4.361762 105.63379 -12.232687 -20.643412 -12.218624 -20.565969 -4.4480877 105.02081
4723000000 -4.3806348 105.0463 -12.298772 -20.989473 -12.283551 -20.924625 -4.4636574 104.43874
4724000000 -4.4015131 104.46696 -12.361408 -21.367952 -12.343987 -21.312435 -4.4799027 103.86416
4725000000 -4.4234838 103.90034 -12.422794 -21.807924 -12.40245 -21.758972 -4.4981318 103.30397
4726000000 -4.4477677 103.34752 -12.485006 -22.284523 -12.464728 -22.249737 -4.5175729 102.7541
4727000000 -4.4724822 102.80117 -12.54899 -22.78277 -12.528267 -22.771059 -4.5381036 102.21455
4728000000 -4.4975567 102.26003 -12.611314 -23.320576 -12.59145 -23.320929 -4.557929 101.69079
4729000000 -4.5250478 101.72303 -12.676642 -23.908245 -12.655683 -23.930487 -4.5789595 101.17274
4730000000 -4.553236 101.20099 -12.746278 -24.51334 -12.725425 -24.54759 -4.6006284 100.65759
4731000000 -4.5821252 100.68355 -12.816245 -25.161705 -12.79757 -25.205954 -4.6206284 100.14946
4732000000 -4.612195 100.17158 -12.893164 -25.849583 -12.876218 -25.895107 -4.6423931 99.640404
4733000000 -4.6429749 99.671791 -12.975986 -26.571697 -12.958659 -26.62706 -4.6635122 99.13826
4734000000 -4.6721907 99.181183 -13.064815 -27.320379 -13.047741 -27.375492 -4.6832385 98.639786
4735000000 -4.7029495 98.691971 -13.160527 -28.090082 -13.144567 -28.154278 -4.7017646 98.137054
4736000000 -4.7328568 98.209793 -13.265203 -28.86791 -13.250719 -28.932573 -4.7202535 97.621307
4737000000 -4.7642584 97.730362 -13.375574 -29.624849 -13.362864 -29.701096 -4.7411251 97.097015
4738000000 -4.7983098 97.250954 -13.492526 -30.375282 -13.483284 -30.452255 -4.7644329 96.561989
4739000000 -4.8345408 96.781197 -13.616139 -31.112881 -13.607375 -31.203985 -4.7888713 96.02951
4740000000 -4.8722291 96.316399 -13.746662 -31.856531 -13.738787 -31.932142 -4.8143063 95.488068
4741000000 -4.9104185 95.862946 -13.886938 -32.576767 -13.878607 -32.649769 -4.8444495 94.948288
4742000000 -4.9498816 95.424591 -14.031945 -33.262299 -14.023015 -33.321907 -4.8776879 94.403229
4743000000 -4.9903007 95.008972 -14.178891 -33.892097 -14.170545 -33.960331 -4.9124899 93.865623
4744000000 -5.0314283 94.616417 -14.326403 -34.492897 -14.319351 -34.56192 -4.9549146 93.358658
4745000000 -5.0720377 94.252075 -14.472654 -35.06065 -14.466557 -35.132915 -4.9969702 92.877831
4746000000 -5.1110587 93.904854 -14.617903 -35.624825 -14.609777 -35.698124 -5.0402427 92.42775
4747000000 -5.1481619 93.57341 -14.765881 -36.182743 -14.757112 -36.254253 -5.0826502 91.997025
4748000000 -5.1828718 93.250572 -14.913957 -36.707783 -14.906498 -36.790569 -5.1258726 91.587982
4749000000 -5.2162137 92.93441 -15.064679 -37.2383 -15.056094 -37.325768 -5.1688261 91.189072
4750000000 -5.2459764 92.626129 -15.21155 -37.752552 -15.206604 -37.848217 -5.2106099 90.80098
4751000000 -5.2741618 92.326317 -15.360225 -38.278923 -15.356902 -38.361393 -5.2517915 90.449142
4752000000 -5.2994022 92.024841 -15.508473 -38.806858 -15.505337 -38.893101 -5.2910628 90.119339
4753000000 -5.3225102 91.721413 -15.656487 -39.353329 -15.654124 -39.438007 -5.3257856 89.795341
4754000000 -5.3445964 91.414337 -15.808007 -39.930244 -15.804205 -40.018944 -5.3579745 89.470863
4755000000 -5.36446 91.105705 -15.96571 -40.524269 -15.962322 -40.619728 -5.3905435 89.150261
4756000000 -5.3817692 90.790451 -16.130875 -41.118015 -16.128746 -41.208591 -5.4225993 88.839111
4757000000 -5.3989925 90.474304 -16.304321 -41.703632 -16.30279 -41.801144 -5.4521823 88.543205
4758000000 -5.4144549 90.152832 -16.490742 -42.249287 -16.489832 -42.345486 -5.4807234 88.24028
4759000000 -5.4273252 89.815582 -16.680182 -42.744194 -16.681189 -42.846394 -5.5069871 87.946678
4760000000 -5.4393067 89.470764 -16.872547 -43.198803 -16.875677 -43.29361 -5.5284257 87.649872
4761000000 -5.4493341 89.108253 -17.063187 -43.621304 -17.067282 -43.706089 -5.5494123 87.342705
4762000000 -5.4600067 88.732086 -17.255507 -43.99884 -17.259611 -44.092022 -5.5697856 87.030663
4763000000 -5.471427 88.34803 -17.449177 -44.371342 -17.454702 -44.457153 -5.5883765 86.729607
4764000000 -5.4821663 87.954002 -17.642567 -44.680588 -17.652205 -44.763271 -5.6081104 86.441994
4765000000 -5.4926023 87.550865 -17.837416 -44.980125 -17.847868 -45.048244 -5.6245255 86.156837
4766000000 -5.5040145 87.137741 -18.032085 -45.286167 -18.043629 -45.345608 -5.6379337 85.872131
4767000000 -5.5150232 86.714096 -18.234337 -45.554943 -18.245825 -45.598579 -5.6472092 85.568314
4768000000 -5.524621 86.270531 -18.439184 -45.831284 -18.451679 -45.858597 -5.6534629 85.24855
4769000000 -5.535862 85.816444 -18.654043 -46.059963 -18.665979 -46.069122 -5.6572165 84.908615
4770000000 -5.54738 85.351715 -18.869997 -46.211769 -18.88048 -46.207653 -5.6591334 84.561455
4771000000 -5.5588274 84.878113 -19.086386 -46.281425 -19.097105 -46.266819 -5.6588469 84.194229
4772000000 -5.5709152 84.390106 -19.303043 -46.244007 -19.3109 -46.22916 -5.6559291 83.80513
4773000000 -5.5839915 83.88221 -19.510557 -46.114323 -19.516945 -46.098904 -5.6514649 83.379189
4774000000 -5.599308 83.354103 -19.710129 -45.915188 -19.718084 -45.880108 -5.6481423 82.91861
4775000000 -5.6171794 82.806961 -19.904539 -45.651951 -19.90447 -45.596603 -5.6472607 82.410957
4776000000 -5.6355786 82.239006 -20.081526 -45.325024 -20.081373 -45.276245 -5.648438 81.876984
4777000000 -5.6598058 81.668465 -20.247131 -44.944717 -20.244194 -44.891514 -5.6550283 81.309509
4778000000 -5.6864343 81.077744 -20.388388 -44.562431 -20.383434 -44.527695 -5.6653576 80.721649
4779000000 -5.7186685 80.493965 -20.506147 -44.185543 -20.500546 -44.165939 -5.6801748 80.127739
4780000000 -5.7526741 79.909103 -20.597195 -43.928692 -20.592196 -43.902363 -5.6982608 79.545624
4781000000 -5.791235 79.329597 -20.683901 -43.758236 -20.67848 -43.751469 -5.720417 78.946396
4782000000 -5.8324738 78.757843 -20.763737 -43.632584 -20.756008 -43.653595 -5.7451382 78.333466
4783000000 -5.8766236 78.185577 -20.828176 -43.579205 -20.81884 -43.618561 -5.7752104 77.734833
4784000000 -5.9252286 77.625259 -20.883801 -43.660778 -20.878519 -43.718567 -5.8109822 77.125038
4785000000 -5.973547 77.08728 -20.93676 -43.875782 -20.931736 -43.942741 -5.849484 76.538879
4786000000 -6.0251923 76.556206 -20.987823 -44.203262 -20.985626 -44.280773 -5.8875394 75.95507
4787000000 -6.0760541 76.029373 -21.031927 -44.666679 -21.035337 -44.750019 -5.9285793 75.368942
4788000000 -6.1300035 75.509827 -21.081097 -45.284546 -21.086536 -45.355602 -5.9740815 74.788124
4789000000 -6.1858363 75.001785 -21.134245 -46.005981 -21.144272 -46.084904 -6.0212674 74.220238
4790000000 -6.2462873 74.502274 -21.199858 -46.809532 -21.212786 -46.874725 -6.0713038 73.670174
4791000000 -6.309329 74.036346 -21.262184 -47.615971 -21.277552 -47.675941 -6.1236916 73.124107
4792000000 -6.3742914 73.596283 -21.324598 -48.544258 -21.340343 -48.600002 -6.1785426 72.571823
4793000000 -6.4381614 73.190987 -21.387344 -49.601837 -21.405033 -49.632282 -6.2405143 72.045723
4794000000 -6.4978004 72.810394 -21.444103 -50.798027 -21.464293 -50.791679 -6.3006778 71.563835
4795000000 -6.5552759 72.456024 -21.502569 -52.160248 -21.519453 -52.130878 -6.3644843 71.098244
4796000000 -6.6082959 72.116547 -21.562494 -53.726284 -21.580042 -53.671585 -6.4241424 70.667213
4797000000 -6.6557999 71.781715 -21.630682 -55.519947 -21.646338 -55.435928 -6.4824877 70.259933
4798000000 -6.6999869 71.441277 -21.708637 -57.495045 -21.722368 -57.389771 -6.5386844 69.861748
4799000000 -6.7406011 71.085304 -21.803616 -59.710922 -21.811918 -59.577808 -6.5909734 69.478485
4800000000 -6.7795529 70.710655 -21.917088 -62.110912 -21.918875 -61.985832 -6.6402779 69.106255
4801000000 -6.8130536 70.305855 -22.044579 -64.723465 -22.046774 -64.608963 -6.6864834 68.721283
4802000000 -6.8452682 69.852615 -22.196142 -67.636795 -22.193436 -67.50692 -6.7269139 68.325493
4803000000 -6.8774395 69.351501 -22.372091 -70.850304 -22.36977 -70.721191 -6.7646818 67.891319
4804000000 -6.914278 68.812248 -22.59411 -74.304703 -22.590279 -74.197258 -6.8017478 67.422096
4805000000 -6.9573793 68.25071 -22.85498 -78.001579 -22.846592 -77.875816 -6.8373761 66.910202
4806000000 -7.0045872 67.689186 -23.154144 -81.77623 -23.143456 -81.680153 -6.8793344 66.364799
4807000000 -7.0555725 67.125549 -23.477942 -85.793312 -23.470875 -85.68586 -6.9243255 65.802551
4808000000 -7.111361 66.551208 -23.846684 -89.96476 -23.833467 -89.827812 -6.975482 65.216843
4809000000 -7.1720772 65.977669 -24.245705 -94.334724 -24.225519 -94.200417 -7.0317936 64.600868
4810000000 -7.236445 65.391357 -24.667652 -98.979362 -24.642639 -98.842598 -7.0936537 63.994972
4811000000 -7.3039432 64.797035 -25.12179 -103.93173 -25.09474 -103.77825 -7.1618524 63.35976
4812000000 -7.3766184 64.213097 -25.607716 -109.08868 -25.57168 -108.92478 -7.2391992 62.76004
4813000000 -7.4525123 63.64727 -26.095573 -114.47932 -26.062052 -114.3655 -7.3185606 62.178177
4814000000 -7.5327821 63.099358 -26.580763 -120.0891 -26.539864 -120.01819 -7.4023223 61.62183
4815000000 -7.6154046 62.575188 -27.061531 -126.08314 -27.015129 -126.0289 -7.4904819 61.097935
4816000000 -7.7017975 62.064571 -27.51132 -132.37355 -27.461958 -132.34637 -7.5793581 60.607037
4817000000 -7.7908287 61.584133 -27.932064 -139.10814 -27.8836 -139.08318 -7.6714087 60.153763
4818000000 -7.8804517 61.126377 -28.319519 -146.33763 -28.264521 -146.27808 -7.7633471 59.708694
4819000000 -7.9707432 60.690132 -28.662785 -153.84978 -28.609133 -153.78217 -7.8564215 59.298016
4820000000 -8.0601969 60.27026 -28.919365 -161.56149 -28.863489 -161.47444 -7.9442282 58.907875
4821000000 -8.146656 59.855648 -29.103539 -169.38943 -29.050657 -169.32715 -8.0308752 58.520405
4822000000 -8.2312489 59.442543 -29.204424 -177.13239 -29.150848 -177.05206 -8.1120577 58.130947
4823000000 -8.3165331 59.034389 -29.22472 175.37949 -29.178543 175.46263 -8.1935711 57.728527
4824000000 -8.4031591 58.630241 -29.180704 168.05048 -29.125959 168.19283 -8.2811108 57.325562
4825000000 -8.4908171 58.240124 -29.098881 161.05547 -29.037558 161.25461 -8.3686848 56.93512
4826000000 -8.5783072 57.858124 -28.974932 154.4986 -28.90749 154.72972 -8.4586277 56.555958
4827000000 -8.6652555 57.475983 -28.838343 148.52347 -28.769615 148.73138 -8.5496683 56.196468
4828000000 -8.7503042 57.09119 -28.675846 143.22421 -28.604349 143.39626 -8.6355724 55.859859
4829000000 -8.8340626 56.698009 -28.486137 138.51569 -28.416456 138.64771 -8.7192707 55.511288
4830000000 -8.9159021 56.296177 -28.270668 134.48686 -28.202293 134.55432 -8.7967453 55.144535
4831000000 -8.9983015 55.881927 -28.050043 130.86986 -27.980862 130.90601 -8.8758631 54.751724
4832000000 -9.079525 55.446716 -27.82119 127.68382 -27.747921 127.68987 -8.9528131 54.353729
4833000000 -9.1627035 55.012337 -27.602493 124.78686 -27.531597 124.76071 -9.033885 53.920143
4834000000 -9.246254 54.557678 -27.388592 122.31026 -27.321724 122.21368 -9.118021 53.49958
4835000000 -9.3333492 54.080971 -27.1709 120.11363 -27.118109 120.02003 -9.2016459 53.073444
4836000000 -9.4205561 53.584156 -26.955603 118.2167 -26.909922 118.1042 -9.2872229 52.623291
4837000000 -9.5135403 53.053268 -26.72308 116.65447 -26.687592 116.60134 -9.3722019 52.16951
4838000000 -9.6076946 52.508919 -26.488443 115.2638 -26.453905 115.24434 -9.4589739 51.692722
4839000000 -9.7067814 51.948433 -26.25902 114.0942 -26.220205 114.10635 -9.5444317 51.186028
4840000000 -9.8102551 51.385048 -26.049461 113.19986 -26.003691 113.20518 -9.633913 50.654465
4841000000 -9.9140797 50.818268 -25.833605 112.5761 -25.78163 112.60059 -9.7240801 50.112244
4842000000 -10.019794 50.225319 -25.60136 112.11735 -25.539387 112.1123 -9.8162689 49.537781
4843000000 -10.131403 49.598019 -25.363811 111.75275 -25.296402 111.73396 -9.9154482 48.946423
4844000000 -10.250504 48.949577 -25.115898 111.58386 -25.04233 111.55438 -10.015751 48.352077
4845000000 -10.379004 48.284977 -24.836203 111.49243 -24.76244 111.39745 -10.12168 47.704624
4846000000 -10.513033 47.610256 -24.539843 111.49274 -24.462637 111.32959 -10.233019 47.009319
4847000000 -10.653032 46.91925 -24.222504 111.61166 -24.140987 111.36323 -10.349372 46.29649
4848000000 -10.797892 46.216202 -23.875957 111.82771 -23.794987 111.4586 -10.468462 45.541374
4849000000 -10.948323 45.484566 -23.498449 112.0403 -23.426435 111.56503 -10.595103 44.742496
4850000000 -11.106694 44.724453 -23.095266 112.07394 -23.036858 111.51279 -10.734734 43.895084
4851000000 -11.279813 43.932343 -22.673748 111.97569 -22.627949 111.36733 -10.881684 43.004318
4852000000 -11.468507 43.125534 -22.243696 111.6642 -22.209375 111.05968 -11.047217 42.082905
4853000000 -11.672706 42.337765 -21.801291 111.14344 -21.782839 110.51878 -11.229486 41.124386
4854000000 -11.890922 41.567612 -21.361895 110.40936 -21.357458 109.79482 -11.429234 40.152554
4855000000 -12.122254 40.806572 -20.93479 109.52437 -20.944061 108.91762 -11.651085 39.223156
4856000000 -12.365581 40.041943 -20.510653 108.54568 -20.533947 107.98306 -11.879619 38.271069
4857000000 -12.621165 39.29047 -20.099297 107.44471 -20.13205 106.94478 -12.129586 37.320446
4858000000 -12.895684 38.557339 -19.694389 106.24626 -19.733915 105.79258 -12.397736 36.352657
4859000000 -13.184498 37.85849 -19.312069 104.8883 -19.353174 104.50446 -12.696862 35.409409
4860000000 -13.489278 37.15818 -18.950945 103.45504 -18.995064 103.11927 -13.023078 34.544884
4861000000 -13.820066 36.450722 -18.606199 101.97053 -18.65283 101.683 -13.366051 33.744404
4862000000 -14.180729 35.776463 -18.278254 100.47258 -18.325989 100.2271 -13.743429 33.008995
4863000000 -14.571281 35.149323 -17.95509 98.966499 -18.006294 98.772728 -14.145959 32.330776
4864000000 -14.996943 34.585373 -17.63306 97.436707 -17.686996 97.295052 -14.592644 31.805363
4865000000 -15.458275 34.129177 -17.311657 95.829185 -17.362804 95.736107 -15.062078 31.494526
4866000000 -15.962121 33.778915 -17.002077 94.107285 -17.050297 94.077187 -15.555649 31.303085
4867000000 -16.510242 33.63179 -16.706533 92.333138 -16.749588 92.35318 -16.082695 31.277687
4868000000 -17.107185 33.744808 -16.424419 90.521584 -16.462244 90.582703 -16.648653 31.51618
4869000000 -17.75065 34.140816 -16.153004 88.658386 -16.181999 88.728439 -17.263374 31.990391
4870000000 -18.450521 34.924023 -15.889548 86.728889 -15.912457 86.819534 -17.91568 32.927685
4871000000 -19.20834 36.19553 -15.634278 84.71125 -15.652947 84.801292 -18.610348 34.294209
4872000000 -20.028215 38.10022 -15.390481 82.610771 -15.405016 82.689629 -19.3314 36.289726
4873000000 -20.904057 40.815296 -15.165638 80.429138 -15.171985 80.494514 -20.086559 38.91893
4874000000 -21.825476 44.650677 -14.955118 78.177658 -14.958463 78.219673 -20.846653 42.393879
4875000000 -22.746113 49.97049 -14.770885 75.897888 -14.772167 75.90686 -21.592783 46.927532
4876000000 -23.580433 56.97403 -14.604262 73.603394 -14.605941 73.594856 -22.283806 52.47057
4877000000 -24.238527 65.611336 -14.454472 71.323936 -14.454273 71.299133 -22.86931 59.234371
4878000000 -24.610695 75.657143 -14.31998 69.00029 -14.319866 68.960503 -23.265106 67.126442
4879000000 -24.584951 86.271675 -14.20029 66.676872 -14.203768 66.630402 -23.409492 75.62339
4880000000 -24.173115 96.237389 -14.095528 64.35466 -14.103076 64.289619 -23.262445 84.070641
4881000000 -23.469099 104.70337 -14.006968 62.030087 -14.014134 61.966572 -22.87458 91.783752
4882000000 -22.612839 111.33596 -13.933455 59.711517 -13.942133 59.648376 -22.302853 98.462769
4883000000 -21.704611 116.36383 -13.87574 57.410194 -13.885224 57.347416 -21.633257 103.79634
4884000000 -20.80378 119.99816 -13.830423 55.137722 -13.841397 55.081898 -20.927408 108.11644
4885000000 -19.946562 122.60441 -13.796284 52.877636 -13.808979 52.830811 -20.217419 111.39822
4886000000 -19.138912 124.39131 -13.774147 50.606987 -13.787762 50.572014 -19.526785 113.92928
4887000000 -18.38574 125.54769 -13.764764 48.321026 -13.779372 48.289066 -18.871452 115.89103
4888000000 -17.68965 126.20138 -13.772257 46.035969 -13.7876 46.021152 -18.237038 117.36608
4889000000 -17.053484 126.47526 -13.796611 43.785881 -13.809674 43.786575 -17.634012 118.39841
4890000000 -16.469788 126.4622 -13.832428 41.558308 -13.845809 41.551041 -17.069221 118.96802
4891000000 -15.936411 126.2353 -13.886357 39.371895 -13.900314 39.375877 -16.555365 119.35816
4892000000 -15.445018 125.82397 -13.952574 37.234135 -13.967015 37.25045 -16.067556 119.51604
4893000000 -14.995492 125.27184 -14.031468 35.142784 -14.045329 35.170742 -15.616893 119.52469
4894000000 -14.580731 124.64378 -14.121838 33.079025 -14.13236 33.121105 -15.188297 119.37933
4895000000 -14.196819 123.93536 -14.229473 31.046455 -14.238173 31.092169 -14.794688 119.08492
4896000000 -13.842211 123.17125 -14.347568 29.08316 -14.356018 29.132748 -14.420516 118.77114
4897000000 -13.513186 122.39127 -14.475378 27.173952 -14.482184 27.219702 -14.064062 118.3876
4898000000 -13.203531 121.58185 -14.612876 25.321608 -14.618542 25.356134 -13.723103 117.87082
4899000000 -12.913074 120.72678 -14.758017 23.527779 -14.764765 23.557863 -13.40502 117.27233
4900000000 -12.642653 119.83866 -14.913708 21.801273 -14.920212 21.834396 -13.109152 116.66753
4901000000 -12.388606 118.93582 -15.075963 20.107012 -15.080665 20.152239 -12.825158 116.0177
4902000000 -12.148691 118.00515 -15.249965 18.44754 -15.252152 18.494499 -12.54723 115.29593
4903000000 -11.923792 117.04006 -15.436943 16.862272 -15.438913 16.916956 -12.287739 114.48356
4904000000 -11.715878 116.05463 -15.631571 15.335919 -15.634009 15.395253 -12.051879 113.65369
4905000000 -11.52176 115.06492 -15.83121 13.863376 -15.832666 13.922774 -11.821322 112.79044
