! TOUCHSTONE file generated by CST MICROWAVE STUDIO
! Date and time: Fri Nov 29 14:48:29 2024
! Project name: dual_circularly_polarized_waveguide_antenna.cst
! Parameters = {airCoaxOuterDiameter=3; chamferAngle=45; chamferWidth=24; connectorLength=10; drillingHoleDiameter=4.1; feedLength=60; flareDiameter=130; flareLength=70; gratingDistance=0; gratingGap=1.90274; outletLength=75; polarizerLength=134; probe1Diameter=1.3; probe1Distance=14.068; probe1Length=12.1932; probe2Diameter=1.3; probe2Distance=0; probe2Length=11.967; smaInnerDiameter=1.3; smaOuterDiameter=4.1; transitionCoefficient=1.33; waveguideFeedLength=30; waveguideSide=50; waveguideThickness=3; wireCount=25; wireDiameter=1.17699}
! Header version: 2018
! Port assignment regex: !\s*Touchstone port\s*([0-9]+)\s*=\s*(CST MWS port|CST DS port)\s*([0-9]+|Zmin|Zmax)\s*\(\"(.*)\"\)(\s*mode\s*([0-9]+))?.*
! Touchstone port assignment:
! Touchstone port 1 = CST MWS port 1 ("Input1")
! Touchstone port 2 = CST MWS port 2 ("Input2")
# GHz S MA R 50
4.5                    0.1074545        13.53348        0.4669552        107.5285        0.4669541        107.5283        0.1405003        45.62087
4.502                  0.1043095        11.25618        0.4681279        106.6968        0.4681264        106.6967        0.1361228        44.57445
4.504                   0.100436        8.408892        0.4686267        105.9758        0.4686253        105.9758        0.1305804        43.37295
4.506                 0.09564965        5.403496         0.469405        105.3859        0.4694042         105.386         0.124136        42.41481
4.508                 0.09042246        2.655982        0.4712165        104.8515        0.4712165        104.8516          0.11766        41.93348
4.51                  0.08559482       0.3145925        0.4740836        104.2536        0.4740842        104.2537        0.1120409        41.79905
4.512                  0.0818565       -1.905166        0.4772845        103.5148        0.4772852        103.5147         0.107548        41.55121
4.514                 0.07930599       -4.592141        0.4798638        102.6511        0.4798642         102.651        0.1036331        40.71618
4.516                 0.07742925       -8.237323        0.4812886        101.7573        0.4812887        101.7572        0.0993517        39.14767
4.518                 0.07550996       -12.91166        0.4818018        100.9406        0.4818015        100.9405       0.09403171        37.10242
4.52                  0.07311542       -18.26748        0.4822409        100.2467        0.4822404        100.2467       0.08769484        35.05638
4.522                 0.07034705       -23.76217        0.4834428        99.62774        0.4834423        99.62766       0.08102107        33.40107
4.524                 0.06779113        -28.9468        0.4856337        98.97467        0.4856329        98.97461       0.07490585        32.12447
4.526                  0.0662299       -33.73579        0.4882457         98.1959        0.4882447        98.19588       0.06984812        30.66479
4.528                  0.0662324       -38.49871        0.4902958        97.28202        0.4902946        97.28202       0.06560138        28.17167
4.53                  0.06785218        -43.7924        0.4910467        96.31142        0.4910456        96.31149       0.06141147        24.01425
4.532                 0.07065909       -49.90251        0.4904833        95.39695        0.4904827        95.39708       0.05662204         18.0308
4.534                 0.07406749        -56.6312        0.4892835         94.6108        0.4892838        94.61097       0.05113903         10.3724
4.536                 0.07771267       -63.44647        0.4882873        93.93692        0.4882885          93.937       0.04551946        1.180721
4.538                  0.0816934       -69.78921        0.4878139         93.2877        0.4878156        93.28767       0.04076933       -9.694922
4.54                  0.08659897       -75.37635        0.4873286        92.58109        0.4873299        92.58091       0.03803674       -22.72238
4.542                 0.09325228       -80.39193        0.4857517        91.82571        0.4857519        91.82546       0.03834644       -38.11176
4.544                   0.102207       -85.40597        0.4822563         91.1529        0.4822553        91.15267       0.04236114       -55.01762
4.546                  0.1132902       -91.00656        0.4770742        90.77145        0.4770722        90.77132       0.05010447       -71.90544
4.548                  0.1255345       -97.45292        0.4718086        90.86002        0.4718064        90.86006       0.06084255       -87.71127
4.55                    0.137512       -104.6143        0.4689752        91.44176        0.4689738        91.44193       0.07327257       -102.1008
4.552                   0.147815       -112.1128        0.4708726        92.31732        0.4708725        92.31752       0.08586896        -115.049
4.554                  0.1554641       -119.4837        0.4783871        93.13195        0.4783881        93.13208       0.09724307        -126.541
4.556                  0.1601526       -126.2827        0.4905493        93.55409        0.4905509        93.55411        0.1064505       -136.4998
4.558                  0.1622923       -132.1602        0.5051407        93.42769        0.5051419        93.42755        0.1131839       -144.8214
4.56                   0.1628428       -136.9268        0.5198294        92.79371        0.5198298        92.79353        0.1177863       -151.4516
4.562                  0.1629456       -140.6028        0.5330718        91.80789        0.5330713        91.80771        0.1210481       -156.4714
4.564                  0.1634877       -143.3991        0.5443885        90.63771        0.5443873        90.63757        0.1238299       -160.1366
4.566                  0.1648253       -145.6042         0.554071        89.39506        0.5540696        89.39502        0.1266905       -162.8129
4.568                    0.16685       -147.4358        0.5626276         88.1212        0.5626264        88.12121        0.1297558       -164.8238
4.57                   0.1693293       -148.9706        0.5703354        86.81397        0.5703346        86.81399        0.1329137       -166.3331
4.572                  0.1722418       -150.1965        0.5771356        85.47002        0.5771351        85.47004        0.1361507        -167.362
4.574                  0.1758545        -151.127        0.5828562        84.11127         0.582856        84.11131        0.1397406       -167.9152
4.576                  0.1805054       -151.8751        0.5875271        82.78024        0.5875272        82.78026         0.144127       -168.1069
4.578                   0.186281       -152.6251        0.5915229        81.51272        0.5915231        81.51272         0.149595       -168.1733
4.58                   0.1928687       -153.5266        0.5954154        80.31094        0.5954157        80.31091        0.1560134       -168.3559
4.582                  0.1997178       -154.6061         0.599643        79.13862        0.5996432        79.13858        0.1628884       -168.7609
4.584                  0.2063848        -155.769        0.6042426        77.94361        0.6042425        77.94353        0.1696957       -169.3195
4.586                  0.2128073        -156.878        0.6088492        76.69227        0.6088488        76.69217        0.1762323       -169.8688
4.588                  0.2193211       -157.8527        0.6129713        75.39085        0.6129706        75.39079        0.1827405       -170.2805
4.59                   0.2264037       -158.7238        0.6163483        74.07894        0.6163473         74.0789        0.1897199       -170.5542
4.592                  0.2343158       -159.6091        0.6191417        72.80049        0.6191407        72.80049        0.1975502       -170.8172
4.594                  0.2428945       -160.6283        0.6218323        71.57245        0.6218316        71.57248        0.2061946       -171.2293
4.596                  0.2516523       -161.8201        0.6248921        70.37184        0.6248916        70.37186        0.2152102       -171.8692
4.598                  0.2601036       -163.1233        0.6284565        69.15069        0.6284564         69.1507        0.2240526       -172.6886
4.6                     0.268083       -164.4254        0.6322288        67.86855        0.6322287        67.86855        0.2324428       -173.5577
4.602                  0.2758436       -165.6387        0.6356817        66.51938        0.6356816        66.51935        0.2405444       -174.3562
4.604                  0.2838733       -166.7561        0.6384149        65.13435        0.6384147        65.13432        0.2488375       -175.0512
4.606                  0.2925491       -167.8517        0.6404206        63.75988        0.6404202        63.75985        0.2577739        -175.713
4.608                  0.3018645       -169.0269         0.642082        62.42598        0.6420816        62.42596         0.267447       -176.4605
4.61                   0.3114244       -170.3393        0.6439065        61.12583        0.6439061         61.1258         0.277516       -177.3753
4.612                  0.3207087       -171.7683        0.6461735        59.82041        0.6461732        59.82037        0.2874369       -178.4491
4.614                  0.3294124       -173.2337        0.6487383        58.46516        0.6487378        58.46512        0.2968258       -179.5966
4.616                  0.3376353       -174.6515         0.651126        57.04029        0.6511254        57.04025        0.3057034        179.2839
4.618                  0.3457999       -175.9875        0.6528489        55.56345        0.6528481        55.56343        0.3144651        178.2449
4.62                   0.3543544       -177.2766        0.6537258        54.07733         0.653725        54.07734        0.3235975        177.2595
4.622                  0.3634553       -178.5962        0.6539927        52.62115         0.653992        52.62116        0.3333312        176.2442
4.624                  0.3728509        179.9881        0.6541338        51.20484        0.6541335        51.20487        0.3434712        175.1201
4.626                  0.3820453        178.4658        0.6545476         49.8029        0.6545475        49.80292        0.3535235        173.8657
4.628                  0.3906221         176.885        0.6552718         48.3722        0.6552719        48.37219        0.3630227        172.5277
4.63                   0.3985074        175.3179        0.6559565        46.88179        0.6559564        46.88176        0.3718307        171.1864
4.632                  0.4060018        173.8138        0.6560996         45.3339        0.6560992        45.33386        0.3802106        169.9027
4.634                  0.4135635        172.3692        0.6553809        43.76239        0.6553804        43.76234        0.3886325        168.6811
4.636                  0.4214865        170.9323        0.6538703        42.21035        0.6538695        42.21031        0.3974397        167.4697
4.638                  0.4296893        169.4403        0.6519747        40.70206         0.651974        40.70204        0.4066009        166.1992
4.64                   0.4377614        167.8627        0.6501611        39.22735        0.6501605        39.22734        0.4157222        164.8306
4.642                  0.4452314        166.2197        0.6486416        37.74899         0.648641        37.74898        0.4243062        163.3808
4.644                  0.4518698        164.5678         0.647232        36.22845        0.6472315        36.22844        0.4320737        161.9087
4.646                  0.4578269        162.9625        0.6454805        34.65253          0.64548        34.65252        0.4391359        160.4763
4.648                  0.4635211        161.4232        0.6429743        33.04247        0.6429738        33.04246         0.445905        159.1097
4.65                   0.4693482        159.9226        0.6396167        31.44025        0.6396161        31.44025        0.4528057         157.784
4.652                  0.4754077        158.4068        0.6356906        29.88136        0.6356902        29.88137        0.4599779        156.4429
4.654                  0.4814303        156.8327        0.6316727        28.37185        0.6316724        28.37184        0.4671758        155.0383
4.656                  0.4869562        155.1972        0.6279182        26.88453         0.627918        26.88451        0.4739302        153.5628
4.658                   0.491637        153.5378        0.6244302        25.37773        0.6244299         25.3777        0.4798584        152.0536
4.66                   0.4954595        151.9081        0.6208681        23.82391        0.6208676        23.82385        0.4849116        150.5674
4.662                  0.4987464        150.3431        0.6167878        22.22844         0.616787        22.22838        0.4893967        149.1438
4.664                  0.5019348        148.8379        0.6119467        20.62633        0.6119457         20.6263        0.4937642        147.7807
4.666                  0.5052806        147.3518        0.6064712         19.0592        0.6064702         19.0592         0.498299        146.4378
4.668                  0.5086846        145.8375        0.6007775        17.54796        0.6007766        17.54799        0.5029261         145.065
4.67                   0.5117615        144.2734        0.5953002        16.07847        0.5952996        16.07847        0.5072622        143.6376
4.672                  0.5141019        142.6777        0.5902097        14.61087        0.5902094         14.6109        0.5108769        142.1722
4.674                  0.5155443        141.0965         0.585309        13.10643        0.5853087        13.10643          0.51358        140.7157
4.676                  0.5162813        139.5736        0.5801787        11.55361        0.5801784         11.5536        0.5155464        139.3143
4.678                  0.5167309        138.1224        0.5744704        9.975943        0.5744698        9.975931        0.5171969         137.984
4.68                   0.5172563        136.7177        0.5681459        8.416008        0.5681452           8.416        0.5189148        136.7008
4.682                  0.5179237        135.3137        0.5615094        6.906941        0.5615088        6.906939        0.5207879        135.4181
4.684                  0.5184619        133.8756        0.5550102        5.449511        0.5550095        5.449515        0.5225529        134.0991
4.686                  0.5184503        132.4032        0.5489477         4.01033        0.5489471        4.010334        0.5237786        132.7422
4.688                  0.5176058         130.932        0.5432793        2.543248        0.5432786        2.543252        0.5241607        131.3821
4.69                   0.5159719        129.5094        0.5376582        1.019758        0.5376574        1.019768        0.5237267         130.067
4.692                   0.513892        128.1646        0.5316745      -0.5526325        0.5316737      -0.5526079        0.5228177        128.8276
4.694                  0.5117806        126.8899        0.5251337       -2.136434        0.5251329       -2.136387        0.5218612        127.6572
4.696                  0.5098473         125.647        0.5181853       -3.690216        0.5181846       -3.690149        0.5210842        126.5178
4.698                   0.507961        124.3938         0.511221       -5.197666        0.5112206       -5.197591        0.5203651        125.3668
4.7                     0.505747         123.115        0.5046108       -6.680631        0.5046107       -6.680564        0.5193254        124.1875
4.702                  0.5028505        121.8335        0.4984532       -8.186673        0.4984532       -8.186628        0.5175956        123.0017
4.704                  0.4991823        120.5969        0.4925085       -9.758785        0.4925085       -9.758767         0.515073        121.8563
4.706                   0.494987        119.4476        0.4863589       -11.40807        0.4863587       -11.40807         0.511998        120.7933
4.708                  0.4906877        118.3963        0.4796819       -13.10815        0.4796815       -13.10815        0.5088011        119.8239
4.71                   0.4866115        117.4168        0.4724526       -14.81455         0.472452       -14.81453        0.5058216        118.9219
4.712                  0.4827827        116.4664        0.4649428       -16.49622        0.4649423       -16.49617        0.5030916        118.0448
4.714                  0.4789294         115.518        0.4575216       -18.15867        0.4575212       -18.15861        0.5003363         117.165
4.716                  0.4746995        114.5832        0.4503889       -19.84324        0.4503887       -19.84317        0.4971911        116.2924
4.718                   0.469935        113.7073        0.4434221       -21.60174        0.4434219       -21.60167        0.4934844        115.4703
4.72                   0.4648214        112.9426        0.4362361       -23.46323         0.436236       -23.46317        0.4893926        114.7487
4.722                  0.4598086        112.3151        0.4284147       -25.41556        0.4284147        -25.4155        0.4853649        114.1525
4.724                  0.4553592        111.8083        0.4197538       -27.41348        0.4197539       -27.41343        0.4818668        113.6655
4.726                  0.4516924        111.3747        0.4103592       -29.40737        0.4103593       -29.40732        0.4791176        113.2415
4.728                  0.4487044        110.9687        0.4005411       -31.37416        0.4005414       -31.37413         0.477006        112.8363
4.73                   0.4461215        110.5769        0.3905798        -33.3307          0.39058       -33.33069        0.4752431         112.437
4.732                  0.4437726        110.2222        0.3805164       -35.31976        0.3805165       -35.31977        0.4736394        112.0662
4.734                  0.4417835        109.9402        0.3701116        -37.3764        0.3701116       -37.37643        0.4723064        111.7589
4.736                  0.4405518        109.7422        0.3589989       -39.49663        0.3589987       -39.49665        0.4716373        111.5284
4.738                  0.4405143        109.5933        0.3469299       -41.62908        0.3469296       -41.62908        0.4720737        111.3447
4.74                   0.4418624         109.421        0.3339518       -43.69504        0.3339515         -43.695        0.4738181        111.1421
4.742                  0.4444062        109.1511        0.3204084       -45.62526        0.3204083       -45.62518         0.476692        110.8525
4.744                  0.4476822        108.7439        0.3067652       -47.39252        0.3067653       -47.39243        0.4802389        110.4398
4.746                   0.451221        108.2058        0.2933687       -49.01927         0.293369        -49.0192        0.4839937        109.9111
4.748                  0.4547847        107.5713        0.2802936       -50.55237        0.2802939       -50.55234         0.487725        109.2997
4.75                   0.4584193        106.8696        0.2673785       -52.01891        0.2673789       -52.01893        0.4914927        108.6341
4.752                  0.4623007        106.1006        0.2544253       -53.39325        0.2544254        -53.3933         0.495494         107.915
4.754                  0.4664945        105.2358        0.2414203       -54.59964        0.2414203       -54.59969        0.4998163        107.1148
