! TOUCHSTONE file generated by CST MICROWAVE STUDIO
! Date and time: Sat Nov 30 03:28:50 2024
! Project name: test_tuning.cst
! Parameters = {airCoaxOuterDiameter=3; chamferAngle=45; chamferWidth=30; connectorLength=10; drillingHoleDiameter=4.1; feedLength=60; flareDiameter=130; flareLength=70; gratingDistance=0; gratingGap=1.90274; outletLength=30; polarizerLength=134; probe1Diameter=1.3; probe1Distance=14; probe1Length=12; probe2Diameter=1.3; probe2Distance=0; probe2Length=12; probeLength=12; smaInnerDiameter=1.3; smaOuterDiameter=4.1; transitionCoefficient=1.33; waveguideFeedLength=30; waveguideSide=50; waveguideThickness=3; wireCount=25; wireDiameter=1.17699}
! Header version: 2024
! Port assignment regex: !\s*Touchstone port\s*([0-9]+)\s*=\s*(CST MWS port|CST DES external port|CST DES block port)\s*(.+)\s* \(\"(.*)\"\)(\s*mode\s*([0-9]+))?.*
! Touchstone port assignment:
! Touchstone port 1 = CST MWS port 1 ("Input1")
! Touchstone port 2 = CST MWS port 2 ("Input2")
# GHz S MA R 50
4.6                   0.06895878       -121.6984        0.6615137        85.19322        0.6615122        85.19312       0.06896118       -121.6991
4.6014                0.07245759       -124.3745        0.6638258        84.45545        0.6638242        84.45535        0.0724601       -124.3752
4.6028                 0.0760663       -126.7584        0.6660611        83.72055        0.6660594        83.72047       0.07606891       -126.7592
4.6042                0.07979443       -128.8939        0.6682338        82.98882        0.6682321        82.98876        0.0797971       -128.8948
4.6056                0.08365298       -130.8219        0.6703588        82.26024        0.6703569        82.26018       0.08365569       -130.8229
4.607                 0.08765262       -132.5807          0.67245        81.53451        0.6724482        81.53447       0.08765535       -132.5817
4.6084                 0.0918018       -134.2054        0.6745205        80.81114        0.6745186        80.81111       0.09180453       -134.2065
4.6098                0.09610542        -135.728        0.6765814        80.08939        0.6765795        80.08937       0.09610811       -135.7292
4.6112                 0.1005636       -137.1766        0.6786418        79.36833        0.6786399        79.36833        0.1005662       -137.1779
4.6126                 0.1051712       -138.5755         0.680708        78.64699        0.6807061        78.64699        0.1051737       -138.5768
4.614                  0.1099174       -139.9447        0.6827836        77.92424        0.6827817        77.92424        0.1099198        -139.946
4.6154                 0.1147862          -141.3        0.6848689        77.19894        0.6848671        77.19896        0.1147885       -141.3014
4.6168                 0.1197566       -142.6533        0.6869615        76.47007        0.6869599         76.4701        0.1197588       -142.6547
4.6182                 0.1248038       -144.0124        0.6890563        75.73661        0.6890547        75.73665        0.1248058       -144.0138
4.6196                 0.1298997        -145.382        0.6911453        74.99772        0.6911437        74.99777        0.1299015       -145.3834
4.621                  0.1350144       -146.7635        0.6932185        74.25274         0.693217         74.2528        0.1350161       -146.7649
4.6224                 0.1401176       -148.1558        0.6952644        73.50119        0.6952629        73.50126        0.1401191       -148.1572
4.6238                 0.1451792       -149.5559        0.6972702        72.74282        0.6972689         72.7429        0.1451805       -149.5573
4.6252                  0.150171       -150.9591        0.6992229        71.97763        0.6992217        71.97772         0.150172       -150.9604
4.6266                 0.1550672       -152.3594        0.7011096        71.20583        0.7011085        71.20594         0.155068       -152.3606
4.628                   0.159846       -153.7502         0.702918        70.42786        0.7029169        70.42795        0.1598467       -153.7513
4.6294                   0.16449       -155.1243        0.7046371        69.64435        0.7046363        69.64443        0.1644905       -155.1255
4.6308                 0.1689868       -156.4747        0.7062581        68.85605        0.7062573        68.85616        0.1689871       -156.4758
4.6322                 0.1733295       -157.7943        0.7077737        68.06395        0.7077731        68.06406        0.1733297       -157.7954
4.6336                 0.1775171       -159.0769        0.7091798        67.26903        0.7091792        67.26913        0.1775171       -159.0778
4.635                  0.1815543       -160.3165        0.7104745        66.47232        0.7104741        66.47242        0.1815542       -160.3175
4.6364                 0.1854514       -161.5087        0.7116588         65.6749        0.7116586        65.67499        0.1854512       -161.5096
4.6378                 0.1892238       -162.6497        0.7127367        64.87774        0.7127364        64.87784        0.1892235       -162.6506
4.6392                 0.1928915       -163.7375        0.7137142        64.08178        0.7137141        64.08187        0.1928911       -163.7383
4.6406                 0.1964779       -164.7714           0.7146         63.2878        0.7145999        63.28788        0.1964775       -164.7721
4.642                  0.2000091       -165.7521        0.7154043         62.4964        0.7154045        62.49648        0.2000086       -165.7528
4.6434                 0.2035124        -166.682        0.7161393        61.70803        0.7161394         61.7081        0.2035119       -166.6826
4.6448                 0.2070151        -167.565        0.7168175         60.9229        0.7168176        60.92298        0.2070145       -167.5656
4.6462                  0.210543       -168.4063        0.7174521        60.14106        0.7174523        60.14114        0.2105424       -168.4069
4.6476                 0.2141194       -169.2122         0.718056        59.36227        0.7180563        59.36234        0.2141187       -169.2128
4.649                  0.2177633         -169.99        0.7186413        58.58612        0.7186417        58.58619        0.2177625       -169.9905
4.6504                  0.221489       -170.7474        0.7192189        57.81202        0.7192193        57.81208        0.2214882       -170.7479
4.6518                 0.2253051       -171.4923        0.7197978         57.0392        0.7197982        57.03926        0.2253043       -171.4928
4.6532                 0.2292139       -172.2325        0.7203849        56.26677        0.7203854        56.26683         0.229213        -172.233
4.6546                 0.2332115       -172.9751        0.7209845        55.49376        0.7209851         55.4938        0.2332105       -172.9756
4.656                  0.2372877       -173.7265        0.7215986        54.71913        0.7215992        54.71919        0.2372867        -173.727
4.6574                 0.2414271       -174.4919        0.7222262        53.94187        0.7222268        53.94191         0.241426       -174.4923
4.6588                 0.2456094       -175.2751        0.7228638          53.161        0.7228645        53.16103        0.2456082       -175.2755
4.6602                 0.2498106       -176.0788        0.7235053        52.37562         0.723506        52.37566        0.2498094       -176.0792
4.6616                 0.2540043        -176.904        0.7241428        51.58496        0.7241436        51.58499        0.2540029       -176.9044
4.663                  0.2581627       -177.7505        0.7247663        50.78843        0.7247671        50.78846        0.2581613       -177.7508
4.6644                 0.2622583       -178.6168        0.7253647         49.9856        0.7253656        49.98562        0.2622568       -178.6171
4.6658                 0.2662648       -179.5003        0.7259261        49.17622         0.725927        49.17624        0.2662633       -179.5006
4.6672                 0.2701586        179.6025        0.7264383        48.36026        0.7264393        48.36027        0.2701569        179.6022
4.6686                 0.2739193        178.6959        0.7268892         47.5379        0.7268903        47.53791        0.2739175        178.6957
4.67                   0.2775311        177.7846        0.7272682        46.70949        0.7272692        46.70949        0.2775293        177.7844
4.6714                 0.2809832        176.8737        0.7275651        45.87557        0.7275662        45.87556        0.2809814        176.8736
4.6728                 0.2842702        175.9683        0.7277722        45.03678        0.7277733        45.03677        0.2842683        175.9682
4.6742                 0.2873924        175.0732        0.7278836        44.19394        0.7278847        44.19391        0.2873906        175.0731
4.6756                 0.2903557         174.193        0.7278957        43.34789        0.7278968        43.34785        0.2903539        174.1929
4.677                  0.2931713        173.3316        0.7278077        42.49951        0.7278088        42.49947        0.2931695        173.3317
4.6784                 0.2958551        172.4925         0.727621        41.64972         0.727622        41.64966        0.2958533        172.4925
4.6798                  0.298427        171.6779        0.7273398        40.79934        0.7273408        40.79927        0.2984253         171.678
4.6812                   0.30091        170.8893        0.7269704        39.94913        0.7269714        39.94905        0.3009084        170.8895
4.6826                 0.3033292        170.1272        0.7265214        39.09973        0.7265223        39.09965        0.3033277        170.1273
4.684                  0.3057103        169.3908        0.7260032        38.25162        0.7260039        38.25152        0.3057089         169.391
4.6854                 0.3080784        168.6785         0.725427         37.4051        0.7254278        37.40499        0.3080772        168.6787
4.6868                 0.3104569        167.9876        0.7248053        36.56026        0.7248059        36.56015        0.3104558        167.9878
4.6882                 0.3128662        167.3146        0.7241506        35.71701        0.7241511        35.71689        0.3128652        167.3148
4.6896                 0.3153223        166.6553        0.7234752        34.87502        0.7234755        34.87489        0.3153215        166.6555
4.691                  0.3178365        166.0052        0.7227904        34.03377        0.7227904        34.03364         0.317836        166.0054
4.6924                 0.3204145        165.3593         0.722106        33.19255         0.722106        33.19242        0.3204142        165.3596
4.6938                 0.3230559        164.7129        0.7214307        32.35048        0.7214303        32.35036        0.3230557        164.7132
4.6952                 0.3257542        164.0614          0.72077        31.50656        0.7207697        31.50643        0.3257542        164.0617
4.6966                 0.3284974        163.4007        0.7201278        30.65967        0.7201272        30.65955        0.3284976         163.401
4.698                  0.3312684        162.7274        0.7195048        29.80866         0.719504        29.80854        0.3312688        162.7277
4.6994                 0.3340457        162.0389         0.718899        28.95235        0.7188981        28.95224        0.3340463        162.0392
4.7008                 0.3368047        161.3336         0.718306        28.08961        0.7183049         28.0895        0.3368054        161.3338
4.7022                 0.3395185        160.6107        0.7177184        27.21937        0.7177173        27.21927        0.3395193        160.6109
4.7036                 0.3421595        159.8705         0.717127        26.34068        0.7171257        26.34059        0.3421604        159.8707
4.705                  0.3447006        159.1144        0.7165204        25.45274         0.716519        25.45266        0.3447016        159.1146
4.7064                 0.3471162        158.3443        0.7158858        24.55493        0.7158843        24.55487        0.3471173        158.3445
4.7078                 0.3493836        157.5631        0.7152094        23.64683         0.715208        23.64678        0.3493848        157.5633
4.7092                 0.3514838        156.7743        0.7144772        22.72821        0.7144757        22.72817        0.3514851        156.7744
4.7106                 0.3534024        155.9816        0.7136751        21.79907        0.7136736        21.79902        0.3534037        155.9817
4.712                  0.3551301        155.1893        0.7127897        20.85954        0.7127881        20.85951        0.3551314        155.1894
4.7134                  0.356663        154.4016        0.7118088        19.91001        0.7118073        19.91004        0.3566644        154.4017
4.7148                 0.3580029        153.6227         0.710722        18.95105        0.7107206         18.9511        0.3580043        153.6228
4.7162                 0.3591569        152.8565        0.7095208        17.98331        0.7095195        17.98331        0.3591583        152.8566
4.7176                 0.3601371        152.1066        0.7081992        17.00748        0.7081978        17.00751        0.3601386        152.1066
4.719                  0.3609601        151.3758        0.7067533         16.0244        0.7067522        16.02446        0.3609615        151.3759
4.7204                 0.3616459        150.6667        0.7051827        15.03483        0.7051817        15.03492        0.3616473        150.6667
4.7218                 0.3622169        149.9807        0.7034887        14.03963        0.7034878        14.03969        0.3622183        149.9807
4.7232                  0.362697        149.3185        0.7016756        13.03939        0.7016749        13.03945        0.3626984        149.3185
4.7246                   0.36311        148.6802        0.6997501         12.0347        0.6997494        12.03476        0.3631113        148.6802
4.726                  0.3634786        148.0648        0.6977201        11.02592        0.6977196        11.02599        0.3634798        148.0648
4.7274                 0.3638227        147.4707        0.6955957        10.01323        0.6955953         10.0133        0.3638239        147.4706
4.7288                 0.3641589        146.8956        0.6933872        8.996564        0.6933869        8.996625        0.3641601        146.8955
4.7302                 0.3644991        146.3367        0.6911054        7.975587        0.6911051        7.975647        0.3645003        146.3367
4.7316                 0.3648499        145.7912        0.6887606        6.949706        0.6887605         6.94976        0.3648511        145.7911
4.733                  0.3652122        145.2558        0.6863623        5.918043        0.6863623        5.918092        0.3652133        145.2557
4.7344                 0.3655813        144.7276        0.6839177         4.87946        0.6839178        4.879504        0.3655823        144.7275
4.7358                 0.3659467        144.2042        0.6814321        3.832574        0.6814321        3.832612        0.3659477        144.2041
4.7372                 0.3662934        143.6835        0.6789073        2.775783        0.6789074        2.775814        0.3662943        143.6834
4.7386                 0.3666023        143.1645        0.6763419        1.707311         0.676342        1.707336        0.3666032        143.1644
4.74                   0.3668517        142.6469        0.6737305       0.6252566        0.6737306       0.6252756        0.3668524        142.6468
4.7414                 0.3670185        142.1317        0.6710636      -0.4723524        0.6710638      -0.4723393        0.3670192        142.1316
4.7428                 0.3670806        141.6207        0.6683272       -1.587497        0.6683274       -1.587489        0.3670812        141.6206
4.7442                 0.3670173        141.1171        0.6655031       -2.722102        0.6655032       -2.722099        0.3670179         141.117
4.7456                 0.3668125        140.6251        0.6625689       -3.877971         0.662569       -3.877973         0.366813         140.625
4.747                  0.3664551        140.1498         0.659498       -5.056727        0.6594982       -5.056732        0.3664556        140.1497
4.7484                 0.3659417        139.6972        0.6562608       -6.259745        0.6562609       -6.259752        0.3659421        139.6971
4.7498                 0.3652773        139.2739        0.6528243       -7.488103        0.6528243       -7.488113        0.3652777        139.2738
4.7512                 0.3644766        138.8868        0.6491533       -8.742533        0.6491533       -8.742543         0.364477        138.8868
4.7526                 0.3635649         138.543        0.6452112       -10.02338         0.645211       -10.02339        0.3635653         138.543
4.754                  0.3625788        138.2493        0.6409601       -11.33055          0.64096       -11.33056        0.3625791        138.2493
4.7554                 0.3615657        138.0118        0.6363625       -12.66354        0.6363623       -12.66355        0.3615659        138.0117
4.7568                 0.3605835        137.8353        0.6313814       -14.02135        0.6313813       -14.02136        0.3605838        137.8352
4.7582                 0.3597002        137.7234        0.6259819       -15.40252        0.6259817       -15.40253        0.3597004        137.7234
4.7596                 0.3589909        137.6774        0.6201311       -16.80511        0.6201308       -16.80511        0.3589911        137.6774
4.761                  0.3585367        137.6964        0.6137996       -18.22669        0.6137994        -18.2267        0.3585369        137.6964
4.7624                 0.3584214        137.7765        0.6069619       -19.66439        0.6069617       -19.66439        0.3584216        137.7765
4.7638                 0.3587279         137.911        0.5995971       -21.11483        0.5995969       -21.11482        0.3587281         137.911
4.7652                  0.359535        138.0901        0.5916896        -22.5742        0.5916894        -22.5742        0.3595352        138.0901
4.7666                 0.3609131        138.3013        0.5832292       -24.03824         0.583229       -24.03824        0.3609134        138.3012
4.768                  0.3629209        138.5293        0.5742119       -25.50226        0.5742117       -25.50225         0.362921        138.5293
4.7694                 0.3656012        138.7574        0.5646399       -26.96111        0.5646398        -26.9611        0.3656015        138.7573
4.7708                 0.3689797        138.9674        0.5545221       -28.40924        0.5545221       -28.40922        0.3689799        138.9674
4.7722                 0.3730618        139.1414         0.543874       -29.84066        0.5438739       -29.84065         0.373062        139.1413
4.7736                  0.377833        139.2617        0.5327175       -31.24898        0.5327175       -31.24897        0.3778332        139.2616
4.775                   0.383259        139.3126        0.5210814       -32.62738        0.5210814       -32.62736        0.3832592        139.3125
4.7764                  0.389287        139.2803        0.5090007        -33.9686        0.5090007       -33.96859        0.3892871        139.2802
4.7778                 0.3958479        139.1538        0.4965173       -35.26498        0.4965173       -35.26497         0.395848        139.1538
