! TOUCHSTONE file generated by CST MICROWAVE STUDIO
! Date and time: Sat Nov 30 03:28:50 2024
! Project name: test_tuning.cst
! Parameters = {airCoaxOuterDiameter=3; chamferAngle=45; chamferWidth=32; connectorLength=10; drillingHoleDiameter=4.1; feedLength=60; flareDiameter=130; flareLength=70; gratingDistance=0; gratingGap=1.90274; outletLength=30; polarizerLength=134; probe1Diameter=1.3; probe1Distance=14; probe1Length=12; probe2Diameter=1.3; probe2Distance=0; probe2Length=12; probeLength=12; smaInnerDiameter=1.3; smaOuterDiameter=4.1; transitionCoefficient=1.33; waveguideFeedLength=30; waveguideSide=50; waveguideThickness=3; wireCount=25; wireDiameter=1.17699}
! Header version: 2024
! Port assignment regex: !\s*Touchstone port\s*([0-9]+)\s*=\s*(CST MWS port|CST DES external port|CST DES block port)\s*(.+)\s* \(\"(.*)\"\)(\s*mode\s*([0-9]+))?.*
! Touchstone port assignment:
! Touchstone port 1 = CST MWS port 1 ("Input1")
! Touchstone port 2 = CST MWS port 2 ("Input2")
# GHz S MA R 50
4.6                    0.1214288        153.0682        0.6096675        78.94372        0.6096667        78.94378        0.1214286         153.068
4.6014                 0.1208999        152.3637        0.6086417        78.59724         0.608641         78.5973        0.1208996        152.3635
4.6028                 0.1202074        151.7863        0.6077211        78.27214        0.6077205        78.27221        0.1202071        151.7862
4.6042                 0.1193939        151.3443        0.6069499        77.96752        0.6069495        77.96761        0.1193935        151.3443
4.6056                 0.1185048        151.0427        0.6063704        77.68166        0.6063701        77.68176        0.1185045        151.0427
4.607                  0.1175868        150.8822        0.6060205        77.41196        0.6060203        77.41206        0.1175865        150.8823
4.6084                 0.1166853        150.8597        0.6059325        77.15509        0.6059325        77.15517         0.116685        150.8598
4.6098                 0.1158424        150.9671        0.6061315        76.90713        0.6061316        76.90722        0.1158422        150.9674
4.6112                 0.1150949        151.1925        0.6066339        76.66376        0.6066341        76.66384        0.1150948        151.1928
4.6126                  0.114472        151.5197        0.6074472        76.42041        0.6074476        76.42049         0.114472          151.52
4.614                   0.113994          151.93        0.6085695        76.17253          0.60857         76.1726        0.1139941        151.9303
4.6154                 0.1136709         152.403        0.6099897        75.91576        0.6099902        75.91582        0.1136711        152.4033
4.6168                 0.1135027        152.9182        0.6116883        75.64614        0.6116889        75.64618        0.1135031        152.9185
4.6182                 0.1134797        153.4566        0.6136385        75.36027        0.6136391        75.36031        0.1134802        153.4569
4.6196                 0.1135835        154.0021        0.6158078        75.05548        0.6158085         75.0555        0.1135842        154.0025
4.621                  0.1137892        154.5428        0.6181595        74.72982        0.6181601        74.72982          0.11379        154.5431
4.6224                 0.1140677        155.0714        0.6206546        74.38218        0.6206551        74.38219        0.1140687        155.0716
4.6238                 0.1143885        155.5856        0.6232537        74.01227        0.6232542        74.01227        0.1143895        155.5858
4.6252                 0.1147218        156.0886         0.625919         73.6206        0.6259193        73.62059         0.114723        156.0887
4.6266                 0.1150418        156.5877        0.6286156        73.20827        0.6286159        73.20826         0.115043        156.5877
4.628                  0.1153282        157.0943        0.6313135        72.77703        0.6313136        72.77702        0.1153295        157.0943
4.6294                 0.1155689        157.6229        0.6339881        72.32906         0.633988        72.32904        0.1155702        157.6228
4.6308                 0.1157609        158.1897        0.6366216        71.86681        0.6366215        71.86681        0.1157622        158.1895
4.6322                 0.1159116        158.8119        0.6392035        71.39291        0.6392033        71.39289        0.1159128        158.8116
4.6336                 0.1160393        159.5059        0.6417303        70.90994          0.64173        70.90994        0.1160404        159.5056
4.635                   0.116173        160.2863        0.6442058        70.42038        0.6442055         70.4204         0.116174        160.2859
4.6364                 0.1163516        161.1642        0.6466403        69.92641        0.6466399        69.92645        0.1163526        161.1638
4.6378                 0.1166228         162.146        0.6490496         69.4298        0.6490492        69.42983        0.1166237        162.1456
4.6392                 0.1170406        163.2319        0.6514544        68.93184         0.651454         68.9319        0.1170412        163.2314
4.6406                 0.1176622         164.415        0.6538782        68.43326        0.6538779        68.43333        0.1176627        164.4145
4.642                   0.118545        165.6808        0.6563465        67.93421        0.6563464        67.93427        0.1185454        165.6802
4.6434                 0.1197425        167.0073        0.6588848        67.43416        0.6588847        67.43426        0.1197427        167.0068
4.6448                 0.1213002        168.3666         0.661517        66.93212        0.6615171         66.9322        0.1213004         168.366
4.6462                 0.1232527        169.7259        0.6642642        66.42643        0.6642645        66.42652        0.1232527        169.7254
4.6476                 0.1256205        171.0509        0.6671429        65.91511        0.6671433        65.91521        0.1256203        171.0504
4.649                  0.1284086         172.308         0.670164        65.39578        0.6701647        65.39587        0.1284083        172.3075
4.6504                 0.1316067        173.4669        0.6733322        64.86586        0.6733329        64.86596        0.1316063        173.4664
4.6518                   0.13519        174.5027        0.6766449         64.3227        0.6766459         64.3228        0.1351895        174.5023
4.6532                 0.1391212        175.3976        0.6800928        63.76375        0.6800939        63.76382        0.1391206        175.3972
4.6546                 0.1433536        176.1404        0.6836593         63.1866        0.6836606        63.18666        0.1433529          176.14
4.656                  0.1478341        176.7273        0.6873215         62.5892        0.6873229        62.58925        0.1478333        176.7269
4.6574                 0.1525063        177.1603        0.6910511        61.96993        0.6910526        61.96996        0.1525053          177.16
4.6588                 0.1573133        177.4466        0.6948151        61.32764        0.6948167        61.32767        0.1573123        177.4464
4.6602                 0.1622008        177.5972        0.6985777         60.6618        0.6985793        60.66181        0.1621997        177.5971
4.6616                 0.1671186        177.6259        0.7023009        59.97238        0.7023026        59.97238        0.1671173        177.6258
4.663                  0.1720223        177.5478        0.7059469           59.26        0.7059486        59.25997        0.1720211        177.5477
4.6644                 0.1768752         177.379        0.7094789        58.52578        0.7094806        58.52572        0.1768739         177.379
4.6658                 0.1816483        177.1354        0.7128629        57.77133        0.7128645        57.77127        0.1816469        177.1354
4.6672                 0.1863211        176.8323        0.7160688        56.99876        0.7160703        56.99868        0.1863197        176.8324
4.6686                 0.1908817         176.484        0.7190712        56.21046        0.7190726        56.21037        0.1908803        176.4841
4.67                   0.1953265        176.1032         0.721851        55.40912        0.7218523        55.40901        0.1953251        176.1033
4.6714                 0.1996597        175.7009        0.7243955        54.59755        0.7243966        54.59743        0.1996584        175.7011
4.6728                 0.2038924        175.2862        0.7266984        53.77865        0.7266993        53.77853        0.2038911        175.2865
4.6742                 0.2080413        174.8661        0.7287611        52.95525        0.7287617        52.95512        0.2080401        174.8664
4.6756                 0.2121279        174.4455        0.7305909        52.13003        0.7305914        52.12991        0.2121268        174.4459
4.677                  0.2161764        174.0272        0.7322021        51.30545        0.7322024        51.30532        0.2161754        174.0276
4.6784                 0.2202124        173.6118        0.7336142        50.48362        0.7336143        50.48349        0.2202116        173.6122
4.6798                 0.2242613        173.1983        0.7348514        49.66626        0.7348513        49.66614        0.2242607        173.1987
4.6812                 0.2283464        172.7838        0.7359413        48.85466        0.7359411        48.85453         0.228346        172.7843
4.6826                 0.2324875        172.3644        0.7369141        48.04956        0.7369136        48.04945        0.2324873        172.3649
4.684                  0.2366997         171.935        0.7378003        47.25126        0.7377998        47.25115        0.2366997        171.9355
4.6854                 0.2409921          171.49        0.7386304         46.4595        0.7386299         46.4594        0.2409923        171.4905
4.6868                 0.2453674        171.0238        0.7394329        45.67355        0.7394322        45.67346        0.2453679        171.0243
4.6882                 0.2498215         170.531        0.7402331        44.89224        0.7402321        44.89216        0.2498222        170.5315
4.6896                 0.2543437        170.0067        0.7410517        44.11404        0.7410509        44.11396        0.2543446        170.0072
4.691                  0.2589169        169.4472        0.7419046         43.3371        0.7419036        43.33704         0.258918        169.4476
4.6924                 0.2635188        168.8495        0.7428015        42.55941        0.7428005        42.55935        0.2635201        168.8499
4.6938                 0.2681224        168.2122        0.7437461        41.77885         0.743745        41.77881        0.2681239        168.2125
4.6952                  0.272698         167.535        0.7447354        40.99332        0.7447344        40.99328        0.2726996        167.5353
4.6966                  0.277214        166.8192        0.7457604        40.20085        0.7457595        40.20082        0.2772157        166.8194
4.698                  0.2816385        166.0669        0.7468065        39.39971        0.7468057        39.39968        0.2816402        166.0671
4.6994                 0.2859406        165.2815        0.7478541        38.58845        0.7478533        38.58843        0.2859423        165.2817
4.7008                 0.2900922        164.4674        0.7488799        37.76602        0.7488789        37.76601        0.2900939        164.4675
4.7022                 0.2940685        163.6296        0.7498574        36.93181        0.7498566        36.93181        0.2940702        163.6297
4.7036                 0.2978495        162.7738        0.7507593        36.08565        0.7507585        36.08565        0.2978512        162.7738
4.705                  0.3014207        161.9056        0.7515579        35.22784        0.7515571        35.22785        0.3014223        161.9056
4.7064                 0.3047732        161.0312        0.7522266        34.35915        0.7522258        34.35916        0.3047748        161.0312
4.7078                  0.307905        160.1562        0.7527414        33.48076        0.7527408        33.48077        0.3079064        160.1562
4.7092                 0.3108199        159.2864         0.753082        32.59423        0.7530815        32.59424        0.3108212        159.2864
4.7106                  0.313528        158.4265        0.7532328        31.70142        0.7532323        31.70142        0.3135291        158.4265
4.712                   0.316045         157.581        0.7531834        30.80439        0.7531829        30.80439        0.3160461         157.581
4.7134                 0.3183916        156.7533        0.7529296        29.90541        0.7529291        29.90541        0.3183926        156.7533
4.7148                 0.3205924        155.9458        0.7524731        29.00673        0.7524727        29.00673        0.3205932        155.9458
4.7162                 0.3226745          155.16        0.7518225        28.11062         0.751822        28.11062        0.3226753          155.16
4.7176                 0.3246669        154.3962        0.7509918        27.21918        0.7509914        27.21918        0.3246676        154.3962
4.719                  0.3265983        153.6536        0.7500011        26.33423        0.7500007        26.33423         0.326599        153.6536
4.7204                 0.3284964        152.9303        0.7488751        25.45736        0.7488748        25.45742        0.3284969        152.9303
4.7218                 0.3303856        152.2234        0.7476424        24.58975        0.7476421        24.58977        0.3303862        152.2235
4.7232                  0.332287        151.5294        0.7463344        23.73208         0.746334        23.73211        0.3322876        151.5294
4.7246                 0.3342159        150.8437        0.7449837        22.88461        0.7449833        22.88461        0.3342166        150.8438
4.726                  0.3361823        150.1619        0.7436231          22.047        0.7436227        22.04705         0.336183         150.162
4.7274                 0.3381893         149.479         0.742284        21.21854        0.7422835        21.21857        0.3381901         149.479
4.7288                 0.3402336        148.7901         0.740995        20.39793        0.7409947        20.39796        0.3402344        148.7902
4.7302                 0.3423054         148.091        0.7397809        19.58341        0.7397806        19.58344        0.3423063        148.0911
4.7316                  0.344389        147.3777        0.7386612        18.77297         0.738661        18.77299        0.3443899        147.3778
4.733                  0.3464633        146.6471        0.7376496        17.96422        0.7376494        17.96424        0.3464644        146.6472
4.7344                 0.3485037        145.8971        0.7367532        17.15464        0.7367529        17.15466        0.3485048        145.8972
4.7358                 0.3504821        145.1264         0.735972        16.34163        0.7359718        16.34166        0.3504832        145.1264
4.7372                 0.3523692        144.3347        0.7352995        15.52266        0.7352994        15.52269        0.3523703        144.3348
4.7386                 0.3541357         143.523        0.7347227        14.69535        0.7347226        14.69538        0.3541369        143.5231
4.74                   0.3557537         142.693        0.7342224        13.85761        0.7342223        13.85764        0.3557549         142.693
4.7414                 0.3571977        141.8472        0.7337748         13.0077        0.7337747        13.00773         0.357199        141.8472
4.7428                 0.3584464        140.9891         0.733352        12.14435         0.733352        12.14437        0.3584476        140.9891
4.7442                 0.3594829        140.1225        0.7329239        11.26674        0.7329239        11.26677        0.3594841        140.1225
4.7456                 0.3602962        139.2518         0.732459        10.37462         0.732459        10.37464        0.3602973        139.2518
4.747                  0.3608813        138.3814        0.7319263        9.468241        0.7319265        9.468261        0.3608824        138.3814
4.7484                 0.3612396         137.516        0.7312967        8.548372        0.7312968        8.548391        0.3612407         137.516
4.7498                 0.3613786        136.6599        0.7305439        7.616261        0.7305441        7.616278        0.3613796        136.6598
4.7512                  0.361312         135.817        0.7296463        6.673566        0.7296464        6.673581        0.3613128        135.8169
4.7526                 0.3610586        134.9908        0.7285872        5.722286        0.7285875        5.722298        0.3610593        134.9907
4.754                  0.3606416         134.184        0.7273567        4.764666        0.7273569        4.764675        0.3606422         134.184
4.7554                 0.3600878        133.3986        0.7259511        3.803104        0.7259513        3.803111        0.3600883        133.3985
4.7568                 0.3594259        132.6354        0.7243738        2.840038         0.724374        2.840042        0.3594263        132.6353
4.7582                 0.3586852        131.8942        0.7226353        1.877836        0.7226356        1.877837        0.3586855        131.8942
4.7596                 0.3578938        131.1741        0.7207526       0.9186875        0.7207529       0.9186857        0.3578941         131.174
4.761                  0.3570778        130.4726        0.7187487      -0.0355056        0.7187489     -0.03551012         0.357078        130.4727
4.7624                  0.356259        129.7869        0.7166517      -0.9832272        0.7166519      -0.9832342        0.3562591        129.7869
4.7638                  0.355454        129.1127        0.7144937       -1.923432        0.7144939       -1.923441         0.355454        129.1128
4.7652                 0.3546733        128.4458        0.7123095       -2.855617        0.7123096       -2.855628        0.3546733        128.4458
4.7666                 0.3539203         127.781        0.7101351       -3.779867        0.7101352        -3.77988        0.3539203        127.7811
4.768                  0.3531911        127.1135        0.7080058       -4.696886        0.7080059       -4.696899        0.3531912        127.1136
4.7694                 0.3524743        126.4383        0.7059554       -5.607984        0.7059553       -5.607999        0.3524744        126.4384
4.7708                 0.3517516         125.751        0.7040138       -6.515057        0.7040138       -6.515072        0.3517518        125.7511
4.7722                 0.3509985        125.0476        0.7022061       -7.420522        0.7022061       -7.420535        0.3509988        125.0478
4.7736                 0.3501855        124.3254        0.7005512       -8.327229        0.7005512       -8.327242        0.3501858        124.3256
4.775                  0.3492789        123.5824        0.6990612       -9.238355        0.6990611       -9.238365        0.3492794        123.5826
4.7764                 0.3482432        122.8179        0.6977401       -10.15727          0.69774       -10.15728        0.3482437         122.818
4.7778                  0.347042        122.0323         0.696584       -11.08741        0.6965839       -11.08742        0.3470427        122.0325
