! TOUCHSTONE file generated by CST MICROWAVE STUDIO
! Date and time: Sun Dec  1 17:26:31 2024
! Project name: test_tuning.cst
! Parameters = {airCoaxOuterDiameter=3; chamferAngle=45; chamferWidth=2; connectorLength=10; drillingHoleDiameter=4.1; feedLength=60; flareDiameter=130; flareLength=70; gratingDistance=0; gratingGap=1.90274; outletLength=30; polarizerLength=134; probe1Diameter=1.3; probe1Distance=14; probe1Length=12; probe2Diameter=1.3; probe2Distance=0; probe2Length=12; probeLength=12; smaInnerDiameter=1.3; smaOuterDiameter=4.1; transitionCoefficient=1.33; waveguideFeedLength=30; waveguideSide=50; waveguideThickness=3; wireCount=25; wireDiameter=1.17699}
! Header version: 2024
! Port assignment regex: !\s*Touchstone port\s*([0-9]+)\s*=\s*(CST MWS port|CST DES external port|CST DES block port)\s*(.+)\s* \(\"(.*)\"\)(\s*mode\s*([0-9]+))?.*
! Touchstone port assignment:
! Touchstone port 1 = CST MWS port 1 ("Input1")
! Touchstone port 2 = CST MWS port 2 ("Input2")
# GHz S MA R 50
4.6                    0.2943905        85.75587        0.2201513        96.58972        0.2201513        96.58965        0.2943905        85.75593
4.6014                 0.2925458        85.33779        0.2213661        95.96557        0.2213661         95.9655        0.2925458        85.33785
4.6028                 0.2906004        84.92309        0.2225037        95.34843        0.2225037        95.34836        0.2906005        84.92315
4.6042                 0.2885553        84.51303        0.2235675        94.73922        0.2235676        94.73915        0.2885554        84.51311
4.6056                  0.286412        84.10896        0.2245614        94.13875        0.2245614        94.13868        0.2864121        84.10903
4.607                  0.2841724        83.71223        0.2254892        93.54778        0.2254893        93.54772        0.2841725        83.71228
4.6084                 0.2818389        83.32423        0.2263554        92.96701        0.2263554        92.96694         0.281839        83.32428
4.6098                 0.2794142        82.94636        0.2271644        92.39703        0.2271644        92.39696        0.2794144        82.94643
4.6112                 0.2769018        82.58011        0.2279209        91.83837        0.2279209        91.83832         0.276902        82.58017
4.6126                 0.2743054        82.22694        0.2286298        91.29149        0.2286298        91.29144        0.2743056        82.22699
4.614                  0.2716292        81.88834        0.2292963        90.75676        0.2292963         90.7567        0.2716294        81.88839
4.6154                 0.2688779        81.56583        0.2299255        90.23441        0.2299255        90.23436         0.268878         81.5659
4.6168                 0.2660565        81.26096        0.2305228        89.72466        0.2305228        89.72461        0.2660566        81.26103
4.6182                 0.2631705        80.97528        0.2310938        89.22756        0.2310937        89.22751        0.2631707        80.97537
4.6196                 0.2602261        80.71038        0.2316438        88.74311        0.2316437        88.74307        0.2602263        80.71045
4.621                  0.2572294        80.46779        0.2321784        88.27122        0.2321784        88.27116        0.2572296        80.46784
4.6224                 0.2541872        80.24908        0.2327032        87.81163        0.2327032        87.81158        0.2541874        80.24914
4.6238                 0.2511067        80.05579        0.2332238        87.36405        0.2332238        87.36401        0.2511069        80.05586
4.6252                 0.2479954        79.88947        0.2337456        86.92806        0.2337455        86.92801        0.2479956        79.88953
4.6266                  0.244861        79.75161        0.2342738        86.50312        0.2342738        86.50307        0.2448612        79.75166
4.628                  0.2417118        79.64365        0.2348139         86.0886        0.2348139        86.08856        0.2417119        79.64371
4.6294                 0.2385561          79.567        0.2353708        85.68378        0.2353707        85.68374        0.2385563        79.56705
4.6308                 0.2354027        79.52298        0.2359493        85.28784        0.2359492        85.28779        0.2354028        79.52303
4.6322                 0.2322604         79.5128         0.236554        84.89983        0.2365539         84.8998        0.2322606        79.51286
4.6336                 0.2291385        79.53761        0.2371892        84.51876        0.2371891        84.51874        0.2291386        79.53767
4.635                  0.2260461        79.59841        0.2378589        84.14356        0.2378589        84.14353        0.2260462        79.59846
4.6364                 0.2229926          79.696        0.2385667        83.77304        0.2385667        83.77302        0.2229927        79.69606
4.6378                 0.2199874         79.8311        0.2393159        83.40601        0.2393159        83.40598        0.2199875        79.83115
4.6392                 0.2170399        80.00414        0.2401094        83.04114        0.2401093        83.04112          0.21704         80.0042
4.6406                 0.2141594         80.2154        0.2409495        82.67714        0.2409494        82.67711        0.2141595        80.21545
4.642                  0.2113551        80.46489        0.2418382        82.31263        0.2418381        82.31261        0.2113552        80.46494
4.6434                 0.2086359        80.75231        0.2427769        81.94622        0.2427769         81.9462         0.208636        80.75237
4.6448                 0.2060106        81.07717        0.2437669        81.57653        0.2437668        81.57651        0.2060107         81.0772
4.6462                 0.2034873        81.43855        0.2448085        81.20212        0.2448085        81.20211        0.2034874         81.4386
4.6476                  0.201074        81.83529        0.2459018        80.82167        0.2459018        80.82164        0.2010741        81.83534
4.649                  0.1987778        82.26591        0.2470464        80.43376        0.2470464        80.43373        0.1987779        82.26596
4.6504                 0.1966056        82.72852        0.2482413        80.03706        0.2482413        80.03703        0.1966057        82.72857
4.6518                 0.1945631        83.22097        0.2494852         79.6303        0.2494851        79.63027        0.1945632        83.22103
4.6532                 0.1926556        83.74074        0.2507761        79.21225         0.250776        79.21221        0.1926557         83.7408
4.6546                 0.1908873        84.28504        0.2521116         78.7817        0.2521116        78.78166        0.1908874        84.28509
4.656                  0.1892616        84.85076        0.2534891        78.33757        0.2534891        78.33754        0.1892616        84.85082
4.6574                 0.1877808        85.43458        0.2549054        77.87881        0.2549053        77.87878        0.1877809        85.43465
4.6588                 0.1864463        86.03295        0.2563568        77.40448        0.2563567        77.40445        0.1864463          86.033
4.6602                 0.1852583        86.64218        0.2578394        76.91373        0.2578393         76.9137        0.1852584        86.64223
4.6616                 0.1842162        87.25846         0.259349        76.40572        0.2593489        76.40569        0.1842162        87.25854
4.663                  0.1833179        87.87796         0.260881        75.87978        0.2608809        75.87977        0.1833179        87.87803
4.6644                 0.1825606        88.49683        0.2624304        75.33534        0.2624304        75.33529        0.1825607         88.4969
4.6658                 0.1819405         89.1113        0.2639923        74.77181        0.2639923        74.77179        0.1819406         89.1114
4.6672                 0.1814527        89.71774        0.2655613        74.18881        0.2655612        74.18879        0.1814528        89.71783
4.6686                 0.1810915        90.31266        0.2671319        73.58599        0.2671318        73.58597        0.1810915        90.31275
4.67                   0.1808502        90.89283        0.2686984        72.96306        0.2686983        72.96303        0.1808502        90.89293
4.6714                 0.1807218        91.45527         0.270255        72.31987        0.2702549        72.31984        0.1807218        91.45536
4.6728                 0.1806982        91.99729        0.2717959        71.65627        0.2717959        71.65625        0.1806982        91.99737
4.6742                 0.1807712        92.51651        0.2733151        70.97228        0.2733151        70.97225        0.1807712        92.51662
4.6756                 0.1809318        93.01096        0.2748067        70.26789        0.2748066        70.26786        0.1809319        93.01107
4.677                   0.181171        93.47892        0.2762646        69.54322        0.2762644        69.54318        0.1811711        93.47903
4.6784                 0.1814795        93.91909        0.2776827        68.79842        0.2776826        68.79839        0.1814796        93.91921
4.6798                 0.1818479         94.3305        0.2790551         68.0337         0.279055        68.03369        0.1818479        94.33061
4.6812                 0.1822666         94.7125         0.280376        67.24935        0.2803759        67.24933        0.1822667         94.7126
4.6826                 0.1827264        95.06476        0.2816394        66.44565        0.2816393        66.44563        0.1827264        95.06486
4.684                  0.1832179        95.38726        0.2828396        65.62298        0.2828395        65.62296         0.183218        95.38739
4.6854                 0.1837322         95.6803        0.2839709        64.78172        0.2839708         64.7817        0.1837323        95.68044
4.6868                 0.1842606         95.9444        0.2850279        63.92229        0.2850278        63.92226        0.1842607        95.94452
4.6882                 0.1847947        96.18029        0.2860051        63.04517        0.2860049        63.04515        0.1847948        96.18042
4.6896                 0.1853265        96.38897        0.2868972        62.15084        0.2868971        62.15082        0.1853266         96.3891
4.691                  0.1858486         96.5716        0.2876993        61.23981        0.2876992        61.23978        0.1858487        96.57173
4.6924                 0.1863538        96.72952        0.2884064        60.31261        0.2884062         60.3126         0.186354        96.72965
4.6938                 0.1868357        96.86417        0.2890138        59.36981        0.2890137         59.3698        0.1868359         96.8643
4.6952                 0.1872883        96.97718        0.2895171        58.41199        0.2895169        58.41197        0.1872884        96.97731
4.6966                  0.187706        97.07024        0.2899119        57.43971        0.2899117         57.4397        0.1877062        97.07037
4.698                  0.1880842        97.14515         0.290194        56.45361        0.2901939        56.45359        0.1880844        97.14528
4.6994                 0.1884184        97.20378        0.2903598        55.45429        0.2903597        55.45426        0.1884186        97.20391
4.7008                  0.188705        97.24804        0.2904056        54.44236        0.2904054        54.44235        0.1887052        97.24817
4.7022                 0.1889409        97.27992        0.2903279         53.4185        0.2903276        53.41848        0.1889411        97.28005
4.7036                 0.1891237        97.30142        0.2901235        52.38332        0.2901233        52.38332        0.1891239        97.30155
4.705                  0.1892514        97.31454        0.2897897        51.33751        0.2897894        51.33751        0.1892516        97.31467
4.7064                 0.1893229        97.32135        0.2893237        50.28172        0.2893235        50.28171        0.1893231        97.32147
4.7078                 0.1893375        97.32388        0.2887231        49.21663        0.2887229        49.21662        0.1893378        97.32401
4.7092                 0.1892952        97.32416        0.2879857        48.14293        0.2879855        48.14291        0.1892954        97.32428
4.7106                 0.1891965        97.32421        0.2871098         47.0613        0.2871096        47.06125        0.1891967        97.32433
4.712                  0.1890426        97.32604        0.2860936        45.97241        0.2860934        45.97241        0.1890428        97.32614
4.7134                 0.1888352        97.33158        0.2849357        44.87704        0.2849355        44.87704        0.1888354        97.33168
4.7148                 0.1885766        97.34278        0.2836351        43.77591        0.2836349        43.77591        0.1885768         97.3429
4.7162                 0.1882697        97.36151        0.2821909        42.66968        0.2821907        42.66968        0.1882699        97.36161
4.7176                 0.1879179        97.38952        0.2806026        41.55915        0.2806023        41.55915        0.1879182        97.38965
4.719                  0.1875252        97.42862        0.2788697        40.44507        0.2788695        40.44507        0.1875255        97.42872
4.7204                  0.187096        97.48038        0.2769923        39.32821        0.2769921        39.32823        0.1870963        97.48048
4.7218                 0.1866353         97.5464        0.2749706        38.20934        0.2749703         38.2094        0.1866356         97.5465
4.7232                 0.1861485        97.62807         0.272805        37.08933        0.2728048        37.08933        0.1861488        97.62817
4.7246                 0.1856414        97.72671        0.2704963        35.96895        0.2704961        35.96895        0.1856417        97.72687
4.726                  0.1851203        97.84355        0.2680455        34.84907        0.2680453         34.8491        0.1851206        97.84364
4.7274                 0.1845918        97.97953        0.2654538        33.73057        0.2654536         33.7306        0.1845921        97.97962
4.7288                 0.1840629        98.13549        0.2627227        32.61437        0.2627225         32.6144        0.1840632        98.13561
4.7302                 0.1835408        98.31209         0.259854        31.50136        0.2598538        31.50139        0.1835411        98.31221
4.7316                  0.183033        98.50979        0.2568497        30.39257        0.2568495        30.39257        0.1830334        98.50989
4.733                  0.1825472        98.72876        0.2537121        29.28894        0.2537119        29.28897        0.1825475        98.72888
4.7344                  0.182091        98.96905        0.2504436        28.19161        0.2504434        28.19161        0.1820913        98.96915
4.7358                 0.1816724        99.23037        0.2470471        27.10161        0.2470468        27.10164        0.1816727        99.23047
4.7372                 0.1812992        99.51216        0.2435253        26.02013        0.2435252        26.02015        0.1812995        99.51226
4.7386                 0.1809791        99.81369        0.2398818        24.94837        0.2398816         24.9484        0.1809794        99.81378
4.74                   0.1807197        100.1338        0.2361198        23.88763        0.2361196        23.88766          0.18072        100.1339
4.7414                 0.1805284        100.4712        0.2322431        22.83926        0.2322429        22.83929        0.1805287        100.4714
4.7428                 0.1804122        100.8243        0.2282556        21.80468        0.2282554        21.80472        0.1804126        100.8244
4.7442                  0.180378        101.1913        0.2241614        20.78545        0.2241612        20.78548        0.1803783        101.1914
4.7456                 0.1804317        101.5699        0.2199649        19.78318        0.2199647        19.78322         0.180432          101.57
4.747                  0.1805792        101.9578        0.2156708        18.79963        0.2156706        18.79967        0.1805796        101.9579
4.7484                 0.1808257        102.3525        0.2112838        17.83668        0.2112836        17.83672         0.180826        102.3526
4.7498                 0.1811754        102.7513         0.206809        16.89634        0.2068089        16.89638        0.1811757        102.7514
4.7512                 0.1816322        103.1513        0.2022518         15.9808        0.2022516        15.98085        0.1816325        103.1514
4.7526                  0.182199        103.5494        0.1976176        15.09242        0.1976175        15.09247        0.1821994        103.5495
4.754                  0.1828782        103.9428        0.1929123        14.23378        0.1929122        14.23383        0.1828786        103.9429
4.7554                  0.183671        104.3281         0.188142        13.40765        0.1881418         13.4077        0.1836714        104.3283
4.7568                 0.1845782        104.7026        0.1833128         12.6171        0.1833127        12.61715        0.1845785        104.7027
4.7582                 0.1855993         105.063        0.1784315        11.86545        0.1784314        11.86551        0.1855997        105.0631
4.7596                 0.1867334        105.4066        0.1735049        11.15639        0.1735048        11.15645        0.1867338        105.4067
4.761                  0.1879787        105.7305        0.1685402        10.49392        0.1685401        10.49399        0.1879791        105.7306
4.7624                 0.1893326        106.0321        0.1635451        9.882496         0.163545        9.882563         0.189333        106.0322
4.7638                 0.1907918         106.309        0.1585274        9.327011        0.1585273        9.327081        0.1907921         106.309
4.7652                 0.1923522        106.5589        0.1534956        8.832892        0.1534955        8.832965        0.1923526         106.559
4.7666                 0.1940094        106.7798        0.1484585        8.406142        0.1484585        8.406217        0.1940098        106.7799
4.768                  0.1957582        106.9701        0.1434256        8.053421        0.1434256        8.053498        0.1957586        106.9701
4.7694                 0.1975929         107.128        0.1384068        7.782115        0.1384068        7.782196        0.1975933        107.1281
4.7708                 0.1995076        107.2524        0.1334129        7.600425        0.1334129        7.600506        0.1995079        107.2525
4.7722                 0.2014956        107.3423        0.1284553        7.517436        0.1284553        7.517519         0.201496        107.3424
4.7736                 0.2035503        107.3967        0.1235464        7.543203        0.1235464         7.54329        0.2035507        107.3968
4.775                  0.2056648        107.4152        0.1186997        7.688828        0.1186997        7.688915        0.2056652        107.4153
4.7764                 0.2078318        107.3973        0.1139296        7.966496        0.1139297        7.966585        0.2078322        107.3974
4.7778                 0.2100439        107.3429        0.1092522        8.389504        0.1092522        8.389595        0.2100443         107.343
