! TOUCHSTONE file generated by CST MICROWAVE STUDIO
! Date and time: Sat Nov 30 03:28:49 2024
! Project name: test_tuning.cst
! Parameters = {airCoaxOuterDiameter=3; chamferAngle=45; chamferWidth=28; connectorLength=10; drillingHoleDiameter=4.1; feedLength=60; flareDiameter=130; flareLength=70; gratingDistance=0; gratingGap=1.90274; outletLength=30; polarizerLength=134; probe1Diameter=1.3; probe1Distance=14; probe1Length=12; probe2Diameter=1.3; probe2Distance=0; probe2Length=12; probeLength=12; smaInnerDiameter=1.3; smaOuterDiameter=4.1; transitionCoefficient=1.33; waveguideFeedLength=30; waveguideSide=50; waveguideThickness=3; wireCount=25; wireDiameter=1.17699}
! Header version: 2024
! Port assignment regex: !\s*Touchstone port\s*([0-9]+)\s*=\s*(CST MWS port|CST DES external port|CST DES block port)\s*(.+)\s* \(\"(.*)\"\)(\s*mode\s*([0-9]+))?.*
! Touchstone port assignment:
! Touchstone port 1 = CST MWS port 1 ("Input1")
! Touchstone port 2 = CST MWS port 2 ("Input2")
# GHz S MA R 50
4.6                    0.1479279       -145.3473        0.6486546        76.13117        0.6486546        76.13116        0.1479274       -145.3472
4.6014                 0.1516141       -146.5697        0.6491471        75.42991        0.6491472         75.4299        0.1516137       -146.5697
4.6028                 0.1553309       -147.7265        0.6496236        74.73509        0.6496238        74.73506        0.1553307       -147.7264
4.6042                 0.1590932       -148.8238         0.650101         74.0462        0.6501012        74.04618         0.159093       -148.8236
4.6056                 0.1629149       -149.8682        0.6505941        73.36254        0.6505945        73.36251        0.1629149        -149.868
4.607                  0.1668087       -150.8672        0.6511162        72.68311        0.6511166        72.68308        0.1668088       -150.8671
4.6084                 0.1707848       -151.8287        0.6516773        72.00669        0.6516776        72.00669         0.170785       -151.8285
4.6098                 0.1748505       -152.7604        0.6522842        71.33202        0.6522847        71.33199        0.1748509       -152.7602
4.6112                 0.1790098       -153.6701        0.6529409        70.65764        0.6529415        70.65762        0.1790103         -153.67
4.6126                 0.1832627       -154.5651        0.6536475        69.98219         0.653648        69.98216        0.1832633        -154.565
4.614                  0.1876055        -155.452        0.6544009        69.30434        0.6544015        69.30429        0.1876063       -155.4519
4.6154                 0.1920309       -156.3366        0.6551951        68.62287        0.6551957        68.62281        0.1920317       -156.3366
4.6168                 0.1965278       -157.2236        0.6560216        67.93674        0.6560221        67.93669        0.1965287       -157.2236
4.6182                 0.2010827       -158.1166        0.6568694        67.24517        0.6568699        67.24512        0.2010836       -158.1166
4.6196                 0.2056793        -159.018        0.6577266        66.54761         0.657727        66.54755        0.2056802       -159.0181
4.621                  0.2102997       -159.9292        0.6585805        65.84373        0.6585809        65.84366        0.2103006       -159.9293
4.6224                 0.2149254       -160.8503        0.6594183        65.13353        0.6594186        65.13347        0.2149263       -160.8505
4.6238                 0.2195377       -161.7806        0.6602279        64.41722        0.6602282        64.41714        0.2195386       -161.7808
4.6252                 0.2241186       -162.7184        0.6609987        63.69525        0.6609989        63.69518        0.2241194       -162.7185
4.6266                 0.2286517       -163.6613        0.6617219        62.96824         0.661722        62.96816        0.2286524       -163.6615
4.628                  0.2331225       -164.6065        0.6623907        62.23698        0.6623908         62.2369        0.2331231       -164.6067
4.6294                 0.2375193       -165.5507        0.6630015        61.50232        0.6630015        61.50225        0.2375198        -165.551
4.6308                 0.2418334       -166.4907        0.6635531        60.76517        0.6635529        60.76509        0.2418338       -166.4909
4.6322                 0.2460596       -167.4228        0.6640471        60.02638        0.6640469        60.02631        0.2460599        -167.423
4.6336                  0.250196       -168.3439        0.6644877        59.28678        0.6644875        59.28671        0.2501962       -168.3441
4.635                  0.2542442       -169.2509        0.6648818        58.54701        0.6648817        58.54693        0.2542444       -169.2511
4.6364                 0.2582093       -170.1412         0.665238        57.80758        0.6652377        57.80751        0.2582093       -170.1414
4.6378                 0.2620991       -171.0128        0.6655664        57.06877         0.665566        57.06871        0.2620991        -171.013
4.6392                 0.2659241       -171.8643        0.6658778        56.33067        0.6658774        56.33061        0.2659241       -171.8644
4.6406                  0.269697       -172.6947        0.6661838        55.59305        0.6661835        55.59301         0.269697       -172.6948
4.642                  0.2734315       -173.5039        0.6664953        54.85552        0.6664949        54.85548        0.2734315        -173.504
4.6434                 0.2771423       -174.2924        0.6668218        54.11742        0.6668215        54.11738        0.2771423       -174.2925
4.6448                 0.2808438       -175.0615         0.667172        53.37787        0.6671715        53.37783        0.2808437       -175.0615
4.6462                 0.2845495       -175.8128        0.6675516        52.63584        0.6675512         52.6358        0.2845496       -175.8128
4.6476                 0.2882719       -176.5486        0.6679644        51.89016        0.6679641        51.89013         0.288272       -176.5486
4.649                   0.292021       -177.2715        0.6684112        51.13959        0.6684108        51.13958        0.2920212       -177.2715
4.6504                 0.2958045       -177.9844        0.6688896        50.38288        0.6688892        50.38285        0.2958047       -177.9844
4.6518                 0.2996269       -178.6902        0.6693944        49.61878        0.6693941        49.61876        0.2996272       -178.6902
4.6532                 0.3034898       -179.3919         0.669918        48.84615        0.6699176        48.84613        0.3034903       -179.3919
4.6546                 0.3073918        179.9077        0.6704493        48.06398         0.670449        48.06396        0.3073923        179.9077
4.656                  0.3113281        179.2061        0.6709759        47.27145        0.6709756        47.27143        0.3113286        179.2061
4.6574                 0.3152913        178.5012        0.6714834        46.46794        0.6714829        46.46792        0.3152919        178.5012
4.6588                 0.3192719        177.7913        0.6719563        45.65304        0.6719558        45.65302        0.3192725        177.7913
4.6602                 0.3232582        177.0753        0.6723786        44.82664        0.6723783        44.82662        0.3232588        177.0752
4.6616                 0.3272375        176.3525        0.6727348        43.98881        0.6727345         43.9888        0.3272382        176.3524
4.663                  0.3311966        175.6228        0.6730098        43.13989        0.6730095        43.13988        0.3311972        175.6227
4.6644                  0.335122        174.8867          0.67319        42.28041        0.6731896         42.2804        0.3351226        174.8866
4.6658                 0.3390013        174.1449        0.6732632        41.41108        0.6732629        41.41107        0.3390019        174.1448
4.6672                 0.3428231        173.3987          0.67322        40.53274        0.6732197        40.53273        0.3428236        173.3986
4.6686                 0.3465778        172.6496         0.673053        39.64631        0.6730526        39.64631        0.3465782        172.6495
4.67                    0.350258        171.8994        0.6727575        38.75279        0.6727572        38.75279        0.3502584        171.8993
4.6714                 0.3538587        171.1499        0.6723314        37.85313         0.672331        37.85314        0.3538591        171.1498
4.6728                 0.3573776        170.4029         0.671775        36.94825        0.6717747        36.94826        0.3573778        170.4028
4.6742                 0.3608149        169.6604        0.6710913        36.03897        0.6710909        36.03899        0.3608151        169.6603
4.6756                 0.3641734         168.924        0.6702844        35.12597        0.6702841        35.12598        0.3641736        168.9239
4.677                  0.3674584        168.1951        0.6693606        34.20975        0.6693603        34.20976        0.3674585         168.195
4.6784                  0.370677         167.475        0.6683267        33.29062        0.6683266        33.29062        0.3706771        167.4749
4.6798                 0.3738382        166.7644        0.6671902        32.36867        0.6671901        32.36868        0.3738382        166.7643
4.6812                 0.3769519         166.064        0.6659581         31.4438         0.665958        31.44381         0.376952         166.064
4.6826                 0.3800292        165.3739        0.6646366        30.51567        0.6646365        30.51568        0.3800292        165.3739
4.684                  0.3830807         164.694        0.6632304        29.58376        0.6632304        29.58377        0.3830808         164.694
4.6854                 0.3861174        164.0237        0.6617426         28.6474        0.6617426        28.64741        0.3861174        164.0237
4.6868                 0.3891489        163.3623        0.6601735        27.70577        0.6601736        27.70578        0.3891491        163.3623
4.6882                 0.3921841        162.7088        0.6585211          26.758        0.6585212          26.758        0.3921843        162.7088
4.6896                 0.3952301         162.062        0.6567804        25.80315        0.6567805        25.80315        0.3952303         162.062
4.691                  0.3982925        161.4207        0.6549433        24.84034        0.6549432        24.84035        0.3982927        161.4207
4.6924                 0.4013749        160.7836        0.6529987        23.86877        0.6529988        23.86877        0.4013752        160.7836
4.6938                 0.4044794        160.1494        0.6509335        22.88776        0.6509336        22.88775        0.4044797        160.1494
4.6952                 0.4076063        159.5171        0.6487317        21.89683        0.6487318        21.89682        0.4076068        159.5171
4.6966                 0.4107546        158.8855        0.6463755        20.89573        0.6463756        20.89572        0.4107551        158.8855
4.698                  0.4139222        158.2539         0.643846         19.8845        0.6438461        19.88449        0.4139227        158.2538
4.6994                 0.4171063        157.6216        0.6411236        18.86348        0.6411236        18.86346        0.4171068        157.6215
4.7008                 0.4203039        156.9882        0.6381884        17.83332        0.6381885         17.8333        0.4203045        156.9881
4.7022                 0.4235122        156.3535        0.6350217        16.79503        0.6350218        16.79501        0.4235129        156.3534
4.7036                 0.4267291        155.7174         0.631606        15.74995        0.6316059        15.74993        0.4267297        155.7174
4.705                  0.4299534        155.0801        0.6279255        14.69975        0.6279255        14.69973        0.4299539          155.08
4.7064                  0.433185        154.4416        0.6239678        13.64642        0.6239678         13.6464        0.4331855        154.4416
4.7078                 0.4364256        153.8022        0.6197233        12.59222        0.6197233         12.5922        0.4364262        153.8022
4.7092                 0.4396784        153.1621        0.6151864        11.53967        0.6151863        11.53965        0.4396789         153.162
4.7106                 0.4429482        152.5212        0.6103552        10.49149        0.6103551        10.49149        0.4429486        152.5212
4.712                  0.4462411        151.8795        0.6052327        9.450618        0.6052326        9.450617        0.4462416        151.8795
4.7134                 0.4495647        151.2366        0.5998259        8.420031        0.5998257        8.420031        0.4495651        151.2366
4.7148                  0.452927         150.592        0.5941464        7.402808        0.5941463        7.402809        0.4529273         150.592
4.7162                 0.4563363        149.9449        0.5882104        6.402015        0.5882103         6.40201        0.4563367        149.9448
4.7176                 0.4598013        149.2939        0.5820381        5.420674         0.582038        5.420672        0.4598015        149.2939
4.719                  0.4633289        148.6379        0.5756531        4.461689         0.575653        4.461689        0.4633292        148.6378
4.7204                 0.4669253        147.9749         0.569083        3.527787        0.5690829        3.527789        0.4669256        147.9749
4.7218                 0.4705944        147.3032        0.5623576        2.621471        0.5623575        2.621475        0.4705947        147.3032
4.7232                 0.4743375        146.6205        0.5555092        1.744964        0.5555091        1.744969        0.4743378        146.6205
4.7246                 0.4781525        145.9248        0.5485714       0.9001593        0.5485713       0.9001656        0.4781528        145.9247
4.726                  0.4820343        145.2136        0.5415789      0.08858763        0.5415789      0.08859426        0.4820345        145.2136
4.7274                 0.4859735        144.4849        0.5345661      -0.6886191        0.5345661      -0.6886128        0.4859738        144.4849
4.7288                 0.4899576        143.7366        0.5275672       -1.430748        0.5275672       -1.430742        0.4899579        143.7366
4.7302                 0.4939697        142.9668        0.5206148       -2.137514        0.5206147        -2.13751        0.4939701        142.9668
4.7316                 0.4979897         142.174        0.5137397       -2.809061        0.5137397       -2.809058        0.4979902         142.174
4.733                  0.5019943         141.357        0.5069704       -3.445944        0.5069705       -3.445943        0.5019946         141.357
4.7344                 0.5059572         140.515        0.5003324       -4.049108        0.5003325        -4.04911        0.5059576         140.515
4.7358                 0.5098503        139.6477        0.4938482       -4.619849        0.4938482       -4.619853        0.5098507        139.6477
4.7372                 0.5136441        138.7551        0.4875368       -5.159763        0.4875369       -5.159771        0.5136446        138.7551
4.7386                 0.5173084         137.838        0.4814137       -5.670706        0.4814138       -5.670714         0.517309         137.838
4.74                   0.5208134        136.8973        0.4754912       -6.154717        0.4754913       -6.154728        0.5208139        136.8972
4.7414                 0.5241297        135.9344        0.4697781       -6.613976        0.4697782       -6.613988        0.5241301        135.9344
4.7428                 0.5272302        134.9514        0.4642802       -7.050736        0.4642803       -7.050747        0.5272306        134.9514
4.7442                 0.5300899        133.9504        0.4590007       -7.467267        0.4590007       -7.467282        0.5300903        133.9503
4.7456                 0.5326872        132.9339        0.4539402       -7.865824        0.4539402       -7.865839        0.5326876        132.9338
4.747                  0.5350039        131.9047        0.4490976       -8.248598        0.4490976       -8.248612        0.5350043        131.9047
4.7484                 0.5370261        130.8658        0.4444702       -8.617687        0.4444701         -8.6177        0.5370264        130.8657
4.7498                 0.5387441        129.8201        0.4400538       -8.975094        0.4400537       -8.975105        0.5387444        129.8201
4.7512                 0.5401528        128.7708        0.4358438       -9.322712        0.4358437       -9.322721        0.5401531        128.7708
4.7526                  0.541252        127.7208        0.4318349        -9.66233        0.4318348       -9.662337        0.5412523        127.7208
4.754                  0.5420459        126.6732        0.4280213       -9.995651        0.4280213       -9.995655        0.5420461        126.6732
4.7554                 0.5425429        125.6306        0.4243975        -10.3243        0.4243974        -10.3243         0.542543        125.6306
4.7568                 0.5427555        124.5955        0.4209573       -10.64986        0.4209572       -10.64986        0.5427556        124.5955
4.7582                 0.5426997        123.5703        0.4176949       -10.97387        0.4176948       -10.97386        0.5426998        123.5703
4.7596                 0.5423944        122.5568        0.4146043       -11.29785        0.4146042       -11.29784        0.5423946        122.5568
4.761                  0.5418609        121.5566        0.4116789       -11.62334        0.4116789       -11.62333         0.541861        121.5566
4.7624                 0.5411216        120.5707        0.4089122       -11.95184        0.4089122       -11.95183        0.5411218        120.5707
4.7638                 0.5402001        119.5999        0.4062969       -12.28489        0.4062969       -12.28488        0.5402003           119.6
4.7652                 0.5391199        118.6447        0.4038252       -12.62398        0.4038251       -12.62397        0.5391201        118.6447
4.7666                 0.5379035        117.7049        0.4014882       -12.97059        0.4014882       -12.97057        0.5379037        117.7049
4.768                  0.5365721        116.7801        0.3992766       -13.32609        0.3992766       -13.32608        0.5365723        116.7801
4.7694                 0.5351448        115.8695        0.3971799       -13.69179          0.39718       -13.69178        0.5351451        115.8695
4.7708                 0.5336381         114.972        0.3951871       -14.06886        0.3951871       -14.06885        0.5336384        114.9721
4.7722                 0.5320654        114.0866         0.393286       -14.45828        0.3932861       -14.45827        0.5320657        114.0866
4.7736                 0.5304369        113.2117        0.3914642       -14.86084        0.3914643       -14.86083        0.5304373        113.2117
4.775                  0.5287594        112.3459        0.3897089       -15.27708         0.389709       -15.27707        0.5287599        112.3459
4.7764                 0.5270368        111.4877        0.3880073       -15.70729        0.3880074       -15.70729        0.5270372        111.4877
4.7778                 0.5252691        110.6358        0.3863465        -16.1515        0.3863466        -16.1515        0.5252695        110.6358
